!Created with skrf (http://scikit-rf.org).
# GHz S RI R 50.0 
!freq ReS11 ImS11 ReS21 ImS21 ReS12 ImS12 ReS22 ImS22
0.5 0.03247891595289953 -0.01330028237882875 -0.926057810891191 0.09788059790956544 -0.9248185866391131 0.07566831253539646 -0.025775353633140756 0.004748283589119783
0.6 0.03786627721531603 0.004305042714673975 -0.8078083402345887 -0.4499281949047894 -0.7917854740664858 -0.4716154541909744 -0.0114251319282449 -0.009344711586637022
0.7 0.03343548169238361 0.007367873795352059 -0.39795227741311534 -0.8275941926982684 -0.3664604532776972 -0.8379999466387761 0.020107943889025228 0.0013953526608091807
0.8 0.05784586375264771 -0.015796800566520344 0.15376468847721017 -0.8989281477544664 0.1885407737410273 -0.8884461802771348 0.04673814483226706 0.02527207876838211
0.9 0.07265116107964031 0.0032875647582018414 0.6422117793516131 -0.641139016701399 0.6652802861407798 -0.6124187795624515 0.014406376681926403 0.07051347038525407
1.0 0.08350850677289577 0.016073185367218867 0.8897249680283668 -0.1517197670793029 0.8910203232821395 -0.11192607178238345 -0.030523575954251564 0.052400818264430556
1.1 0.08301893718749544 0.04327570973599214 0.8082307931849381 0.3884569022748814 0.7835008917366763 0.42762358045055504 -0.0725375955519977 -0.005885094843018607
1.2 0.08663503836463206 0.05686311054191446 0.4295161342778468 0.7814456118490162 0.38619900144053676 0.799509317180787 -0.017260582844977928 -0.07920403571481095
1.3 0.06572773183397602 0.08015756932851215 -0.102395527404604 0.8820262549376716 -0.14779672010911038 0.8709563464857912 0.05698874505348911 -0.054027196218252194
1.4 0.04698532617428698 0.08784294000923022 -0.5873833136466111 0.6606100986369229 -0.6213995786034949 0.6201630092701171 0.08633825709640403 0.014840119479383428
1.5 0.026232209358922693 0.09240413822673087 -0.8569902855831771 0.19572432317971739 -0.8641936312087056 0.139512764088215 0.052536918503993765 0.07902047640983506
1.6 -0.016189853893819703 0.08738723301889328 -0.8075880347187412 -0.33156396245552816 -0.7832215249230217 -0.3830545835290136 -0.04341052215241752 0.08256560859442881
1.7 -0.021244199215516835 0.08092248103696066 -0.4679502700176533 -0.7323276620524134 -0.4112847604104956 -0.7628400644464368 -0.09061169898326076 -0.004010256676727879
1.8 -0.05086206536032624 0.07235681016023891 0.04426006430089345 -0.8642044092496401 0.11061415624830323 -0.8551440785883404 -0.059018132973615745 -0.07925956899118075
1.9 -0.05361983341708001 0.07662056401967571 0.5321825231398132 -0.678549164631115 0.5848702171695557 -0.632895452706681 0.06296722301525859 -0.09757801464790429
2.0 -0.09647630663232065 0.03982803378967607 0.8156230666260418 -0.24608577766330914 0.8329988982453165 -0.16969456895421306 0.14992182591789838 -0.04539290572431741
2.1 -0.07659742816173386 0.05208146975750606 0.7512047199735161 0.2831870565381607 0.7179982625146373 0.3543655716925583 0.14910276970252312 0.03435092788350472
2.2 -0.11068367074068557 -0.0006893330450192595 0.46807733344104974 0.7010296610612587 0.39822437765220514 0.7397716120730442 -0.027724954035890828 0.09611738314028233
2.3 -0.08567989874322127 -0.011166180107767737 -0.015326536505433808 0.8448867348476577 -0.09362394986218331 0.8362049617621785 -0.08310183441972138 0.05437644240607285
2.4 -0.09113858738059577 -0.08326610044914919 -0.4990640372386697 0.6789469831177298 -0.5628926129527474 0.6192059993768817 -0.0738328494885572 -0.09449774800199931
2.5 -0.06698479690405043 -0.11505744571714602 -0.7921656904090355 0.2598152738520318 -0.8114630254657672 0.17702813451382582 0.05719976315367356 -0.14695274779575032
2.6 -0.07406190866448384 -0.1290749676508491 -0.7938901053305516 -0.25786344915930137 -0.7583188874638793 -0.337272091130405 0.15179042018320413 -0.05028870816146963
2.7 -0.03367777295858092 -0.08702479782063655 -0.49540886350412816 -0.6709427452344283 -0.41961507118856795 -0.7139239243602775 0.12366355131704436 0.1252144524477357
2.8 -0.004224971424295468 -0.13357845100689256 -0.01734284767228872 -0.8294277865607856 0.07339427612012475 -0.819969600225566 0.010997529061865123 0.15537856392331523
2.9 0.031513155429408475 -0.15025080805143773 0.46255590885178655 -0.6790882512380993 0.5307415717766634 -0.6199895785984468 -0.11490024925922251 0.09082623754207811
3.0 0.06915292793990206 -0.16347256844269203 0.770374741926018 -0.2781610808204015 0.7920264465067315 -0.1854193491013131 -0.13203432150889619 -0.07162741149559615
3.1 0.10318164431052619 -0.0817421674358963 0.7926485026515376 0.22118284368705016 0.7547294352451099 0.3161444284025381 -0.020365043037472788 -0.10244513073553857
3.2 0.13384928228998458 -0.074854516602607 0.5176483868274114 0.6332391490084298 0.4269648745371491 0.692325986479255 0.1275572378435794 -0.07680564851232237
3.3 0.1365451735077456 -0.05145043875179699 0.04658945577622936 0.8098968305155752 -0.05562911641937962 0.8055590065129552 0.151689932301237 0.08259042857710377
3.4 0.17858547225689847 -0.043822966169075245 -0.4294376344466797 0.6833506827844897 -0.5090806444717376 0.620311230116084 0.05128299726282355 0.19121584565974972
3.5 0.18079027101170286 0.03725654598578257 -0.7394650961765945 0.30152556110718853 -0.7662380944135507 0.20619987508920254 -0.1483153779189508 0.18815180609510854
3.6 0.1847151189221832 0.06922412089059643 -0.7739380527589965 -0.19794831909747942 -0.7438673166941163 -0.2792836783839552 -0.17874148277650576 -0.004643459248593228
3.7 0.13175526384504438 0.10738208352593787 -0.5158064043008982 -0.6115791009693988 -0.44080856165285276 -0.6595635388111901 -0.09729871324709222 -0.15295848355049782
3.8 0.1343783859571259 0.11520078095615137 -0.061511941678857374 -0.7945626734818021 0.029327680052864402 -0.7916825767298346 0.11942669595121566 -0.1355420151956374
3.9 0.10326092932444433 0.17357922553271854 0.40484753301976373 -0.6767374227530853 0.4766576488179093 -0.6186034182211664 0.1842251472053194 0.06531783765901185
4.0 0.09403434865528684 0.20412508745675992 0.71498496373545 -0.30460560944922876 0.742159176947666 -0.21225006124141743 0.07891971841383597 0.22729117837944968
4.1 -0.007761232396584543 0.210021210304495 0.7699084897325317 0.17059479904496488 0.7301160228310659 0.26841743031414544 -0.15782491568151902 0.1863281506964678
4.2 -0.0390032820968864 0.19516376650272418 0.5300886034701666 0.5749104968499114 0.4373265890408865 0.6392578760395078 -0.22874033503567637 -0.004627969879084053
4.3 -0.09870630163500717 0.181243155412231 0.09162668968574667 0.7773256874965974 -0.020007207417918615 0.774335194344336 -0.13508585751671714 -0.19020515609738656
4.4 -0.09284037935164248 0.1928751306740476 -0.37078958331012335 0.6820721106622807 -0.4640623683505963 0.6124119668525186 0.11561100976642338 -0.16433608798237892
4.5 -0.17779481942637182 0.13626233729901321 -0.6982131470501091 0.3295336313030854 -0.7314969863849404 0.22048245425852117 0.20522892916877672 -0.03177553233148947
4.6 -0.21668999002847733 0.10826007772745713 -0.7540199795878366 -0.13252959692948113 -0.7196048673371958 -0.24195049159934895 0.11855639115517899 0.18059372580239022
4.7 -0.2571297324354409 0.027197971277848954 -0.5333251996885493 -0.5407749245391504 -0.4382422879549128 -0.6113609639236228 -0.10522556490709253 0.19003370679962
4.8 -0.24360370870310077 0.016953172906810116 -0.12084418580615383 -0.7516349523126776 0.0020843677478551426 -0.7527868685070046 -0.24425011370003688 0.045242111126222145
4.9 -0.2502402313861935 -0.06369468258736169 0.330143073356871 -0.6807096212854167 0.4333577759267462 -0.6160496586280223 -0.16540530081932503 -0.21552157575529776
5.0 -0.23928310530870056 -0.0914304432229692 0.65890079720846 -0.34973866283491495 0.7011067118499519 -0.2355923993383297 0.06483870474459279 -0.25036303863327125
5.1 -0.21509463179385974 -0.17650290697213744 0.7381168389149627 0.11102623814244561 0.7047133546486003 0.24141246857381216 0.23297859778746483 -0.09947405017848969
5.2 -0.17535183473266905 -0.18034429951435144 0.5347058923614774 0.5178555138584411 0.42941401057981887 0.602009156719447 0.17507520240685837 0.17746310286925887
5.3 -0.13337905628340158 -0.23267938216260076 0.13440484546601947 0.7295712154567122 -0.0032981202441312307 0.7408883887121784 -0.05477271358908904 0.21256882511820147
5.4 -0.10238760671263639 -0.23184363602215785 -0.3103693040241641 0.6696497953824353 -0.42219895410471736 0.5963718178142579 -0.25043868157694604 0.05626745091153185
5.5 -0.025251150966010688 -0.2623018010879071 -0.6437147496669455 0.3528922671379149 -0.6975877455168502 0.22416486466205648 -0.16753687911065063 -0.1907055804953074
5.6 0.036563458964005716 -0.22986146712215702 -0.735176131186859 -0.08753262700280062 -0.7001780087408337 -0.22656618768320944 0.0351706101363676 -0.24732797795315262
5.7 0.11563327195418502 -0.21037916614358673 -0.543729223663942 -0.49432048694097286 -0.4247147760840888 -0.5939411618080281 0.2524654879920739 -0.09271650308717362
5.8 0.14122252617694517 -0.1671117089044777 -0.1462733825498461 -0.7158767680710241 0.00539915882614643 -0.7272919920646552 0.20855827044390154 0.14694879184502535
5.9 0.19478971874599116 -0.13846257303195286 0.28916929179026124 -0.6775399134003262 0.42612702266880614 -0.5956106909385906 0.011178376326870576 0.26518718508956685
6.0 0.20472599473118416 -0.056040022195021216 0.6260166065364662 -0.38028032229769704 0.6895134980129369 -0.23677359712226914 -0.20366090666511372 0.16109228446284318
6.1 0.2616632212024975 0.007896848739821119 0.7274524927362325 0.060219255877756395 0.6954739923517196 0.21204254237715003 -0.19633702088803703 -0.06187307528741934
6.2 0.21845537517005054 0.07552766991611597 0.5461278773093763 0.47241356601871676 0.4364394367299146 0.5742304643631558 -0.05299592681656523 -0.2186567236633331
6.3 0.2284826642840182 0.13145456582441867 0.1651945994860581 0.7088118005503787 0.015039620688059599 0.7250199138785357 0.20380965171041995 -0.135268722529741
6.4 0.19522862273059263 0.19361505117471733 -0.253915528459985 0.6628519756723203 -0.3902195862035177 0.591306009322437 0.2540988173033254 0.11504274736424581
6.5 0.20703530635837838 0.27644612751485337 -0.5812722738639947 0.3777230342427889 -0.6481309215386246 0.24262439344684078 0.11050406919403907 0.3426621117320393
6.6 0.102934873863632 0.30492167412958887 -0.6989174372833432 -0.03227853075822003 -0.6724568353096141 -0.18333984949468557 -0.19679441746419588 0.27244237973227164
6.7 0.03816155624700002 0.33099052001906276 -0.5459619932752555 -0.4368257786312207 -0.43613563011662354 -0.545105629108645 -0.29981739542391467 0.01755592345479698
6.8 -0.030198270992910087 0.30760014257441454 -0.18698002378049763 -0.6738556197777426 -0.026662484072441095 -0.6955317959142686 -0.12017341756123522 -0.229227410907705
6.9 -0.02292578569986327 0.35381946428281497 0.23710372363199886 -0.6515168479330326 0.3813849964564272 -0.5776429523605356 0.20814664591142257 -0.13819348325791334
7.0 -0.10811756808603784 0.3312091056388549 0.5632504276181549 -0.37874970855076673 0.6359597233287181 -0.23004161612330043 0.30923212123222543 0.11287996319517964
7.1 -0.2180340903891974 0.3213284285475018 0.6806407180696454 0.020989502002212 0.6518015304409692 0.18522679475152243 0.09948076763690834 0.3660246234299389
7.2 -0.2709758134722423 0.20442922402263647 0.5382405508785624 0.40929987546434093 0.4186002729353469 0.526514700436082 -0.2071612136490225 0.2751429276240103
7.3 -0.26822737634811644 0.17486916476110642 0.19619214724816247 0.6644432670849187 0.02235168813548478 0.6901684043759286 -0.30495997026926336 0.04624190129396204
7.4 -0.25434396334604004 0.1026690506825129 -0.21658447903816191 0.662858161516212 -0.37521357978795167 0.5822380764993756 -0.10716092812834177 -0.24490072776006014
7.5 -0.32348961550434585 0.06899630483696043 -0.5517306222853785 0.39351331807148926 -0.631453643372843 0.24064604828326655 0.14500939290334097 -0.2097165455113036
7.6 -0.32668435126126766 -0.06621267235799365 -0.6738399528840101 -0.007082517866770877 -0.6447271424952995 -0.17792544503573465 0.29760097035045646 0.00649637831933661
7.7 -0.2921646475091858 -0.12828204632788776 -0.5363763994196117 -0.4049482705267722 -0.4105862261162634 -0.5290795563757221 0.13552831925526931 0.2800131975868926
7.8 -0.16747073433669293 -0.20303199136776157 -0.21209017546367742 -0.6532307877071232 -0.03687239934873876 -0.6827495597413159 -0.08027185179869702 0.2810534701248793
7.9 -0.18178746391727618 -0.2176500530206631 0.19049786946079392 -0.6529628053604423 0.35464977484653054 -0.578323094882844 -0.30700868469320597 0.0331210760013507
8.0 -0.11964346016467502 -0.2651769690187721 0.5311819387913684 -0.4039580106905831 0.6148683007163727 -0.25245213542407574 -0.18028179941365263 -0.24715268980021865
8.1 -0.09557189167509736 -0.31905327335101974 0.6647179396380222 -0.0048150436353884 0.640008503169669 0.1688547720269148 0.10585561666188159 -0.31800876183619864
8.2 0.08040610207723972 -0.29469474866762607 0.5398197158125335 0.38807480521752663 0.4174554475506508 0.5110860121209587 0.3334991441041235 -0.0715051310439289
8.3 0.12569430874773152 -0.28356882986348364 0.20863226055785716 0.6313361772658511 0.029161140317559786 0.6600662487568031 0.22244253673727452 0.18850131356506739
8.4 0.18071824144784482 -0.24017016743643071 -0.18450443284189158 0.6459572185635849 -0.3620941916814564 0.5615184819627793 -0.05639882744364292 0.28564374370139745
8.5 0.19274308555941747 -0.24582010845184885 -0.5131370460698236 0.4188958238523861 -0.6125983927897535 0.2434516512030131 -0.3190888471998734 0.054951885857750994
8.6 0.29812005930876 -0.16988723766343075 -0.6576344834719179 0.045977602251114746 -0.6333826791056163 -0.16369667248515427 -0.21731022369052136 -0.2143155139877671
8.7 0.34591889698948486 -0.09557220881200806 -0.5485464568005567 -0.340131192553479 -0.4007433414263628 -0.49888047712565914 0.05881105030315677 -0.3538450004680983
8.8 0.3465011162389025 0.035592149111517445 -0.23636689038477068 -0.6097638893580677 -0.013082063825082091 -0.6501001850744385 0.31442042442574014 -0.1450412640516452
8.9 0.29607832143842916 0.059621733476053845 0.14654014736705342 -0.6513330266882261 0.3567328440274909 -0.5596255254062619 0.28068509272602393 0.1467649214317811
9.0 0.3036885218043288 0.12882515333124384 0.48186465767965625 -0.43393454865821124 0.5957877361204339 -0.24569236355952134 -0.006790855101184259 0.3429081997719033
9.1 0.3078226182566459 0.17920106242449035 0.6349959321922707 -0.05893120356061565 0.6166337754095459 0.15071629615286283 -0.28603264720976596 0.15629454134777446
9.2 0.23305266210649808 0.29135060106373295 0.5395550228995707 0.3265346442692782 0.40296435795090574 0.47718517545480127 -0.30676686089805066 -0.13956011705697344
9.3 0.12860953981867218 0.32051697466057644 0.23351917640530628 0.5873771547886806 0.04192534014807116 0.6274734696473091 -0.029328376164461725 -0.3506569247326795
9.4 0.04448851792874387 0.34082799997334934 -0.15049699646030057 0.6215576593696507 -0.33774544451049215 0.5397818354087424 0.26535578681984734 -0.16968390945852757
9.5 0.029585668412663507 0.311096031203474 -0.47692212978374804 0.4270289013541872 -0.5893831559783149 0.24497736180750215 0.297706741166781 0.16319520588377082
9.6 -0.04812421433025921 0.3657837144844131 -0.6272823613569054 0.0790185539217041 -0.6120386631266166 -0.13856651465195224 0.005594910704670206 0.39309975428098887
9.7 -0.16214858732566995 0.3249719411592273 -0.5360492915255859 -0.2993938321294288 -0.3862651106912172 -0.47403648962564715 -0.30399769863302933 0.23262834444530195
9.8 -0.269636695580791 0.26499204086618544 -0.2509602770370848 -0.5701609099223667 -0.005102659614662608 -0.6171666923109671 -0.35864049210610904 -0.09280254106349656
9.9 -0.2662813080620561 0.18115640108628922 0.12738912363761945 -0.6257817714747897 0.36973004841158513 -0.5161869770738801 -0.049485888950506055 -0.3192068481567072
10.0 -0.29840011946008 0.15858101836773697 0.459762414086116 -0.44674906122944336 0.6009856518178538 -0.213569661909293 0.22281349762276217 -0.16710028716924405
10.1 -0.34449442574318895 0.12314825433790445 0.6149562391673566 -0.08269026833705952 0.600731530839868 0.1334639325498737 0.3047651411693662 0.1575703835362608
10.2 -0.4119484214946044 0.011182495497542327 0.5254866307685304 0.29942931064728995 0.3888071976252157 0.4608861252882721 0.03855311752894225 0.3774775204239808
10.3 -0.3357397576592159 -0.14453295617087458 0.24481409723896327 0.5672678074595549 0.03329381454033033 0.612654800146685 -0.2297688563325134 0.27484551617286396
10.4 -0.2875851064285671 -0.20868427542126916 -0.12924610373161538 0.6223447052412802 -0.33494681926810177 0.5336756493939322 -0.35827813509063866 -0.039344043555021385
10.5 -0.22161503415037526 -0.21280484389404075 -0.45839131139500033 0.44421506290131774 -0.582604784361145 0.25283586354503584 -0.14268481861752924 -0.2666752500104241
10.6 -0.24082896420238764 -0.2555373946628862 -0.6251881014307803 0.09711316017258717 -0.6182156735690597 -0.12088029884397297 0.15036989016309427 -0.2603997402811736
10.7 -0.1624571798428449 -0.32809550905337787 -0.5404052513789414 -0.2732611288801494 -0.41540289035409633 -0.4322188118902523 0.36151413756265904 0.03772767708271131
10.8 -0.05575399033401965 -0.3851063418742247 -0.2479446582865548 -0.5459039105325554 -0.04524402528514021 -0.5956521587109768 0.14832215992017986 0.2846186241717623
10.9 0.07342871611538193 -0.33358391421170264 0.1277170092571399 -0.5989047755986251 0.3260366269475128 -0.5130668889718342 -0.16618454601900695 0.29983920156398564
11.0 0.08821480357143376 -0.31321957904872294 0.44759775418579845 -0.43062803654607623 0.5646504105099537 -0.23865042946738502 -0.3480399117662887 -0.0043669850993913115
11.1 0.14704565949728404 -0.28423854926623376 0.6102994816914692 -0.11920554063288147 0.6076065079905565 0.11213816979738456 -0.1711480021288054 -0.28058971272179795
11.2 0.2257419797484844 -0.29871433410096937 0.5386491089459892 0.23799413287792964 0.40434204505913496 0.4214810263276091 0.17288752383550535 -0.3519178452260691
11.3 0.3212078282985672 -0.16964579524788984 0.27560332384104025 0.5254113378993482 0.0564969430208444 0.5862534292267167 0.3752073594562008 -0.04607275318050166
11.4 0.3259826373558717 -0.06672739512374207 -0.09255130729991312 0.6097768004754728 -0.32466524977396277 0.5186646311729572 0.2550181031699111 0.2309210099895555
11.5 0.30144324636302183 0.005418564958108246 -0.43479602456079464 0.4392894365401221 -0.5730801514026188 0.22132850915455107 -0.1287380844031967 0.312644084586383
11.6 0.3254920122139879 -0.002414591812229097 -0.6089475616452042 0.11273413916426737 -0.5950274770850666 -0.13988437891934688 -0.3060852225143548 0.010656563969567018
11.7 0.3333128417091861 0.10788054350772054 -0.5426290288210339 -0.24819564603981029 -0.39197300235021126 -0.4433337598518984 -0.21865322111250501 -0.2897043464951625
11.8 0.3118545469782727 0.20748903274291353 -0.2865152886827874 -0.5097169134064302 -0.04721309109462066 -0.5770597176691256 0.1306202093161829 -0.3734513379258824
11.9 0.17088136237531878 0.30725449606642374 0.06938026402811259 -0.5919851320041554 0.3088636313867476 -0.5031922248268001 0.3259455558313953 -0.12527253792580917
12.0 0.1004464987651433 0.2973135156274557 0.4116318475022454 -0.436870730807863 0.5554607274085099 -0.2159412383114283 0.28826225448963094 0.1891104305663443
12.1 0.025283870762450214 0.3048617196194358 0.6042241049291598 -0.12187903493603452 0.593635236233201 0.1434591411959545 -0.04600629537773113 0.3058236334492755
12.2 0.013142103715935577 0.3178477154578334 0.5591728684570026 0.23512720891847502 0.40338306692122666 0.44518569210776204 -0.302467928326046 0.1131783228810488
12.3 -0.11460543924893987 0.34370014810340066 0.2959422871974512 0.5049671669895666 0.05875839304067271 0.5770779895747614 -0.305584285632815 -0.22181356941598088
12.4 -0.18414890074493329 0.2903136809515189 -0.06697544423702786 0.5851751205140665 -0.30321332096602205 0.4996286331263914 0.017990589296912107 -0.36306582826066586
