!Created with skrf (http://scikit-rf.org).
# GHz S RI R 50.0 
!freq ReS11 ImS11 ReS21 ImS21 ReS12 ImS12 ReS22 ImS22
0.5 -0.029618436874354555 0.004149825062365543 -0.9268606880944927 0.0954150080214029 -0.9254085457790475 0.07339406324667153 0.03903255599670774 0.008796026139547835
0.6 -0.024259260201812873 -0.015807916332622605 -0.80687835697632 -0.45193872538198243 -0.790824159337127 -0.4733173868896383 0.038928276232901994 0.033249627622215824
0.7 0.00015209451384325806 -0.03396429444065626 -0.3968948348366732 -0.8280557311541857 -0.3656016375463341 -0.8381882866380053 0.03303427395631796 0.054540777686501146
0.8 0.05602132953516671 -0.04357989715801375 0.15317945796100493 -0.8970210459692507 0.18751659740996035 -0.8865441853080952 0.03816260428653646 0.05037660614152196
0.9 0.0691139650725815 0.009876709024223551 0.6414176157846573 -0.6378480168487418 0.6640131453485957 -0.6094266813219514 0.024939970472371994 0.06381335761825195
1.0 0.037260346011872 0.038919907091228126 0.889892722326808 -0.14777129766796543 0.8909139017117966 -0.10842181287041347 0.022295447472005195 0.05823003491839068
1.1 -0.011840153722684925 0.031130131423409785 0.8078314386165448 0.3926303050408281 0.7830688173322153 0.4313646243333147 -0.005090203213080111 0.062319630935199495
1.2 -0.013269835568750747 -0.030444202415917408 0.4276911088563444 0.784852972323274 0.38467445728574556 0.8025060882768874 -0.0021188708483408335 0.05248789925166557
1.3 0.02534913217978689 -0.06986556316734922 -0.10467656278298831 0.8808065450137058 -0.14928274278734077 0.8698084257287217 -0.02389114455604357 0.07842678438819256
1.4 0.09634676912413442 -0.06206421115116239 -0.587934941361714 0.6555106560094749 -0.6213168793369108 0.6155784561941612 -0.06082510884888798 0.07234759729349885
1.5 0.13454117335762647 0.007177295930998098 -0.8553170720542579 0.19080490626531438 -0.8621439887214362 0.13535435920725752 -0.08061027133036018 0.040523837124165914
1.6 0.07842976175896893 0.07865903511908645 -0.8051776698334168 -0.3351038311366283 -0.7809203629270395 -0.3858689821582102 -0.10022960412689855 0.004855081997808652
1.7 0.008250534087293222 0.09571482250285995 -0.46399126888099784 -0.7340608762076825 -0.407817795659135 -0.7640399605624777 -0.08818577115366884 -0.038556628621643024
1.8 -0.06840091311301381 0.03442377913420101 0.046639714277901305 -0.8633932932811872 0.11227546870093763 -0.8543289045886836 -0.08097526062803818 -0.04561562962460459
1.9 -0.038720796035679114 -0.04329158347456302 0.5338455906937478 -0.6757349904269554 0.5858785290856787 -0.6304504981241672 -0.05007128440487342 -0.06193895331397106
2.0 0.029441758508655096 -0.11004944757500204 0.8193112780017049 -0.24048820972308768 0.8360798933935006 -0.16442966266191325 -0.030265980866281867 -0.11037151094905372
2.1 0.13226090876042473 -0.06700427413305035 0.7986970833358603 0.2787234688217988 0.7660210308250442 0.35396214432438255 0.0016730634342042097 -0.12990930645481213
2.2 0.1248191650440291 0.06894418337889911 0.4854437386166489 0.6881911502595928 0.41746283747713164 0.7285712492457482 -0.014480927996544402 -0.14923516746765653
2.3 0.1063263961849997 0.12676312676822807 -0.04319993836222197 0.7806054134861934 -0.11441349928552941 0.7702859242797694 0.007430918080037249 -0.11206729365735427
2.4 -0.06843013243332796 0.08662489743867083 -0.5183288425143784 0.6617788898876543 -0.5796574478178943 0.6009971635695571 0.09687428624168536 -0.10758136588171702
2.5 -0.11318590063603885 -0.019542932911427714 -0.7989838929378172 0.24562923860182187 -0.8167406977148879 0.16316803022600163 0.14810161985161652 -0.08465394144538696
2.6 -0.08669966097606582 -0.11533878051196722 -0.7911173934875427 -0.26646083352560324 -0.7551504002652626 -0.34466719246462557 0.15115632832345563 -0.0280740361370362
2.7 0.04785692865556533 -0.06878792286733719 -0.49096394379415664 -0.6782171144775491 -0.4153239745710473 -0.7202105597038678 0.1363536751832105 0.04505414931595079
2.8 0.12599310604664501 -0.007574174064191176 -0.007913777930690147 -0.8312743486548616 0.0817828967247842 -0.82090904744567 0.14670679225303657 0.03973912755992533
2.9 0.09089359012659631 0.1036627131096709 0.4771198019365544 -0.6765263057687886 0.5439424927469334 -0.6165905372859848 0.143104052857202 0.08182897501602422
3.0 -0.04021475632447888 0.12614994722542003 0.7758123254065049 -0.2755366299615252 0.796757465897199 -0.18331830151922435 0.11720758398437307 0.110344972677728
3.1 -0.1577261917889196 0.10543908366397751 0.7801193724129781 0.22115314449235368 0.7427754476371585 0.3134234128716306 0.06764153766527799 0.20532689892995767
3.2 -0.15677987774313099 -0.06357803994105637 0.5069294871713762 0.6350063381682957 0.41715629712831487 0.691948787847859 0.019192419809419062 0.1936697625162371
3.3 -0.05089501155560861 -0.1644242376947984 0.0444816447733038 0.8073402393859437 -0.05611355660700176 0.8027597061851817 -0.03771766297275735 0.19194602247128656
3.4 0.12844860330678276 -0.14629690678213852 -0.4332213895331443 0.6795950348152424 -0.5112098460013429 0.616837224788076 -0.06321337619725963 0.17269808922223417
3.5 0.17593333509144643 0.04688774015425329 -0.7414339629014746 0.29784832721299015 -0.7671789968476467 0.20362447640585662 -0.13769624648877496 0.18939604122701037
3.6 0.08640293814243105 0.16565693615776483 -0.7682397662642221 -0.20301131019510132 -0.7379935788786214 -0.28227427905042446 -0.1489724118694049 0.13084302295171749
3.7 -0.11970769613033216 0.15872706359463104 -0.5114793530681238 -0.6142664540468917 -0.4373392522542283 -0.6608141958571276 -0.21333918887706854 0.07387026089166138
3.8 -0.18483379299667693 -0.014511049330748399 -0.05647034007627033 -0.7884434278822177 0.03215238495096913 -0.7849329612157856 -0.19188559084363474 0.007185311580478561
3.9 -0.1183953203106707 -0.14899362158243357 0.41956614745142873 -0.6792480536605502 0.490168568622236 -0.6201126696468424 -0.196022646984257 -0.025291263059282143
4.0 0.09116448248677338 -0.18271527546537394 0.7275003323321849 -0.31148390406571846 0.7547136313105398 -0.21884157899753442 -0.16211202053003335 -0.07252955252602845
4.1 0.17592949072058645 -0.0704328935288979 0.7726951503478141 0.16849219151307984 0.7333781388242399 0.2652381686433981 -0.16089242128674858 -0.14838546749602516
4.2 0.17487994155743197 0.10289131166309673 0.5242863601411866 0.5821973111077259 0.43171609820907153 0.6445510294037853 -0.08457991487719145 -0.19140400265827628
4.3 -0.00037825340380101546 0.1974673472155194 0.08681687765316787 0.7789495352161687 -0.023369293399098767 0.7750654876636992 -0.03538678792228693 -0.21080286771116494
4.4 -0.1281665809571561 0.154008350609891 -0.3749297393706231 0.68388260448195 -0.4670073084441564 0.6143407971090874 0.06471249999707804 -0.17476325902441758
4.5 -0.2146667126704458 -0.061218454886740256 -0.6978622594769525 0.3369007583473298 -0.7315710539030197 0.22916867682875314 0.09214869508270679 -0.20170944437115373
4.6 -0.08595975033849187 -0.19623793475880374 -0.7536896391730101 -0.1379632727741541 -0.7187953812105541 -0.2455517878439101 0.14563717622294245 -0.14634276027203819
4.7 0.09788877573283764 -0.20275398955455823 -0.5273149248041139 -0.5601186001208952 -0.43069287329476785 -0.6281641568742393 0.1807190272144465 -0.11315632777321377
4.8 0.21507358910110913 0.022940763283221817 -0.10849131112085275 -0.7571628540561033 0.013361940824203666 -0.7560049337832995 0.2072145924488824 -0.026696459132705436
4.9 0.10876063885160625 0.18410885970149204 0.36097342003241123 -0.6657302460691313 0.4596618493880075 -0.5973000590203962 0.218604946032689 -0.00268830136688282
5.0 -0.10997813294579495 0.23815415616959051 0.6761150081033326 -0.34239088741248586 0.7159813716200718 -0.22737338405527102 0.20875648882749806 0.0774237965312035
5.1 -0.26568080998868426 0.049148047663223705 0.7400050104907727 0.10900569488124073 0.7073724406173483 0.23769991535613083 0.16997383145153871 0.1188339084727565
5.2 -0.22310957758411812 -0.13203036926929843 0.5329428916552403 0.5209337931276392 0.4287220146924226 0.6032826351597972 0.11450198279160587 0.21231150044166255
5.3 -0.02563234633236977 -0.24674594026894742 0.12719681574819733 0.734569629415341 -0.009089752153850772 0.7442272684844985 0.04756347286740327 0.20048419936720127
5.4 0.14914096552768466 -0.11576675771271142 -0.33528820326051095 0.6739629401398519 -0.44538905751451385 0.5972078254993601 -0.0325340491717437 0.2086117152364026
5.5 0.18360715598796157 0.08809436379783504 -0.6548883948018708 0.3633287007430371 -0.7094866826371731 0.2343362642050971 -0.0505100572746171 0.1967585082471619
5.6 0.008978804912706403 0.2611222419424069 -0.73083597912148 -0.08286987317896558 -0.6972618471165994 -0.21901860480566013 -0.13828437724112952 0.20989537207271505
5.7 -0.19541263078352886 0.20011477888060858 -0.5483944965546268 -0.4860319961929462 -0.43251454348709345 -0.5854799727748865 -0.184172636338849 0.17205521111108618
5.8 -0.3064027049656905 -0.008010656324537888 -0.16966285591442476 -0.7060907430661418 -0.021552267378903464 -0.7222357945225174 -0.2521138722666674 0.092253505976117
5.9 -0.16029675574670643 -0.2282205381597781 0.2851225055332432 -0.662099458214895 0.41726653066657143 -0.5824122584773987 -0.24403608750841121 0.004116690886809132
6.0 0.06524651178860576 -0.2149532653743128 0.6347839098691768 -0.36944375233338356 0.6949259098150055 -0.22613569948556259 -0.2253949873946951 -0.055337238772818015
6.1 0.2565835097027318 -0.017778289592769017 0.7293280248640114 0.0642809870938929 0.6967323722460677 0.21462672515228393 -0.17290159013902326 -0.08096058725093423
6.2 0.14080236983570163 0.2214472582626434 0.5474553577418237 0.4680013230232779 0.4398408727717439 0.5689132186550415 -0.2008048736002867 -0.13996280795433982
6.3 -0.07295394064684645 0.29015581406648305 0.16612724647936647 0.6918890275894164 0.021005438089244016 0.708421074283173 -0.13071015752935772 -0.20396082413083014
6.4 -0.27876575058627195 0.15092382956505376 -0.2704817875428543 0.6490686180505447 -0.4018182174547382 0.575218717790592 -0.04200388603369677 -0.2410775663174461
6.5 -0.2205880276883222 -0.06854678604248785 -0.6124692520573619 0.36782393418693776 -0.6756574617213135 0.22782599484492716 0.102296876757745 -0.19475352381996713
6.6 -0.059963205097301575 -0.22384633536701862 -0.7102355130631236 -0.05065206078712428 -0.6799073621252633 -0.20218440195889295 0.13039706230388273 -0.1697782364258837
6.7 0.18410152366563293 -0.135065245162883 -0.5464788634451065 -0.46351999902244806 -0.4321346997076687 -0.5700065114886247 0.1729311456214969 -0.11216132641326867
6.8 0.2485689758266916 0.081959316546338 -0.18980181770240712 -0.6848114978436473 -0.028461868908545296 -0.7066124823985573 0.20869397939890338 -0.09229810615887551
6.9 0.15215674969398454 0.33292424543696225 0.2370385859793683 -0.6481672145757309 0.37893183696351085 -0.5752412719077725 0.28653806711273727 0.01957487558269041
7.0 -0.13183178711075755 0.316286314975642 0.5690058607119869 -0.37697200263080854 0.6403068435744595 -0.22857394856451171 0.2997743663650375 0.08820929796338728
7.1 -0.32037588868891204 0.11444964327250251 0.6859386385598023 0.028865892822852735 0.6554441623154059 0.19202461483892025 0.2479123610879163 0.20044951022867408
7.2 -0.2198225740232799 -0.19835785620182816 0.5413301856122013 0.4251323589242155 0.41926000844873196 0.5412508393540112 0.18434426553207117 0.21432621284835796
7.3 0.09114691921911003 -0.22218509380197626 0.1908487920652772 0.654138092066302 0.021907467706360477 0.6786845337008806 0.15713270633843873 0.30435325815190795
7.4 0.3211292683071951 -0.04506620223664477 -0.2301516866181037 0.6340591880369695 -0.37917808717803264 0.5521172019989842 0.12161283465747484 0.29937596135886174
7.5 0.21750285021466306 0.2652962108501474 -0.564570242223735 0.3816642582647642 -0.6401050004705207 0.22795842933053492 -0.007388871277690376 0.3432665759695573
7.6 -0.03682440481309651 0.32431522651272365 -0.6807563241451879 -0.0017006037893033746 -0.653080699151448 -0.17217572877088966 -0.08576362785408514 0.29529964001585457
7.7 -0.28298025566135904 0.20466083100571553 -0.542143881169193 -0.40476176013954657 -0.4178275305619945 -0.5289099985686001 -0.19150682119287615 0.266837477974608
7.8 -0.24026053471027192 -0.08713881878679827 -0.21700374863263122 -0.6600632730328545 -0.04241067551402666 -0.6902763659837934 -0.1804508861184763 0.1911149700523303
7.9 -0.09907397357310102 -0.2564209856625974 0.19892249067846274 -0.6537264629049286 0.3605853037499218 -0.5781727436842347 -0.27125226427169286 0.1096612406289928
8.0 0.1778696444945954 -0.22070212329304634 0.5434181821546309 -0.4047351911281503 0.62563346192214 -0.2526656720416064 -0.2815520267378311 0.02725738717134646
8.1 0.24932688788111618 0.005312605059643101 0.6804710181652783 -0.011022658522796741 0.6574299743028477 0.16411682710147532 -0.30153470870636345 -0.07904691256588131
8.2 0.2057439760765968 0.2755705738744345 0.5501201466251907 0.37717676812538414 0.43253755507179414 0.5010864661849643 -0.24694518291634715 -0.14379254669481845
8.3 -0.10797192504235896 0.29904064026823673 0.22994979372775115 0.6209298381021737 0.055352575393965986 0.655469378871124 -0.21750843398816183 -0.2551654926877855
8.4 -0.30185988734674296 0.09819895494675748 -0.1708034392399769 0.6251399512243837 -0.34051045942021274 0.547209819364605 -0.12254638747461316 -0.29246276234075425
8.5 -0.27489668457515704 -0.24020467626031652 -0.5137671703283727 0.39969305796259236 -0.6061757840947054 0.22799306720509702 -0.06587397629828075 -0.3467293455439269
8.6 0.05525864881154455 -0.3302817905563391 -0.6581236282184711 0.02905541361830677 -0.6293474206569236 -0.17645702670936833 0.06963242954015411 -0.3148201926639778
8.7 0.31722295334781525 -0.16562154587908715 -0.5478028503434806 -0.34891570365672187 -0.39977851984766494 -0.5046494631305234 0.13561362656885065 -0.31876350417728044
8.8 0.30885164769522006 0.17960124338218222 -0.23379132083303233 -0.6071691210411725 -0.015080316109124914 -0.6466353754755487 0.2160611290375446 -0.2545467775535123
8.9 0.02349312476167624 0.31272289057547675 0.15978060134593056 -0.6345870961023422 0.36026919733640766 -0.5414226418892407 0.2673368064806152 -0.21054820207858221
9.0 -0.22621660711982727 0.22259691706827964 0.5048278549775345 -0.41380989048860983 0.6092765678884594 -0.22265341656902424 0.30689352630557964 -0.06867452338004582
9.1 -0.27153814258172215 -0.0787930893773947 0.6607942256145339 -0.03619153677182199 0.6344878698147907 0.1765747942579947 0.3190212973156107 0.0056889692397437824
9.2 -0.10249267365865064 -0.25983715120841155 0.5566623534477569 0.3581685717781143 0.411755893379935 0.5098667637219759 0.2837630722683575 0.12086716641875916
9.3 0.16061728648415008 -0.2687001254930437 0.24855364123445237 0.6175588963157292 0.05079887047004783 0.660277199742608 0.24842451461429182 0.1648471566117294
9.4 0.31435043928070894 -0.028519290110231365 -0.1322003589749248 0.6366587842068343 -0.3221355272936952 0.5614265640653495 0.1972526092656895 0.2651914400566302
9.5 0.26331344367504156 0.2195966413839549 -0.47073328298441486 0.4267173366475413 -0.5820636675419634 0.24980890477924844 0.11117967534598223 0.324140227482192
9.6 -0.032182712517465045 0.36925085097276933 -0.6306835247777332 0.07504716292116664 -0.6145380686746678 -0.14007026246708465 -0.017145951949464923 0.3818479265425152
9.7 -0.30435610468032437 0.17181739559885026 -0.5474792254043455 -0.30309065150409653 -0.39802720052050855 -0.47948416328329346 -0.12080231372210563 0.33506601923304113
9.8 -0.3154860569462541 -0.14448363359803185 -0.2672781701282416 -0.5724388611117125 -0.022338532982863146 -0.625411686842599 -0.20982459649180857 0.30318464488867886
9.9 0.004852803523785615 -0.3337798090491217 0.11054817145413609 -0.6292022378361711 0.35295182493176896 -0.5279266244960164 -0.22058828804634031 0.2400303208828716
10.0 0.28357711204306446 -0.16024305399774247 0.446138395387924 -0.4355749893191656 0.5828989281983532 -0.21210640821033633 -0.3129839756788105 0.21498831993261808
10.1 0.2963391530533079 0.1777798362226726 0.6171164884665865 -0.05835090311852129 0.5950111306193798 0.1542286543993848 -0.3457363078700834 0.13153966960685187
10.2 0.006759037683428892 0.3708820309232358 0.528234076666903 0.3236661597633768 0.3853148518282542 0.4827440724258172 -0.38442666598849695 0.007775050876470041
10.3 -0.23819520314447296 0.24821485260443724 0.23876734440519573 0.5854003971325809 0.024343051851083458 0.6272769884181592 -0.3019510318054697 -0.1322544076450108
10.4 -0.3527397858774868 -0.019463119985488407 -0.13105344795847312 0.6300665211863945 -0.3369017546379125 0.5417050713826428 -0.26162435205936513 -0.21622905944923468
10.5 -0.18742279596881303 -0.2441501411276108 -0.46087208157222925 0.4453915964974793 -0.5841431984190839 0.25570788728824534 -0.17469871708758822 -0.23489657113227558
10.6 0.046450739051404066 -0.2907009165275467 -0.632529918249322 0.09440452895517487 -0.6247313607362395 -0.12319290759743444 -0.13032156523809452 -0.2916003389595488
10.7 0.2696056257140311 -0.12305037058714564 -0.5674047264452896 -0.28033748728261443 -0.44033228708782934 -0.44561010134262463 0.024330380528046952 -0.29937339654119977
10.8 0.22893027658420062 0.15476581146806265 -0.2731808915332383 -0.5550067944982666 -0.06863112862202408 -0.6125214221838736 0.1060454304119699 -0.31537786216547076
10.9 -0.020118593378473104 0.33656494279444427 0.1097653610996554 -0.6093664968160541 0.3105640600661615 -0.5304522439301865 0.21265969170022903 -0.2545183747723111
11.0 -0.34118579718892456 0.17504515734194265 0.4389805293226985 -0.4263576448356765 0.5541110328272834 -0.24007614833019103 0.26749152386303227 -0.2072368591896862
11.1 -0.36395206203154973 -0.12829727917896772 0.5954598282554995 -0.09475124989349615 0.5855719701988156 0.1270416501619386 0.3438854481261317 -0.10024866027143596
11.2 -0.09276238747395622 -0.39970350328652415 0.525725122034887 0.26329100887047263 0.38485198375173546 0.43807406170193475 0.3711516704788487 -0.04678579852247114
11.3 0.24783557802457779 -0.2709071342229269 0.26536809554620433 0.5360583293428455 0.045624374839820986 0.5920317207713962 0.35178072069618144 0.0935925985439418
11.4 0.32678494954733506 0.04427780174937103 -0.09485304365464933 0.6097193420149633 -0.3245367463881621 0.5190868345783177 0.3150234358230552 0.1395924239736473
11.5 0.10824516398384793 0.29513676848246206 -0.4375494945745022 0.4359160294661819 -0.573308671719511 0.2196106506989904 0.20559149800841794 0.2408578537974569
11.6 -0.18031875413992474 0.20935297601718886 -0.6189765759914317 0.08225770433435318 -0.5926839441545633 -0.16884313958689795 0.16670455877750548 0.2519018043853232
11.7 -0.3156002130713371 -0.008162797188653717 -0.5610670339250283 -0.2856264033075422 -0.39552552571672417 -0.4832441841126935 0.061760757090088825 0.29733551904175615
11.8 -0.17091610132905752 -0.2734337483581376 -0.29087046384160214 -0.5462136181437771 -0.03855581225892113 -0.6114543437059733 -0.011977943940944466 0.29154447952517176
11.9 0.05092426453171908 -0.31913964914489723 0.08045527704724093 -0.6112633831521923 0.3247907829512202 -0.5172739189578984 -0.16361793732524568 0.2840661897527961
12.0 0.30687700200376933 -0.17351759233221511 0.4156112841556444 -0.45514482920048044 0.5659549081031994 -0.23294211202382595 -0.21605525689527402 0.2032468228848132
12.1 0.28872301765471087 0.13135940435687238 0.6044021381416244 -0.12312785192547893 0.59487257690976 0.13993924859093504 -0.2956339111649379 0.11415162103225485
12.2 0.08426147593303271 0.31844869381797336 0.560055307445997 0.23708960838227092 0.40512988733085015 0.44572609352128434 -0.3126974850110093 0.039882491843446374
12.3 -0.25441968576291235 0.2534668712372499 0.30380517328009016 0.5040838257228782 0.06838429708806804 0.5792794524098441 -0.3513221312338217 -0.052343312388107785
12.4 -0.3262798345193341 -0.0697136337019011 -0.05559348125758205 0.5879040835187075 -0.2922455381432605 0.5078492990637415 -0.3119650241811515 -0.1411259097372689
