!Created with skrf (http://scikit-rf.org).
# GHz S RI R 50.0 
!freq ReS11 ImS11 ReS21 ImS21 ReS12 ImS12 ReS22 ImS22
0.5 -0.0057209985845594405 0.034082001981937865 -0.9271202343890775 0.09546978667732786 -0.9263229097535867 0.07363756865664278 0.021678325086637328 0.042901929261841436
0.6 -0.03201665936468224 0.03694718646680388 -0.8055954876861509 -0.45239550497623415 -0.7901529185031313 -0.4739802071197189 -0.001892339821977486 0.06726825456579649
0.7 -0.05719581647850009 0.006478537316256308 -0.3944661069779262 -0.827870312351558 -0.363599455850349 -0.8384573782806509 -0.03397782061404467 0.07476092824625581
0.8 -0.029247810082185497 -0.057558484426680115 0.15301206929364505 -0.8956765349222897 0.18722319485843375 -0.8858763240074459 -0.0482803191068808 0.044021482665332214
0.9 0.01489284471536894 -0.0712312595131329 0.6407165464577897 -0.6350384078488185 0.663548002017361 -0.6072437832641343 -0.06140900069882248 0.017764843637348936
1.0 0.06771432693521015 -0.06882830530552052 0.8868762021475859 -0.14972148504862792 0.8886068257883132 -0.11078526478800249 -0.04375984038439089 -0.03192870272838905
1.1 0.10283174583920185 -0.02499553032849476 0.8055755627136004 0.3888159794381516 0.7816782727043569 0.4275527169205591 -0.030342191828322637 -0.062247311906426704
1.2 0.11858865622788373 0.021871179351709402 0.4266714567315977 0.7808177041668715 0.3842642091057622 0.7989944196546819 0.029439839119817412 -0.08483940830829795
1.3 0.08019163934636936 0.07339505192788373 -0.10515377692131173 0.8808455022999575 -0.1498603785437775 0.870404555035455 0.06845753825856933 -0.042679568313138565
1.4 0.025614026207662587 0.08347349578996117 -0.5888759065874415 0.6585772566462872 -0.622664312385001 0.6191161503475163 0.0797005942485299 -0.005700329521398109
1.5 -0.02577829382175147 0.05567492897630086 -0.8573703476879451 0.19317225091288842 -0.8650032725845234 0.13791640978623143 0.08516612293337525 0.025175678701830028
1.6 -0.06912648408367202 -0.005726856765300506 -0.8057804252477685 -0.33475958937733463 -0.7822873706809068 -0.38578406231234885 0.059739127602378386 0.05832533302866593
1.7 -0.029592993395434836 -0.06789720902435079 -0.46192600772914916 -0.7355669439276814 -0.40623225024849186 -0.7659577460042706 0.0349568808641732 0.07383188294649913
1.8 0.02291104208694948 -0.09996232995461207 0.05009711048523276 -0.8620113674767396 0.11544567282066662 -0.8534957113586182 -0.016237190691643973 0.10135536026552719
1.9 0.11277497065082137 -0.06754474872510434 0.5366362780327035 -0.6720118839418713 0.5887329908241627 -0.6272313077281235 -0.05027574054273838 0.0889261162906067
2.0 0.137960750933857 -0.02812139107843866 0.8170354758940822 -0.23593184211522952 0.8341676610648111 -0.16039832640837015 -0.08703038872775518 0.018421171788291807
2.1 0.14129150494810427 0.05653968539251921 0.802390305184064 0.2799629243389623 0.770472805466581 0.3558273633173903 -0.08493198361592333 -0.04699628466853881
2.2 0.05976623413001193 0.14399752264680646 0.4865407560323518 0.6841934644861265 0.41962611211452433 0.7254147735798548 -0.10535252035052517 -0.11376527298039561
2.3 0.0655698256751753 0.1810263812242971 -0.01854338223932106 0.7695710696559103 -0.08878375004378092 0.7625707289358261 -0.057496041238839744 -0.10764227427516815
2.4 -0.0846523116748498 0.06920565264633143 -0.5155763422333426 0.6616319352329385 -0.5774340088527458 0.6020067018627993 0.0734291074873887 -0.12071255245483414
2.5 -0.1139125708319019 -0.015859224133167045 -0.7982269829748588 0.24625948742623455 -0.8170605329132052 0.16442538063461043 0.15026424819494638 -0.0825811805798777
2.6 -0.11690406502129258 -0.09318382952039689 -0.7901884494100968 -0.2647133337712958 -0.7554622932757086 -0.3430909994169838 0.15858064669161775 0.007507230154384058
2.7 -0.025049769317407544 -0.08235913968796052 -0.4898554534212757 -0.675111941049643 -0.4153490517453945 -0.7178347247559713 0.12021737304886493 0.11597489265250897
2.8 0.06629910349657717 -0.10236373015533119 -0.010245152566068727 -0.8303588276072331 0.07923523921425854 -0.8213500737836734 0.08115537798666199 0.12807783641342646
2.9 0.12950983018245837 -0.041747940559289425 0.4725671614136713 -0.6772826240121679 0.5400509112061133 -0.618843041789132 0.013895932706235598 0.15413872707306758
3.0 0.1253637371749474 0.03830746438220525 0.774366228805687 -0.2769932339592218 0.7965046122222658 -0.1855003859039834 -0.06692798477755064 0.12672764511164866
3.1 0.05198365608882729 0.17898965263261193 0.7803918452076641 0.21833523568680557 0.7444926674847056 0.310755531468594 -0.1392383977063778 0.1343768593468763
3.2 -0.05578698441317989 0.17243727293263042 0.5042622356582037 0.6337543129694944 0.415488911886416 0.6910824877579212 -0.16645530873552813 0.018833378982906192
3.3 -0.1676334828266845 0.09916156357947906 0.0404556793097845 0.8056761980072755 -0.05953796338605635 0.8016713831959605 -0.14918195436164308 -0.07123471312609717
3.4 -0.17137118105257715 -0.04497587417616318 -0.43951254313628607 0.6748858012852342 -0.5171669450524883 0.612596051951972 -0.056213143773149836 -0.14160781279687487
3.5 -0.12406344373612185 -0.11661788817623388 -0.7550638441767319 0.29460123521318227 -0.7813019772461156 0.19960831918272054 0.005276413392633881 -0.11726065426116732
3.6 -0.0028612556873543055 -0.18230648135065722 -0.7781118733277457 -0.2025976953255392 -0.749083685610783 -0.28287079397268156 0.1194005306670525 -0.10117654536146034
3.7 0.08389007164728798 -0.15397385747452294 -0.5130423629496677 -0.6135602195476414 -0.43998904790553506 -0.6610153708466199 0.14032382000770344 -0.031226059949353513
3.8 0.18955571102892288 -0.07807463680637525 -0.05801500555370964 -0.7930940231950764 0.030742391019579395 -0.7909004284447602 0.17938499443203662 0.05775261551643931
3.9 0.18291513943233112 0.08309916949154486 0.4064912118094078 -0.6739304172746161 0.4769995509090803 -0.6175104387492991 0.12500413179206687 0.17305928577427743
4.0 0.12221003879560377 0.19036134142982264 0.7168601932407314 -0.300324533740682 0.743836690409691 -0.20987361915726882 0.043950374349765786 0.23208240078946557
4.1 -0.06942395027678658 0.19849526607196238 0.76934770708761 0.17484000987654713 0.7305713707653747 0.27101921529379835 -0.100706575569118 0.20606632695654128
4.2 -0.16764113346138101 0.105589879047597 0.5274071085875103 0.5763865045564012 0.43665224917896184 0.6399991672364229 -0.1683996516436335 0.1383403207358451
4.3 -0.21778179461212352 -0.0352159016795196 0.08747371213022878 0.7759350221434447 -0.021917921863164658 0.7733717463861628 -0.23170001592407796 0.03564749709957776
4.4 -0.10997520638923045 -0.13261114164003096 -0.3742028782459014 0.6890274713365524 -0.46744314420104605 0.6206381872611056 -0.18727266640497459 -0.043089866244680926
4.5 -0.023012640157250647 -0.21840108031194033 -0.6982099485666794 0.33846690353481823 -0.7330068510947907 0.23133848539208773 -0.1523566555229127 -0.18667408433943927
4.6 0.11572656320821217 -0.16569578460711337 -0.7553837676793936 -0.14033963540041322 -0.7212380817875694 -0.24809521402861545 -0.04042719728496376 -0.21881964186376518
4.7 0.1838453784027282 -0.07289483617795417 -0.5308066671051253 -0.560621064279514 -0.43490766193518604 -0.6298666599505559 0.07443256497754186 -0.22477765499703511
4.8 0.19118327257598156 0.12220194260090662 -0.11101666319620584 -0.7569429319379364 0.010570742023847446 -0.7572473550154907 0.17293001241133074 -0.12246298173146086
4.9 0.0682504618003565 0.20563106441854975 0.35834682618895536 -0.6663045305446692 0.45751809365356416 -0.5993641446652542 0.2237746399338039 -0.048612230486773225
5.0 -0.09848847086291422 0.24194929237568824 0.6758447180749606 -0.34235130544591363 0.716584372147677 -0.228064018984809 0.20512184044296078 0.0892431297783183
5.1 -0.23560434292094254 0.11542372169349562 0.7401262257183808 0.10678278013067988 0.7090506517227321 0.23544980044308236 0.11664025802604487 0.16441327469852549
5.2 -0.2747172282014324 -0.009499289349127624 0.5341667571708137 0.5173264746700469 0.43157282669475994 0.6005531608872244 -0.009749736173304407 0.24592540154273715
5.3 -0.20914686200241422 -0.18123323494103677 0.13284383779470776 0.729845333057317 -0.0022449495064765235 0.7417700560077942 -0.13691251959264686 0.170372008802995
5.4 -0.07785329276322644 -0.23145801746269168 -0.31696178763846355 0.6692651972475371 -0.4269729305960685 0.5969878579119762 -0.23420540255439526 0.07142869120157697
5.5 0.10352967321721224 -0.2091293537650032 -0.6515178819101058 0.3538948179923267 -0.7053738380743196 0.22640546604200504 -0.2118566658066005 -0.06128833681672062
5.6 0.20152475758124197 -0.040109673948120275 -0.7379783089468848 -0.08827678272323075 -0.7043479639855401 -0.22557920153216587 -0.19131449222800312 -0.13989566844619594
5.7 0.202078947530988 0.1286990001153976 -0.5485550655835406 -0.4934867743496576 -0.43195883796204415 -0.593541095156877 -0.07722515853723162 -0.2130578120604376
5.8 0.04820422312311562 0.25333582641990715 -0.1528071890404777 -0.711637237228587 -0.004563791135717775 -0.7251547249110766 0.028723179229811803 -0.2464044735755218
5.9 -0.1163250595887588 0.2468124553088727 0.2868878169382464 -0.6659283872226803 0.4202489821640893 -0.5867882934190919 0.17888707559411526 -0.20029679640958922
6.0 -0.2742730390464512 0.16327754092492022 0.6118015752694582 -0.3649967414338533 0.6726156374665202 -0.22729164241230926 0.2721101214555848 -0.062317068283231594
6.1 -0.2719358744419397 -0.012956250188081664 0.7082238986753091 0.066850168472458 0.6768043960398628 0.21270750007456646 0.3042922201896459 0.12306985674366537
6.2 -0.23027781770645028 -0.17017553406919966 0.5395065735647612 0.4648143819229482 0.4334403969393957 0.5652896419849844 0.1626160052796292 0.24493329378744547
6.3 -0.03534307366067749 -0.25100308571756613 0.1659435540174144 0.6982930988306488 0.01999029809619271 0.7156369773263386 0.04180781550045954 0.30014305853906864
6.4 0.13963065016599727 -0.18180511685477901 -0.26636371390326974 0.6636936566943906 -0.40162954252814453 0.5910580609476346 -0.09278204147960986 0.2821460839395701
6.5 0.2971676998692026 0.015645277480808573 -0.598987736570954 0.38139071139441083 -0.6663192436246748 0.2444000894807596 -0.15448786328344188 0.2527306078038642
6.6 0.21705460967329993 0.19156008566193472 -0.707426157411055 -0.03729827831794566 -0.6809425739315078 -0.1882938352188267 -0.26657828098730313 0.1236495845357329
6.7 0.06856665832382171 0.31871339790349607 -0.5456165843140648 -0.4430018950768033 -0.4365771840946678 -0.5503841594656924 -0.28085955968408327 -0.014700015908863495
6.8 -0.12786050372829288 0.28643312091138506 -0.180895867772383 -0.6734754915214334 -0.022992567886126802 -0.6944973845737111 -0.20060459161405436 -0.17686392817652524
6.9 -0.21053857790702465 0.21707200126928683 0.25139559640961645 -0.657749982079467 0.39525519782239227 -0.5823169305955054 -0.00643648865980025 -0.20146423220074472
7.0 -0.26629229901578905 0.026596858176196003 0.5820212363967003 -0.3891092870675001 0.6565996614606607 -0.23787973979836285 0.15307379246828345 -0.19117765959385177
7.1 -0.21714310337063708 -0.12550561868735483 0.6944026742145484 0.02959835773293909 0.6645589329107606 0.194430772574274 0.2320354155162697 -0.0550631634836108
7.2 -0.03570454139596671 -0.2632511139805736 0.5482951755507206 0.42810054442554163 0.42639138831384643 0.5460744101440629 0.2536850185749828 0.03340688227499547
7.3 0.198510677838161 -0.16248391045326188 0.1943411694932647 0.6509085499375662 0.02669504371669429 0.6773142996835976 0.24395090098559624 0.21563857858743704
7.4 0.3311757757088716 0.005356956133216337 -0.22875822434444976 0.6309752812100102 -0.3770176586805095 0.5506273287606901 0.16955199809677401 0.2820961943813003
7.5 0.22970774377763872 0.2460982249450291 -0.5640146295754228 0.3819875873291802 -0.6402783730148911 0.22940636867164588 -0.028811616603813414 0.34561227903861774
7.6 0.05998805436288822 0.3073034751279871 -0.6823444635660293 -0.0013096084240845005 -0.6557190464949163 -0.17177755405879985 -0.17405054845225298 0.2583176173066124
7.7 -0.14535247211909158 0.3131460864299708 -0.5453704795486312 -0.4020589565731105 -0.42267628494145365 -0.5274825202760168 -0.3019626007443243 0.14100241654793197
7.8 -0.21523056150076503 0.16747099826059997 -0.2227838969495153 -0.6571315082119911 -0.04944475384744365 -0.6898431608070609 -0.25394706964980396 -0.04326561014759074
7.9 -0.3114322924263686 -0.011552579558200424 0.18764227331040267 -0.6506401742993072 0.3489029564963452 -0.5790619348802176 -0.2362203327601759 -0.19782206664908308
8.0 -0.2063167264762296 -0.21286696348768724 0.5332639416265174 -0.40072709551331154 0.6155187512800293 -0.25213735190839903 -0.08453671113816963 -0.29002880734900616
8.1 -0.05380420904011854 -0.31875944478933393 0.6681482847315315 -0.0021219944247048983 0.6442292633415516 0.16923722707327943 0.06542920491597451 -0.3204428806147688
8.2 0.24359894018573378 -0.21330894374387632 0.5403939701926903 0.3869474567725345 0.4216365751288659 0.508386450216895 0.23429272700813253 -0.2277682094970086
8.3 0.311723521828096 -0.024609295320890498 0.20097116332761278 0.6249049701022202 0.027376118515276993 0.6524733336449169 0.2993284036147018 -0.1176870794983707
8.4 0.26067003394085414 0.2007963164919058 -0.19913236846641247 0.6389846147179601 -0.37117543130202785 0.5536332876832823 0.3224830996697558 0.06306299639027935
8.5 0.05079954474008047 0.27533193549794405 -0.5236622969836039 0.4169136466330572 -0.621050239485412 0.2428052997307236 0.20253673120925889 0.1841913607827828
8.6 -0.10761314529473323 0.2775606422505791 -0.6603033345562446 0.03295163554154373 -0.6336674484291405 -0.17295015797431554 0.09247670848224464 0.3011312717014697
8.7 -0.2464904065795921 0.13359029726369503 -0.5650305704060559 -0.35570234838700066 -0.4146339074270073 -0.5168970300182925 -0.09820336656775336 0.2623390010821324
8.8 -0.2874330667303647 -0.034423675161248946 -0.2540679053551272 -0.6024301696925665 -0.036374490171589446 -0.6498460426428103 -0.23514176662141173 0.17741498563363667
8.9 -0.2153106668874096 -0.2628385845413869 0.1572659262127576 -0.6253149840502534 0.3545489309060766 -0.5348846788176317 -0.3087452782456436 -0.00630360037432981
9.0 0.03161120415382748 -0.3240182532391036 0.4991917627259454 -0.4139698514153334 0.6042962448265503 -0.2260797343657712 -0.284486089407578 -0.12265890024562298
9.1 0.2792841228770223 -0.24654367778973796 0.6403479081343527 -0.039483122853501904 0.6173644246850931 0.16615518043704147 -0.17489501794119808 -0.27053766503461835
9.2 0.35616120228072645 0.013597778800378005 0.5394233906869121 0.3457118303135519 0.4009333902546812 0.49264224042252625 -0.031207717170858545 -0.3012274725606048
9.3 0.26652734328337296 0.2121994108978993 0.2372215326909029 0.6001950329364202 0.046336778500746384 0.6411373501186801 0.13955005195715758 -0.30377535446147713
9.4 0.07022777097436667 0.33436326545004624 -0.1520677722004004 0.6248646392940245 -0.33674296736930853 0.545444574189397 0.27070571112082403 -0.14190700968498687
9.5 -0.0992931099881405 0.28141069662162055 -0.48855336080433587 0.4245365053812464 -0.5984526398581722 0.24331731959286962 0.3165498431609861 0.041362495538135285
9.6 -0.2668246976084413 0.1930639711749607 -0.645015461227451 0.07015467843417877 -0.6272632572563862 -0.14862855266108752 0.22898086771164589 0.24252725763607808
9.7 -0.3247079129825118 -0.037130888033311577 -0.5599053594389226 -0.3052641372823164 -0.4100277508582198 -0.48597466808876966 0.08863203773021883 0.31985273921464685
9.8 -0.22664771350344476 -0.2374458028776802 -0.2764961207308453 -0.5719315461712469 -0.03195738253035574 -0.6291978492728472 -0.0825010400497729 0.3510627367474919
9.9 0.054076311908985764 -0.330571137791695 0.10652768990956313 -0.6269859410337029 0.34798278280988654 -0.5286839613097026 -0.18278177211741736 0.27694672008498605
10.0 0.26167291758612876 -0.18479655682245744 0.4470569517336939 -0.4361752849482275 0.5843284060902284 -0.21340787457189256 -0.3290969957220237 0.18788778882961954
10.1 0.3146419377259592 0.06408314460688871 0.6261698370830406 -0.05799187497199259 0.604415694765429 0.15645157638707055 -0.35014592256493193 0.01864311258636353
10.2 0.17834749478599782 0.2613930765573732 0.5453580261859562 0.3256558519699271 0.40223483990058284 0.49013473323193385 -0.30753187425204465 -0.16616346560586534
10.3 0.04493686005358111 0.3134860315094995 0.25421995923350243 0.5818518582454226 0.04139565311047917 0.6298619908640495 -0.09482477661253097 -0.30379517270998985
10.4 -0.16050069846844497 0.2913482127086018 -0.12417938094208883 0.6233456192851364 -0.32737369293373736 0.5391514315778962 0.07712135552089301 -0.3125742831967395
10.5 -0.29767397331462964 0.1753654434549419 -0.45611993543105783 0.4349889194435801 -0.5762317995253305 0.24925118233679813 0.2464080989104862 -0.1803595565455589
10.6 -0.3900378267629553 -0.05494594733620281 -0.6139140515599961 0.0841747916839948 -0.6048325711691173 -0.12519000561328553 0.28487748057736034 -0.040442909832444036
10.7 -0.24641882991983222 -0.2856676641743947 -0.5319255226213362 -0.2819321127406442 -0.4081157111654927 -0.43524390156608705 0.3307840374189802 0.13644648420782823
10.8 -0.0008143708166748198 -0.38143460623001224 -0.2519135909628304 -0.545747919143189 -0.053171076725247846 -0.5971991035548335 0.1949105551262036 0.2429944573662699
10.9 0.2546698767218408 -0.22305785069344375 0.13067291310328544 -0.599136855495407 0.3256992449048458 -0.5151241723941877 0.04224563552362447 0.33641698615597304
11.0 0.2833191339160688 -0.0031189476547212602 0.4595521323246837 -0.41517711309866817 0.569383302492858 -0.22422426886272204 -0.14713941279878684 0.28581148004495416
11.1 0.20700235867747652 0.22459110994864945 0.6222024604920792 -0.06419342579244602 0.6003166191654644 0.1635523859454899 -0.2531619998515574 0.18755398828829162
11.2 0.037082796091021386 0.26395954047650894 0.5541858251966769 0.3024405579127149 0.3980486419898396 0.48444533134650875 -0.289412715753278 -0.024692130138259605
11.3 -0.14483273481281284 0.2797773809509012 0.2890347454421083 0.5550778484579725 0.06225214424128128 0.618812592657263 -0.2611505186247261 -0.16191282530105644
11.4 -0.3290326982429329 0.11919930707544497 -0.08259243707616395 0.5968971266661413 -0.30737276191665003 0.5135928263199134 -0.1335215007073159 -0.3309340773883841
11.5 -0.3654794667703165 -0.12413436389011748 -0.4095314848617473 0.43486400154218696 -0.5476219585445149 0.23145102163813253 -0.0007512702693995843 -0.35108469097530887
11.6 -0.18421600768461185 -0.37343176201803846 -0.5725045689223706 0.11859050380393847 -0.5658062263414299 -0.11649824877018464 0.21009063932037822 -0.345970918520874
11.7 0.09153401511617915 -0.3739479928067227 -0.521759753566137 -0.2511307336368882 -0.3750282374116741 -0.43588395502983607 0.3198502152562379 -0.1828439999893075
11.8 0.3290169232004695 -0.2264934312991641 -0.2763758772215983 -0.5249243665111151 -0.035596107132199795 -0.5869424532072566 0.3830932025884209 -3.502246989656177e-05
11.9 0.32772937022062837 0.02770802353519282 0.07436084555340902 -0.6052142669228934 0.3160058231203611 -0.5155920545691506 0.26646222233336453 0.1933471822243456
12.0 0.24764906501733264 0.20191225976880992 0.41637817297609353 -0.4450734198371652 0.5625127442566034 -0.2250058148255825 0.14138973962154866 0.28150484925025576
12.1 0.03997238549588955 0.3033623936092989 0.607221503532162 -0.12366851432655983 0.5986199681031064 0.13961953356876422 -0.05904035681509921 0.2936883967074036
12.2 -0.12670764144182067 0.2764046740675407 0.5639311490485339 0.23447476368999623 0.4109557438763545 0.444739932799152 -0.20590615270106066 0.2270964902857865
12.3 -0.3191376384620622 0.14499513874659778 0.3065909869498932 0.5036124292254165 0.07230717655839203 0.5805384371214429 -0.3402499046565457 0.07514091610924446
12.4 -0.3117159101652517 -0.11068714274251842 -0.054992634732857426 0.5874004984256531 -0.2908502404722951 0.5087856803848209 -0.32893291220376714 -0.1004264063259967
