!Created with skrf (http://scikit-rf.org).
# GHz S RI R 50.0 
!freq ReS11 ImS11 ReS21 ImS21 ReS12 ImS12 ReS22 ImS22
0.5 -0.015307583364583197 0.030227204853757968 -0.9271705163566142 0.095459027693088 -0.9260890224108729 0.07354707740697553 0.030358663251751575 0.037182021749433705
0.6 -0.03849033944521929 0.023652066425797865 -0.8058842335807125 -0.45237519716327373 -0.7901710303189193 -0.47385116240514324 0.012850719882771254 0.06588513267209685
0.7 -0.05182810557070347 -0.012877654006556584 -0.39505428085555594 -0.8278277371927062 -0.3640133518977116 -0.8381879120983268 -0.015379734471184296 0.08251424906916524
0.8 -0.008142028689141108 -0.0724464744191332 0.15273810958673698 -0.8958167768272032 0.18697351598666906 -0.8857336161851231 -0.031358044188599644 0.06363151975874744
0.9 0.04462366509318377 -0.06767468792760863 0.6404021040891259 -0.6353814558244875 0.6630860315784189 -0.6073507587170194 -0.05488050883572813 0.047711446489572124
1.0 0.0907693135900897 -0.04031621098582494 0.8873006399122485 -0.14946730221796484 0.8887398505762393 -0.11040746568149301 -0.055579416115767236 0.003013737052504014
1.1 0.10000129997703984 0.019284289943230882 0.8057145962884724 0.3897057956652657 0.7814931438577936 0.4283750154908979 -0.06370294104903396 -0.03294783431117883
1.2 0.0805753335576802 0.05850175491352254 0.4267217445400281 0.782230350316661 0.38407446650419724 0.8001741452311284 -0.022106990598426267 -0.07429317898768051
1.3 0.01853751562192133 0.07550247976080998 -0.10482049918020686 0.8815143449375973 -0.14961221953848014 0.8707746255189878 0.010102232048763274 -0.06184187867269278
1.4 -0.029157783508653678 0.03835518085160072 -0.5878769476079634 0.6588796187395939 -0.621526205050744 0.6191857772624956 0.03146707716131687 -0.057466939116000954
1.5 -0.03805112547261298 -0.024359458241476294 -0.8567756043764257 0.19290990846761374 -0.8641046954460804 0.13755603308257913 0.06582909030854572 -0.05306173758912862
1.6 -0.019391740739688454 -0.08312017898204607 -0.8051532896607536 -0.33601216636907216 -0.7812824549032485 -0.38691513219416457 0.08392903387498671 -0.029162426861328316
1.7 0.06981541582547085 -0.09556041752884228 -0.4579168281936016 -0.7368243080493102 -0.40193324078790343 -0.7666626502718632 0.10693019479453479 0.0019659556511509822
1.8 0.1269423210341553 -0.04926160245293012 0.056582762750389065 -0.8625522887054011 0.12197203503187287 -0.8532238500046571 0.09310142678163359 0.07110057364196914
1.9 0.16164809787463322 0.05069491568611509 0.540585548283827 -0.6698601453403507 0.5923229670119544 -0.6244896978731856 0.07226510154620969 0.11840162163392848
2.0 0.09387789469183049 0.10773336011251641 0.8201490632337275 -0.23316219646148936 0.8367170949389178 -0.1572927202325643 0.018090075919510916 0.11086437570349265
2.1 0.004921010290540512 0.13412417307746116 0.8043493813336635 0.2769592221543781 0.7723358204327695 0.3528979286847089 -0.03639564204773055 0.10185360684330393
2.2 -0.11218519839428924 0.11745321177167202 0.4901968512234782 0.6742693898158463 0.42389089508412514 0.7155138956209259 -0.1347555382744574 0.062850211174329
2.3 -0.11351209431307298 0.08505123199268126 -0.0052389753711368225 0.789225668454506 -0.07754890451203877 0.7828493444573943 -0.10515229528532423 0.06288874597004507
2.4 -0.06321457429855074 -0.0817488042205537 -0.5152956013448857 0.6630944434466923 -0.5770518046837245 0.6031429232242991 -0.06726383183906454 -0.06397143442349985
2.5 0.022834819721715107 -0.12918984306344983 -0.7968641046053785 0.24880126797432722 -0.8154884735748563 0.16690870572343935 -0.02334820883242484 -0.11327251885152731
2.6 0.07940318581957673 -0.08520290853947753 -0.7943104947399038 -0.26627650833393296 -0.7589773615314506 -0.3448799242759085 0.010545566266571042 -0.11821686234477587
2.7 0.1278270046667265 0.06569389519898183 -0.490476211538312 -0.6764433072077016 -0.41552995624396016 -0.7188375767522853 0.047441929405159865 -0.08124607742589968
2.8 0.08271177882081047 0.12380253881412429 -0.008028313938094611 -0.8292473618488105 0.0812154878735061 -0.8195902138058213 0.11590425809537837 -0.09351962579231088
2.9 -0.016987556058953367 0.1498777424582 0.47425327297071174 -0.6754537807714606 0.5412153562885984 -0.6164796442030486 0.1623309696063066 -0.03300778574715417
3.0 -0.12412296919174415 0.08481442935468209 0.7745515560420911 -0.27394076065901324 0.7958930926784243 -0.18228256959027353 0.16557928560290272 0.031966538616623824
3.1 -0.17581959787923862 0.04144163655806504 0.7819567746219653 0.22223133890271546 0.7451587965388193 0.31469102856247166 0.12104133397117499 0.16795962332131095
3.2 -0.1363113853526969 -0.09535285098107721 0.5084527535218968 0.6347660840229834 0.4192217598235545 0.6923360335262597 0.055554765996688515 0.186055457646158
3.3 -0.0449667150754796 -0.16677535384624492 0.0456245700464506 0.8068323339780135 -0.05466144441899151 0.8030532039076482 -0.031810942127223 0.19504982916434682
3.4 0.1096505402218249 -0.1652271593573563 -0.43224712998724973 0.6790504210825764 -0.5103252922187785 0.6171328833207261 -0.08694836815998741 0.1615985478501441
3.5 0.17891005304848917 -0.013458529872739808 -0.7426932301770147 0.2976866891311075 -0.7689166622821709 0.20380791671330756 -0.1767672319932969 0.1436500259032114
3.6 0.16091452755630406 0.10794392453808835 -0.7719107236751951 -0.20149381088789997 -0.7424985709212859 -0.28105475781738726 -0.17856997461683535 0.03967817168990732
3.7 0.01000282618776021 0.18352284782956943 -0.5123465926534349 -0.613588045120859 -0.4388919701040607 -0.6605471137741211 -0.2014450162951828 -0.05573988828093507
3.8 -0.10084031479280645 0.13069999294571075 -0.057054582177861024 -0.7912374226050276 0.0315764968979558 -0.7883626156563108 -0.11456079598347936 -0.13879844871551872
3.9 -0.18486719595220902 0.045440672205359724 0.41968822140785744 -0.6793653247578961 0.4903933664251431 -0.6209729449875951 -0.038381144690528717 -0.1534868319219297
4.0 -0.13208815602405297 -0.09048956843285598 0.7289739676710612 -0.3143590334161871 0.7570080538443725 -0.222016271935293 0.06443010749962162 -0.1430287321373515
4.1 -0.070980374594883 -0.1926951830996777 0.7729732982881998 0.16299614868579654 0.7352300356543886 0.2598158143218609 0.10899610092712161 -0.12367631251393826
4.2 0.09950340204667277 -0.19437979862217555 0.5229348843579753 0.5791725369042442 0.4315161726212918 0.6417839592795148 0.18213802157012038 -0.04877790783448202
4.3 0.19196505192622085 -0.08126918901734002 0.08813833291306669 0.7734132020066714 -0.02101029806548871 0.7704737030548857 0.17701859305595433 0.04658492548826118
4.4 0.2317929393495895 0.11396693377438583 -0.37616718447055053 0.6632637894962576 -0.46536936277739827 0.5946920001101716 0.1690230819558494 0.17057652664393888
4.5 0.07123619582790254 0.20508806780526262 -0.7044529454314417 0.31604079007938585 -0.7354403970952202 0.2082330279809131 0.05531362829518527 0.18724025243903117
4.6 -0.09942662160738223 0.21880403444136695 -0.7560482207743285 -0.13693423460459186 -0.7219568507049098 -0.24476299127002238 -0.04094609915947043 0.21700136464747924
4.7 -0.24155258174733032 0.0721752798261949 -0.5332630946307041 -0.5426033153005928 -0.4397594649163409 -0.6122741650175794 -0.14580739220256073 0.1616953577606287
4.8 -0.22949050725758768 -0.055390806828458344 -0.11728873079230806 -0.7520550194390363 0.003704703281391414 -0.7530387405370732 -0.21543995510425373 0.10991627401328002
4.9 -0.12923855127215195 -0.2166039780494025 0.33712673530726617 -0.6788686812203095 0.4383958253920647 -0.614605464402592 -0.23514953817295364 -0.03996014731743382
5.0 0.038179878388884814 -0.20857536413304129 0.6679893927933009 -0.34611480957842994 0.709078382438417 -0.23278839736231044 -0.20567241290717936 -0.13025576090133495
5.1 0.17565713490675205 -0.12937114002457045 0.7441253907859292 0.11513743408760468 0.7110476088337271 0.2440591543197292 -0.13271724504154436 -0.23576265192564666
5.2 0.19947449476200946 0.08269734142880644 0.5438812209553232 0.5227517707083044 0.43988089979469147 0.6070134776247896 -0.031885790498536175 -0.23123519453743513
5.3 0.08337833277817407 0.21016696353705294 0.13337238843301363 0.73163255322728 -0.0023014236153358625 0.7433145476646927 0.07967655258144439 -0.25886824115329665
5.4 -0.11817127937233446 0.2558520200134596 -0.3151868424686578 0.6686968030394389 -0.4246462139236481 0.5964448022309123 0.16862361821075222 -0.19795269281598477
5.5 -0.25934574887555745 0.12861689653138034 -0.6376391362082017 0.3530037772161576 -0.6913848500039023 0.22774803786193912 0.27372786883611167 -0.09257821536709152
5.6 -0.2973687870603208 -0.03106247554142616 -0.7250268232642118 -0.08798414176788669 -0.6913489710349229 -0.22278465036144032 0.2524697547408034 0.07549804794336633
5.7 -0.17595917294442415 -0.2010533609180325 -0.5408989272292218 -0.49212976705660016 -0.4245514862023956 -0.5900819988126037 0.20510866665437782 0.1951511849803375
5.8 -0.014034608846080689 -0.24505355462975706 -0.15160648490148598 -0.7143080151491435 -0.0023211808114386653 -0.7272231771459851 0.07216845886275183 0.2479934506763558
5.9 0.17346263855649063 -0.16762335435205966 0.29116169011162063 -0.6759761933325771 0.42609400483523663 -0.5952788227628151 -0.025531163902045448 0.2559913319596781
6.0 0.21564502077481262 0.04779507615601717 0.6227538658785927 -0.38107451121855546 0.6861297555253075 -0.24039815352021643 -0.12464348692464111 0.2325699126568327
6.1 0.1684875413115631 0.22995792509089633 0.7192210180314175 0.05622215086248 0.689210506291861 0.2045781367693907 -0.18423179384998412 0.18070982162535812
6.2 -0.060006589689435785 0.30171448455653666 0.5471787732271488 0.4557414657796471 0.44266308600550935 0.5572058108290203 -0.2910729134521441 0.05879718903566629
6.3 -0.2224606078924054 0.21062584425219374 0.16852207857386814 0.6820725222251031 0.02564874193115657 0.6998887584390306 -0.2554104287880944 -0.08843374444917454
6.4 -0.3070630433094203 0.03018090016422191 -0.27204320086988715 0.6478281680285314 -0.40328645790045436 0.5742339344020149 -0.15624339871852125 -0.2044440284045849
6.5 -0.17781645979085936 -0.12933125467530976 -0.6138588028860986 0.3698066521326381 -0.6779233305485126 0.22984953276431205 0.029414250895918023 -0.20420038306503147
6.6 -0.0389952428575549 -0.22723598701488273 -0.7097073560343892 -0.04920428162672717 -0.6803418089132605 -0.2005168516308613 0.11248057748368004 -0.18309412214258267
6.7 0.16215252782806228 -0.15957767828950192 -0.5455563052870436 -0.46139387407649757 -0.43227776937305457 -0.5680212385392621 0.1971289646258639 -0.0918102288879564
6.8 0.2556353194843799 -0.005443266278705186 -0.19086696960759308 -0.6824087102540555 -0.03029038068368256 -0.7051228940207854 0.24341064293991535 -0.015050382670823342
6.9 0.26321658260721464 0.24853719765952523 0.23339490982391473 -0.6450524225103427 0.3747191364282293 -0.5736822005527783 0.28770805333067506 0.15380443063990842
7.0 0.05381771163075115 0.3573377835814831 0.5630374543933587 -0.37494794444136226 0.6344188013115064 -0.2284428372078363 0.22593029350384644 0.25741662383623803
7.1 -0.2053510681693905 0.33107799219590583 0.681908933485945 0.024630970512817568 0.6531793122265409 0.18672185238590247 0.07831101973195248 0.3650899369416439
7.2 -0.32476558298404234 0.07787310243518883 0.5356817477321344 0.41538301876567935 0.4168681008616065 0.5305166267200971 -0.08286075632026027 0.3178649383029757
7.3 -0.23481598826836342 -0.11268838789101783 0.18785960611568195 0.6624072002049841 0.017421067949727878 0.6864466985842965 -0.18246618840632092 0.30087073598411246
7.4 -0.017697209658077577 -0.25043427692892245 -0.2282058321684366 0.6604435024500372 -0.3837910594738037 0.5786910376806127 -0.23107121932678448 0.1544450315281745
7.5 0.13704184660161492 -0.17094833191100461 -0.5625356722100174 0.3974157564078915 -0.6423802167273235 0.24433533621511735 -0.3049838793125816 0.04000319214579409
7.6 0.25634944279142935 -0.052823175455987484 -0.6888331464734119 -0.006245958237435595 -0.6602098549823934 -0.17822227489542394 -0.26698737046214427 -0.13874988911657254
7.7 0.23261580731605858 0.18195668279389896 -0.5497001835295572 -0.39972753964302393 -0.42697441245649936 -0.5262686896488729 -0.1897570985954899 -0.2333021524084859
7.8 0.1456067904194691 0.30533786250553463 -0.20980328951797855 -0.636737616793939 -0.04186007235709169 -0.6665625518674946 0.02749154531850309 -0.3049783167959122
7.9 -0.1467870718694624 0.3134321395801262 0.20157218756158654 -0.6319255166727645 0.35732383003321694 -0.5570050297740282 0.12487102795551949 -0.2873547347300017
8.0 -0.3046272166842239 0.1255952670942166 0.5348626856502435 -0.3922929591566632 0.6146477059979938 -0.24330093652211293 0.2558237453346988 -0.19544126423780533
8.1 -0.3438895121433345 -0.1423123157444531 0.6578082158700744 0.0021187612027324665 0.6327400499408793 0.17061850881065127 0.2981253468076845 -0.075488750988442
8.2 -0.07463742423374255 -0.27935311961289394 0.538256103981526 0.3960172221410856 0.4169573390180208 0.5163358777100135 0.31859169137681753 0.08869627418879927
8.3 0.13307703471437357 -0.28049402289327363 0.20436941863569308 0.634232045446308 0.02803189639879744 0.6619173269508223 0.22013618751126074 0.17927410219516138
8.4 0.29490537344950596 -0.10161987925093048 -0.1966670121958736 0.6462853379162232 -0.37083860613134273 0.5607580702164321 0.11427578112770073 0.2738385415755062
8.5 0.2612745670503188 0.07844850463392213 -0.5223421645464469 0.4221807924588155 -0.6211643496305372 0.24770277729181775 -0.06538372638187048 0.2655411079414448
8.6 0.16295093880884914 0.27265924355305654 -0.6612825706414611 0.04320048873993437 -0.6373384494534315 -0.16365787946959137 -0.15902511430437513 0.2434947702479239
8.7 -0.051060446230705686 0.2960251000502422 -0.56381284702104 -0.3438993637425134 -0.4169669107074971 -0.5052597388892532 -0.2753432779644976 0.09642622635234599
8.8 -0.25268811701211724 0.1914192625057224 -0.2515054279509135 -0.5925756214350522 -0.03711112895089913 -0.6394067778356805 -0.30097320155802726 -0.036093177012677044
8.9 -0.3321097925718389 -0.09475945367371968 0.1606876213320109 -0.6156866047783495 0.35459871805321536 -0.5241880897707033 -0.25884607705070956 -0.2078948415903279
9.0 -0.15273919063240238 -0.2858747346503284 0.5042863350257896 -0.4066854432189442 0.6065266210275458 -0.21707705049803383 -0.15269383524273217 -0.26521786571667094
9.1 0.1334934942811301 -0.33416003846903797 0.6450639684705973 -0.03391652392607952 0.619610572895646 0.17315465998349552 -0.01052394495984825 -0.32569933257222483
9.2 0.31364997606327016 -0.13143249082639935 0.5415987144005486 0.3524036567859947 0.4003478461046136 0.4996011223845795 0.12030720467514279 -0.2725526789667688
9.3 0.3256044602263853 0.08882636846903687 0.24158022462087084 0.6064200278111023 0.048250201828807154 0.6480312081145998 0.24277782610626236 -0.21929829127902725
9.4 0.1807719979223891 0.286160777868058 -0.14361036500742408 0.628576072624791 -0.3299936255307119 0.5510622507698306 0.3101431134280669 -0.03900634766095581
9.5 -0.004761115376432104 0.31037609076097894 -0.4820487764949545 0.4261016056601009 -0.5926296555768802 0.24643527321241368 0.3005052509475654 0.13231225291067683
9.6 -0.22641774727920233 0.25886489946514024 -0.6403760013802053 0.0731948610589811 -0.6235406319202944 -0.14448019513617386 0.1827510986090718 0.29939278301064576
9.7 -0.3349223628900704 0.016043690006138006 -0.5563029901001669 -0.3029808455690082 -0.4070528827677441 -0.4824909952496549 0.03886739858378137 0.3390862280585443
9.8 -0.25376917421666656 -0.21935351272158038 -0.27446739749636073 -0.5706666399956583 -0.030248360168888766 -0.6269557812808584 -0.1161408819316954 0.3467445184924128
9.9 0.04206771294247266 -0.33457442789536695 0.1064334588011584 -0.626568222439207 0.34782797738239263 -0.527893787879582 -0.19382644237903304 0.2706740929353623
10.0 0.2691447140412324 -0.18055594202401787 0.44539486212144425 -0.43566873871520945 0.5824288355630595 -0.21322341073221104 -0.3272188131815649 0.19623249182659888
10.1 0.316198254519044 0.09326810918083163 0.6225844977200734 -0.05854198015188898 0.6008149055114965 0.15513129047453067 -0.3552461284731787 0.04732145449088265
10.2 0.1434342003010855 0.30052342769457563 0.5400728575813883 0.3244438924867134 0.3971253633548631 0.4872449113706574 -0.3389405048050941 -0.1280357953520641
10.3 -0.030522972340616142 0.3239172104321694 0.24957677420267288 0.582624105063351 0.03630299985451842 0.628717763859054 -0.16069005240774895 -0.28042266139108085
10.4 -0.2419860540094212 0.23999978534372596 -0.12538465100972895 0.6258110904178388 -0.3295844463232821 0.5405156371117025 -0.014897973766047401 -0.3285132132403382
10.5 -0.33061881525900505 0.06467058342754317 -0.45590435105236177 0.44132566214609426 -0.5781268270029102 0.254653370050123 0.15506870903331016 -0.25355696969178126
10.6 -0.33381793656943737 -0.17643994399571905 -0.6197786326389529 0.09396416661746695 -0.6131842210439014 -0.1184606962159203 0.2327476060190457 -0.1692979678228058
10.7 -0.11227369084613215 -0.3456432154818221 -0.5435153304526492 -0.26880292311440074 -0.42262595418227505 -0.4268012216891458 0.34765879189593624 -0.024749737272456995
10.8 0.15575291808742736 -0.31990002324642774 -0.26058946985985565 -0.5408391755641002 -0.06246994816720142 -0.5952646725504248 0.2980184318822133 0.10462982264598134
10.9 0.33596473667502347 -0.04490944824674056 0.12611290092368088 -0.5992494231520464 0.3218000275524491 -0.5162450162010969 0.22382420368708353 0.2638433591420203
11.0 0.2130867574785988 0.20500294692864512 0.4563862856832054 -0.41023137217982353 0.5646743245185023 -0.22005033771783788 0.06582263816921315 0.3134748713013507
11.1 -0.013852060203241368 0.33973275117055357 0.6120141876402894 -0.050400695064065276 0.5855005241033509 0.1732204038953728 -0.07031002025179639 0.33019857403295805
11.2 -0.23281826070262904 0.20001304393287334 0.5406349176259143 0.3187592912450861 0.37881623359030064 0.4945434955687168 -0.19218811401074545 0.21126470678980078
11.3 -0.3250611381207144 0.04465682499397019 0.2743252953144929 0.5639859047428899 0.044569998532033694 0.6214006719583116 -0.287446390938562 0.11260815431344079
11.4 -0.3086150724459158 -0.1856362817051886 -0.09533486008050171 0.6041180112286274 -0.3222645128932232 0.5146354870132922 -0.30140321130508857 -0.09662279459618534
11.5 -0.1370363217629592 -0.3455942172193208 -0.41561435527398705 0.43666977814793784 -0.5537821269171493 0.22999925347880223 -0.27934278803264956 -0.21826857004663242
11.6 0.137908351851556 -0.3946780160669511 -0.5773495162761616 0.12764123343815748 -0.573374713474965 -0.11073913631578391 -0.1170605906765687 -0.3617666658396377
11.7 0.34833862048523767 -0.15512657061636834 -0.5257380142111827 -0.24266026313724676 -0.3813960057573424 -0.4298532159969174 0.03404976759475434 -0.37112646949740663
11.8 0.3655486714511392 0.132203615605064 -0.2828119727013271 -0.5119765024193105 -0.046069595814317216 -0.5776946883930906 0.21705490607954372 -0.32779604617918157
11.9 0.09697682341784249 0.34575443537479367 0.07004761974199644 -0.5913824561072717 0.3066986611233333 -0.5043580578737897 0.2804288134660996 -0.19539400105259636
12.0 -0.15836415942814303 0.28203171736000526 0.407039085402331 -0.4319617088138148 0.5484461520268482 -0.21663081936597992 0.35860021988253005 -0.05965980011505982
12.1 -0.3377811356298989 0.08041973502738838 0.5883837616606269 -0.11297090529591591 0.5768063949969868 0.14193496835450542 0.3157622820741858 0.09119678304019714
12.2 -0.27711441908239287 -0.15907435044578844 0.5475845364120668 0.2502310343622477 0.3891827146576151 0.45219367363973023 0.23113447325228925 0.23321834827124938
12.3 -0.1466355078535771 -0.29150998364637853 0.2995338402484157 0.5246248037445986 0.05683168594303961 0.5964827425667202 0.04265341574669708 0.30813305319758966
12.4 0.12214104660990145 -0.3179600005256604 -0.06491959189131286 0.5941415095690943 -0.3027798115280804 0.5103153371760701 -0.10548768005919278 0.30788402913009405
