!Created with skrf (http://scikit-rf.org).
# GHz S RI R 50.0 
!freq ReS11 ImS11 ReS21 ImS21 ReS12 ImS12 ReS22 ImS22
0.5 -0.026853783807775873 -0.009966945570602799 -0.9266862580371389 0.09576439655592417 -0.9250591763556919 0.07367738734715024 0.033392507443765825 -0.0043157274540027955
0.6 -0.005398322286381088 -0.02360272082234523 -0.8074159613150736 -0.45143527126363764 -0.7911924587407424 -0.472778375673485 0.035583334164151895 0.013159213388086444
0.7 0.023230899863009837 -0.018770258769186268 -0.3975588148516202 -0.8281294927634045 -0.3661429906346088 -0.8381453464381416 0.03505409225414621 0.02690723945414402
0.8 0.05713967938859257 -0.007801969504449106 0.15352134065227616 -0.898327115262489 0.1879438551676229 -0.887635802517549 0.04728427941318888 0.016819798098632828
0.9 0.03360516333151396 0.035066532997032655 0.6428603890798587 -0.6394796128085255 0.6654371276111917 -0.6108029900959056 0.0455021095609861 0.0286782191503898
1.0 -0.0094035733470232 0.0190001596107016 0.8902164121726868 -0.14841951161041245 0.8911018817496448 -0.10894000925090047 0.05844807549772432 0.023794312601800614
1.1 -0.021185693612053788 -0.02924697596017293 0.8084223117018479 0.39131920072548565 0.7835165363310839 0.43008310544699396 0.047793751530796194 0.033409267965670106
1.2 0.040917305748541 -0.07819434380710337 0.42808400578756733 0.7829161694567802 0.3850145254847691 0.800461517211205 0.0669459532058856 0.035182082022949486
1.3 0.10602051154288555 -0.04715657190272717 -0.10474415764358919 0.8803612968557861 -0.14938694882087739 0.8691641311406961 0.05880376006242411 0.07922733110993904
1.4 0.1254284676025295 0.0292856521564328 -0.5891812551631634 0.6565360351113643 -0.6225123164194695 0.6162678338669988 0.03082318042190018 0.09593253683451357
1.5 0.06554461208515579 0.09142493930561404 -0.8570494757090685 0.1922713539866937 -0.8637374918906657 0.13655274109575322 0.01402468697512121 0.09174936144945744
1.6 -0.04358279058269163 0.06626951249660898 -0.806390793860366 -0.334629781020248 -0.781854684886581 -0.3855441205779928 -0.010754835228860393 0.08651039628220596
1.7 -0.05467564717983901 -0.026021408281308465 -0.4637757399386862 -0.7353626125210725 -0.40725613119637105 -0.7651620076153499 -0.013485118202566307 0.07410153611325629
1.8 0.00706980879080335 -0.0979072202656457 0.04961740817712584 -0.8625254749355437 0.11523004877453466 -0.8529445509624587 -0.031079304541091795 0.0953279524845136
1.9 0.13034510715135011 -0.0543846721835391 0.5382260737654938 -0.6716895408618359 0.5897329911787654 -0.6257313858064028 -0.03461336747346237 0.10254120454637987
2.0 0.1421638591323449 0.03879405482145448 0.8220961556102243 -0.23440577941795146 0.8379443694326923 -0.1580556476403994 -0.058446767063376176 0.07018067707148082
2.1 0.06682634286483953 0.1318471564171382 0.8028950672732923 0.2737552823864003 0.7703274646675337 0.3493314095413594 -0.07717387963723361 0.06336708648565836
2.2 -0.09202183017716406 0.13161536096042242 0.487076768561198 0.6771185734769356 0.41984473125506705 0.717424880567812 -0.14141112129735164 0.03915111950916579
2.3 -0.07693552978633574 0.05175379514676434 -0.04147942260392684 0.8139970414632592 -0.11599841750645346 0.8031312706545701 -0.06369205582040965 0.05077401200524232
2.4 -0.027782140514781145 -0.1092208450137028 -0.5115467589979554 0.6690922247390679 -0.573551679140541 0.6085534510967942 -0.08356592169605451 -0.027172284942565815
2.5 0.09878245722191183 -0.09786374975961645 -0.7993819229531988 0.25013526953424403 -0.8171975945374963 0.1673954227508767 -0.07184234038736179 -0.049342422675413666
2.6 0.1094325940670367 0.03306974937139798 -0.7952675924141404 -0.2631974151857547 -0.7592214153291107 -0.3418204913006426 -0.08976990900153112 -0.051194782649759935
2.7 0.028686701816448883 0.19268147605255995 -0.4860381819800118 -0.6696375408693658 -0.411025602704406 -0.7109944053961584 -0.10607581376435159 -0.0414655792060556
2.8 -0.1162806059459579 0.12608759152221877 -0.010398126319831835 -0.82673149699226 0.07890229305664109 -0.8163289161906903 -0.08006858330383446 -0.11127704731833689
2.9 -0.16567781889665478 -0.03196143206775466 0.4654824938349727 -0.6744181744567939 0.532139502889549 -0.6154057037594577 -0.04902017684939105 -0.1298852903784736
3.0 -0.06616041654746366 -0.17633098961692995 0.771672486449428 -0.27190600083950806 0.7919433937681266 -0.17992668598265657 -0.021607220215354772 -0.15414286351464987
3.1 0.09160269433924148 -0.08940262070543652 0.7919499689053027 0.22536609537364988 0.7534801735542207 0.31905902133072817 -0.004169528950559845 -0.09680959011703236
3.2 0.15416008391426433 0.04314163496923062 0.5127070391180338 0.6350291205221326 0.4225222158612821 0.6924057976201975 0.02323148624933209 -0.12934324546671028
3.3 0.03127698709115184 0.16442435084610957 0.0394778857943372 0.8095171115735567 -0.06147058875668884 0.8037850889191277 0.04890472360394782 -0.1289115606621651
3.4 -0.11022345629623823 0.10973572890435021 -0.43906966547712767 0.6782633830827581 -0.5167346337596078 0.614396469796065 0.10555270438667534 -0.12670084934424916
3.5 -0.1751278952906446 -0.013631360450531226 -0.7524945936553665 0.2931214077326242 -0.7773467642060308 0.19741896006310541 0.10164798604729124 -0.0659938826259917
3.6 -0.056720166438390215 -0.1704055411584771 -0.7778035784487587 -0.20303108446496915 -0.7470778995284415 -0.2834163764962769 0.15415509935970065 -0.05949685509184174
3.7 0.09061558551616983 -0.150533966657759 -0.5134048244349775 -0.6139229251615742 -0.4388909723965466 -0.6605697294367833 0.1366876734814191 -0.037725677159494195
3.8 0.1954701799997258 -0.005883332095822494 -0.05756202490015727 -0.7944567477341797 0.03199431056429367 -0.7906448350425794 0.18014792818957948 -0.013853880078241235
3.9 0.08492788538060317 0.17998789587796746 0.4101738388518833 -0.6753120701184803 0.4804282277287675 -0.6168722116855151 0.17657437192952455 0.048864622412936126
4.0 -0.07660776490322642 0.17078553003055746 0.7223798389984316 -0.30523131181540675 0.7486037983485445 -0.2129919074724468 0.18358286211793318 0.09288480175167144
4.1 -0.21618420606633224 -0.017845633490345486 0.7718908427851331 0.16842552478169293 0.7323767519264452 0.26519688498532734 0.13832907768953942 0.10151779972689118
4.2 -0.082786811368359 -0.19972977388396423 0.5247033587159682 0.5775561154383019 0.4324515461064981 0.6399731484047181 0.14242214605938866 0.12537362699198165
4.3 0.1134868441950324 -0.1859081509908257 0.08778385738608913 0.7732126600833752 -0.021906029261692606 0.7692489699300342 0.10666987431405892 0.1549512325954385
4.4 0.2517901271478354 0.042639100926965476 -0.3771636085716359 0.6643082495573215 -0.46635200860695 0.594476014453916 0.10984175756865817 0.21387183126735218
4.5 0.08608815022574601 0.1988217054793658 -0.7055254984887467 0.315767194262052 -0.735669388660027 0.2070056894169861 0.03896326475285346 0.18967887436115263
4.6 -0.13918159729719445 0.19712624215271046 -0.7561985246805796 -0.13705751724722132 -0.7210222656306013 -0.24511411529849067 0.0033061079055460713 0.21486158740720704
4.7 -0.2605915963463819 -0.034292458593605066 -0.5307744826210707 -0.5445986857275966 -0.4360921699403496 -0.6133848593111582 -0.047309896587283795 0.19544200095873795
4.8 -0.1162918493559861 -0.18367122689979165 -0.11244592321302804 -0.7530767580148001 0.009050989669803777 -0.7523690525344198 -0.08796672121332341 0.21532188478719308
4.9 0.10742224434013846 -0.20421416711529122 0.3524953346696368 -0.6724775988635583 0.4523523687969805 -0.6047965470776269 -0.12240533731350257 0.15221375475717636
5.0 0.2077415955262288 0.02916851007340781 0.6817652152486137 -0.3418777892966992 0.72121402703025 -0.22565315235484737 -0.15749124143538448 0.14737479546433194
5.1 0.07542629079809747 0.19850361147425188 0.7457100805420945 0.1061057868406785 0.7130576330193905 0.2357581317300686 -0.19084827183694497 0.09802032936980554
5.2 -0.1645186853240842 0.2262709162328302 0.540957903423924 0.5155692829791845 0.43715582229607797 0.5991674664027203 -0.21938612522262047 0.10517582445753539
5.3 -0.28933884271352855 -0.008219348111237368 0.13790224923565078 0.7275219939049304 0.0022035492499688503 0.7390981184227838 -0.24001872510938255 0.018615918002933607
5.4 -0.18589091315520082 -0.20059623992024367 -0.309096438711413 0.6678386484335628 -0.41872677294593963 0.5954787726037798 -0.2559625136065309 -0.033092817995278606
5.5 0.08164512222905926 -0.22678302028134778 -0.6509930003576156 0.353423035246492 -0.7036678921460524 0.22490471578184695 -0.20528698421547392 -0.08855383748154028
5.6 0.20960519053452495 0.017622547382427772 -0.7380942695146633 -0.08688649709916907 -0.703156927400203 -0.22450130482765124 -0.21878223098587313 -0.0891784521005071
5.7 0.10330755767803838 0.2335992412107356 -0.5505348246556926 -0.4899495802571585 -0.43340555140093473 -0.5896676508917319 -0.1886925246101677 -0.12242092930268146
5.8 -0.17500848540562544 0.2417326541586691 -0.16578520608810923 -0.7063955452315112 -0.017658512972406934 -0.7213423154925035 -0.18878929636624797 -0.17823355066302743
5.9 -0.29448264541118957 0.0003947233609942896 0.28220362110090447 -0.6576011805889611 0.41360637145819334 -0.5782544095003755 -0.11946435696580186 -0.222423085549053
6.0 -0.18610461786910792 -0.2070774832289745 0.6300603990993976 -0.3609784565326142 0.6883699271408772 -0.21860286256772488 -0.05178202955685812 -0.23253602734073286
6.1 0.12335793372014656 -0.2104234069247986 0.7281072960315859 0.07001689134134242 0.6939768768923624 0.22010696277043634 0.022743787276465737 -0.20473219017811065
6.2 0.22232574109348616 0.025925371328983093 0.5452370503658555 0.47653321139699684 0.4354496273402054 0.5768422974363576 -0.0006690514432459299 -0.20821636999015244
6.3 0.11540660345804782 0.25882360542770494 0.16475609816068715 0.702956686564906 0.017159825644304516 0.7186334905028868 0.05765932858151942 -0.2208617869980924
6.4 -0.1614422173434898 0.27657387291042856 -0.2643392264016987 0.6522419166972374 -0.39642456228639883 0.5792717011327302 0.11750222630088179 -0.21143114483715586
6.5 -0.25589145421646087 0.0776014922244808 -0.6034419067654029 0.36626273797307185 -0.6662836255693803 0.22794887990191015 0.2305446213144767 -0.1295277564463157
6.6 -0.17950377129576015 -0.1824578545539612 -0.7049965652260365 -0.05009068198643595 -0.6745889121094997 -0.2007267960666093 0.22430011349014203 -0.08982076499251962
6.7 0.10269000366336822 -0.20081386914223537 -0.5443966655574423 -0.46097438913173727 -0.43029156577264027 -0.5669774263234322 0.23116123950702006 -0.0290589799077373
6.8 0.25643468357699206 0.0024059341890634023 -0.19050636719473785 -0.6837340700191923 -0.02904916177872735 -0.7054704056556715 0.23821798432156827 -0.020950438783998312
6.9 0.20009659114453424 0.30828216822084503 0.23530769321184508 -0.6470866448012433 0.3771049681509401 -0.5741765672243889 0.2936572717601135 0.0703789098616506
7.0 -0.1076726729987331 0.3314584406368638 0.5675342137810487 -0.37667091607670417 0.638630651734527 -0.22828085087517647 0.2962945135822733 0.11522113468497629
7.1 -0.32197226429045556 0.11798750899519816 0.6855483941371889 0.028145954895055753 0.6548590849477177 0.19153251904932306 0.24736961490576054 0.20332728452057452
7.2 -0.202950916133077 -0.21335995758708048 0.5422436256766497 0.4249076474963721 0.4196863684425811 0.5412881036904323 0.1984802272146391 0.19698242732068577
7.3 0.13645908311367055 -0.206560428708506 0.1926032493879136 0.6525179856020804 0.023609958550946206 0.6772768037981932 0.19474114325282574 0.27421275398142153
7.4 0.3359711333692867 0.027370690340205117 -0.22827094661855302 0.63056983861009 -0.3766678614135801 0.5487791825340046 0.18715807885725094 0.26897975338625346
7.5 0.14445861583225228 0.33696374246752947 -0.5622927610286003 0.38012468177236347 -0.6373769228468138 0.226547326489615 0.09015540969205342 0.326432574643597
7.6 -0.16317451521676463 0.29900783361149397 -0.677571855015347 -0.0018424802619488694 -0.6496561877205489 -0.17187370788859702 0.03924506068483684 0.3022942135722152
7.7 -0.33789048221453466 0.057487369693540624 -0.539325829869477 -0.40576059059556346 -0.4144085448169819 -0.5291386036052239 -0.04932070658678081 0.31529993390313654
7.8 -0.12635100585465453 -0.23877400917111952 -0.20818164894582464 -0.6539898921180239 -0.03503086986184539 -0.6819120950198806 -0.028131934864187122 0.28583386872041894
7.9 0.1199285549782473 -0.2431489966631091 0.21204806722349762 -0.6458231729668291 0.3713277200346823 -0.5667637443163638 -0.132886289701869 0.2560971291429237
8.0 0.2991114591131029 -0.011049117054329316 0.5488412933542249 -0.40136784577372026 0.6298877180639971 -0.24761126544662238 -0.17238368458130876 0.23005701742678028
8.1 0.12543145021130261 0.24247049678533128 0.6765834401560432 -0.010453212887640395 0.6531787487747989 0.16391818912508704 -0.23616617282098568 0.1718305630188489
8.2 -0.08451791650267375 0.3070185439401538 0.5504268468934943 0.383559849958296 0.430775663969974 0.50733581355317 -0.2471990018063233 0.1356420776909094
8.3 -0.31019968641768 0.05657314362314658 0.23445545703350643 0.6304916628369048 0.05672721127496061 0.6655679583961338 -0.29452546171247257 0.04228206003206758
8.4 -0.20005506190615058 -0.22107687779706636 -0.17201638239537495 0.6354286456290498 -0.3448729572536389 0.556085449275711 -0.2822307229976305 -0.007859083659495045
8.5 0.07437641725947058 -0.32607513766480134 -0.5160739001078537 0.41131713929641817 -0.6118134329918176 0.23764483709584597 -0.31567567125245255 -0.09403855476415907
8.6 0.3356252637596685 -0.06567451426524443 -0.6615240871316153 0.043951303577119405 -0.6367908916782841 -0.16383267484484285 -0.2591537786396902 -0.11356624797876855
8.7 0.24543594010993428 0.23151617016599677 -0.5571371172302152 -0.3381219651405291 -0.41151102199928563 -0.49762900152736517 -0.24965627169667529 -0.19807861405856572
8.8 -0.08753672420621907 0.3315560482747693 -0.2453885297459951 -0.5915716037686876 -0.0307478870013958 -0.6357237441190327 -0.2083759300871078 -0.23230905056999018
8.9 -0.3415865462673545 0.0379638807567103 0.16290594002453507 -0.615048023659091 0.3570549693342654 -0.5215465483408441 -0.16125351263365992 -0.29863359722593963
9.0 -0.19309499041860353 -0.2599273347039398 0.5064842158959306 -0.4061358266294799 0.6081974368225331 -0.21427950972584955 -0.10603753019863936 -0.2818597209958903
9.1 0.17242512616598438 -0.32180454324800534 0.6448711046128123 -0.03506938307786668 0.618712745910363 0.1732548004157987 -0.05006899873243613 -0.31705983766409385
9.2 0.35706593886100635 -0.0101673865175846 0.540228000810672 0.3467487845237531 0.39928639842779023 0.49421993759525873 -0.006655084160225588 -0.2984345097437191
9.3 0.2086139938693396 0.27691608846325255 0.2352909353587622 0.5956354916230322 0.04404030760413531 0.6352872890294958 0.059966973521236075 -0.3302214745746387
9.4 -0.13324227403343664 0.325219277895257 -0.16446909593174439 0.6174234571734035 -0.34704365446969176 0.5327825684159686 0.13458078784820343 -0.2668113300689004
9.5 -0.29352234384551057 0.03606874061140888 -0.5023169078811498 0.41656461453136107 -0.608497186140695 0.22940679157031846 0.19543842114956764 -0.22421665037239097
9.6 -0.1864479923489582 -0.21232229570470207 -0.6547471946898462 0.05111166564948744 -0.6286069361204978 -0.17098497256653478 0.20800356519376328 -0.14625478706667167
9.7 0.10638026660186109 -0.28108838641637274 -0.5710132844491619 -0.32490563612059686 -0.411445372488408 -0.5084027307520486 0.238998212500168 -0.13018617575103636
9.8 0.2946707523450397 -0.04144506737163156 -0.28998669059781496 -0.5801305374272149 -0.039368168067638376 -0.6410157868829489 0.26810457344152405 -0.0706641816736304
9.9 0.24705973029996459 0.24367093659242803 0.09817880979392996 -0.614221990090996 0.3360916909635068 -0.5188017446247506 0.33511865242753514 -0.01164231441283025
10.0 -0.08004769678974655 0.36173034386684644 0.44866257692950073 -0.43593398127658933 0.5853109855530895 -0.21078295024492 0.2937977476029401 0.11933219978354521
10.1 -0.33946913577520293 0.15623137616006794 0.616231724520187 -0.07906778788267574 0.600851163426729 0.13523035846557716 0.2785252077550897 0.19006475367562115
10.2 -0.3207353070102974 -0.1908484702585052 0.5469847957533357 0.3011562985858013 0.40977203564637044 0.4682392235848043 0.21427885179839895 0.23279673599058798
10.3 0.061501065363559926 -0.34193440407722625 0.2752332153314814 0.5531742171662682 0.06851151636378741 0.6094980109398381 0.23581927281124113 0.23471757102429683
10.4 0.31635600394561453 -0.09014970260287744 -0.11571740693619358 0.5995239273922663 -0.31274941337653533 0.5178753864471601 0.1687231174769335 0.2758567075659245
10.5 0.23534823950147638 0.28748910008433176 -0.4517546523150157 0.4007055082042226 -0.5601612810674745 0.2164534309923924 0.11599584364794585 0.3499533346756955
10.6 -0.17404960883121004 0.3536449961456124 -0.5932905228751333 0.048658418548683136 -0.5722005465405484 -0.15364255504958643 0.005394195406096123 0.34637852992679097
10.7 -0.3898031280812248 0.052255506434567084 -0.5076930054607436 -0.3175463625070052 -0.3717770153540383 -0.4613820270744743 -0.0010985959314968319 0.35717491279701163
10.8 -0.2759023485291388 -0.3010039552417768 -0.23808823223673742 -0.560547922545116 -0.03303315816971547 -0.6056376328705247 -0.09253639903338139 0.3005001239815687
10.9 0.09834656381184187 -0.3305815928911616 0.12998030461556698 -0.6011692469109464 0.3270967282373178 -0.5152786866311063 -0.13839171220974844 0.2988324619455151
11.0 0.2792358509838562 -0.08163614790684641 0.45875914355642783 -0.41905438922254107 0.5700628335557538 -0.22540459876535138 -0.2088893992130983 0.24341987499954457
11.1 0.18107339781894233 0.25677683593808914 0.6215785643085014 -0.06186110512169429 0.5973698310485602 0.16752644857138171 -0.22955716395522854 0.21576063716201524
11.2 -0.12859650746003076 0.2571024320123571 0.5483214249676649 0.31455609804625423 0.3855693220474243 0.4942173705462919 -0.251987048363316 0.11928671459708182
11.3 -0.3223376836940473 0.06279193337121462 0.2764424889116075 0.5649187194708654 0.0440704077918295 0.6225522795250148 -0.288083227366596 0.09451773722410134
11.4 -0.2611026919812527 -0.2503146351102476 -0.09843195544831398 0.6079198468213657 -0.32793075340576533 0.5152958727656851 -0.3017582717981771 -0.022334276815007038
11.5 0.03754831810997489 -0.35155767438125113 -0.4239489296570331 0.4389117745263913 -0.5623124244529978 0.22680949072785736 -0.33889725732321335 -0.065839132328009
11.6 0.3179969623905785 -0.20057110304583578 -0.5982261972003419 0.12144132903705421 -0.5889227635803043 -0.12608929975293565 -0.27801690831370857 -0.17506415342067233
11.7 0.29021017200331767 0.18176479646682941 -0.5513086875548507 -0.2558066191830745 -0.39767199744145987 -0.4526241974887607 -0.25898720062535124 -0.21940126859511838
11.8 -0.005990091172552198 0.31766116638576736 -0.2990583364941567 -0.5220266740925934 -0.054818515374966015 -0.5929699443276211 -0.19154437151791398 -0.26777280081743815
11.9 -0.34549906278576004 0.1225737364738896 0.07456704790338574 -0.5920968517049001 0.3121300543739579 -0.5018185773295054 -0.18876375494672654 -0.2887061568092897
12.0 -0.2660372251494928 -0.2595357960345679 0.4017507586724536 -0.4415639656895275 0.5478392740250835 -0.22585453512554937 -0.10453961765709187 -0.34506318067155906
12.1 0.061517224108380134 -0.37246000529416257 0.5749343375611811 -0.1080464939245735 0.5616926485043696 0.14197809248957413 -0.04891328540155574 -0.3676468109732019
12.2 0.3726808374187137 -0.12080868042852788 0.5283265442409483 0.2610638335204602 0.3660315859919837 0.45431694002605 0.03870895554443737 -0.3623415765451256
12.3 0.24672790300240321 0.2646045752873264 0.2798703754049938 0.5269987731800173 0.0366328130701668 0.5900143299585097 0.06350704122092377 -0.3530605194102201
12.4 -0.07024100224282513 0.34483899119608835 -0.07386976112213905 0.5891460528973735 -0.309689342244104 0.5009657563277818 0.14199436231148785 -0.3163403012965781
