!Created with skrf (http://scikit-rf.org).
# GHz S RI R 50.0 
!freq ReS11 ImS11 ReS21 ImS21 ReS12 ImS12 ReS22 ImS22
0.5 0.03624830729511515 0.0004977677104112737 -0.9260345476393759 0.09772028638771446 -0.9254364055920031 0.07567758478535708 -0.026605821229996097 0.018877208346210927
0.6 0.03844329572219266 0.024727322167628938 -0.8074708562501145 -0.4495396605960795 -0.7920547635081354 -0.47148408442851036 -0.028952060935800272 0.0008860233568938041
0.7 0.027242244265633174 0.03464921008000503 -0.3981321594049895 -0.827309123748849 -0.3670270235513907 -0.8382739221597436 -0.0050594493280002595 -0.009860772964183005
0.8 0.04269198754653301 0.014234023378299758 0.15248724086084012 -0.897976726137636 0.18721382761930616 -0.8882167965090557 0.03890296908857805 -0.010011135662078903
0.9 0.04393423711964353 0.031618563132142126 0.6410165231147945 -0.6397733114208541 0.6644129409115818 -0.6116463622124515 0.044640838799578385 0.03718311974272879
1.0 0.03842702134770469 0.03917002679603521 0.8896948683186129 -0.15042843789139054 0.8915622135408198 -0.11086769329914758 0.02172673882829479 0.05949521717798177
1.1 0.02275317309436716 0.0551676570266702 0.8085510931039992 0.38985100402792533 0.7843778977405924 0.42920428571415997 -0.045026206732165105 0.05032383930862023
1.2 0.01412200315777478 0.05095812386467372 0.4298059653238162 0.7831306552432367 0.38680823276710957 0.8017021695904527 -0.05390192032503363 -0.01557959830116466
1.3 -0.013586888091276075 0.0507065965848212 -0.10167390531947806 0.8821944647922091 -0.14704640576132705 0.8718317148201867 -0.027905670844169787 -0.04789318651932246
1.4 -0.031787607175612326 0.03151833837085545 -0.5855459444099176 0.6609222732396818 -0.619928812882603 0.6211831230811724 0.02490846000174292 -0.06093548434775958
1.5 -0.04274581455561343 0.006563808789627739 -0.8565409520053644 0.19623055029671538 -0.8644679670351514 0.14034848092552799 0.08355971070293672 -0.027309234449896146
1.6 -0.0659460010765941 -0.02609388971131764 -0.8071751156823332 -0.3321082997890567 -0.783535178373007 -0.38378920471498323 0.07481670236574303 0.043274882280637146
1.7 -0.04060670436683064 -0.05591856744487224 -0.46569157197101096 -0.7334834227644393 -0.40950036658081984 -0.7644215551955064 0.020699373712830607 0.07938079040156248
1.8 -0.030667085761974078 -0.07971643737267296 0.04333876258626673 -0.8623131477134638 0.10943547747973048 -0.8541431871607588 -0.06445983378506151 0.07507948873212517
1.9 0.01235848179097109 -0.07998517274290758 0.530563306674196 -0.6763362152816769 0.5834745251065538 -0.6314952573535413 -0.0805135959803314 -0.003528398083951712
2.0 0.022782131453074006 -0.1097767339876504 0.8183740367188892 -0.244272469702761 0.8363015288373286 -0.16787443587950734 -0.02597896902495855 -0.11441680328558695
2.1 0.061960983401290554 -0.11771967303522554 0.7996341860424256 0.27622983079698155 0.7676276812673883 0.3524574604904518 0.08897147866364118 -0.12257207803444214
2.2 0.06843472255973523 -0.09723854097336607 0.4907886152230676 0.6847462737300305 0.4229402459834507 0.7265190612200991 0.1240659421978146 -0.048088453802541356
2.3 0.07378769647383557 -0.020635684682660138 -0.058218853771618784 0.8163448043886512 -0.13339500677731442 0.8049093317050636 0.12068868904805824 0.0425717477795164
2.4 0.11764785568737254 -0.026442373637805293 -0.5173362476178887 0.6661056099620354 -0.580230887100922 0.605487159881801 0.02214992576976635 0.10028467603052174
2.5 0.13846576521887358 0.0025854225946622747 -0.8029766233731572 0.24948851828820764 -0.8221704608066609 0.16628951759836208 -0.06150909192746262 0.05691722766172609
2.6 0.10296297166745183 0.05147729710929844 -0.7956036728844368 -0.26005105208839663 -0.7608692838654381 -0.33988422992035694 -0.10171549143829929 -0.03433989056898124
2.7 0.09551450772283501 0.1480405383807863 -0.4905777022840534 -0.6709799767634484 -0.4155923597614226 -0.7142973840800229 -0.042179702805826925 -0.08687471710713073
2.8 0.06006734125391777 0.1413717547736206 -0.01120885582518416 -0.8287464592282011 0.07907666406945012 -0.8198167993793233 0.09525224925228569 -0.11513697434416638
2.9 0.02076784668901786 0.14547887864359088 0.472044791494976 -0.6771816346891681 0.5403767145124025 -0.6181073223218289 0.16886302266145553 0.0025624203266709014
3.0 -0.02763490691991339 0.12846892359376538 0.7741080651902872 -0.2787690220536405 0.7968171509323394 -0.18613801333893645 0.1093555261472086 0.12070991346066713
3.1 -0.07637802410112701 0.18226733669018702 0.7788170171882486 0.21535015571690935 0.7429511126537809 0.30881187940665233 -0.042527818522493 0.21714724435979238
3.2 -0.12101310165166831 0.13837588620986593 0.5058149680421753 0.6315699426155943 0.416298689675139 0.689924689747684 -0.15996218211852697 0.09127355237626927
3.3 -0.1755065171259729 0.08985561100258185 0.043820100240147375 0.8052433731145978 -0.05750782450835576 0.8017357775282569 -0.15944676396078067 -0.06403864782343244
3.4 -0.17044301951326282 0.008492549418214673 -0.43734927210372837 0.6770145622806965 -0.516479660049982 0.6142012486028323 -0.005523203590567051 -0.15921511468484079
3.5 -0.17869827562372154 -0.007851565842451981 -0.7515661291585146 0.298339293920933 -0.7788880740303411 0.20237904573514853 0.1137637248402161 -0.06442898425954538
3.6 -0.15626437130983706 -0.07608801717424729 -0.7748087494005748 -0.19948589345379758 -0.745815480482546 -0.2808834515947973 0.1854524934293359 0.07218625611391107
3.7 -0.16303975233649523 -0.12979540988862867 -0.5143742804266861 -0.6098400623412354 -0.4405955149054919 -0.6585439347952805 0.049917202926792026 0.19839609881142067
3.8 -0.08795034808839755 -0.1984055234212474 -0.06092604021948983 -0.7858883142584872 0.02857081813384542 -0.7842847555475061 -0.09107864801394516 0.1880900766612975
3.9 -0.027296338879097735 -0.19362574381285258 0.4131155103557903 -0.6789973163255001 0.48546628961970606 -0.6209875969299063 -0.2089392165141103 0.07539186790802979
4.0 0.07035827734912976 -0.18920194494147793 0.7258807983328726 -0.31448722513101307 0.755103979084757 -0.22129133598634196 -0.15217262591079783 -0.09312003728849155
4.1 0.07678227672272375 -0.1807203575335448 0.7729699504764863 0.1621362999267029 0.7354281904595504 0.2606132705061881 -0.020339054541079548 -0.19282492713735183
4.2 0.14945825403863 -0.15807628932842271 0.5235335033714551 0.5788348792319903 0.4312988214018559 0.6429382427897283 0.16331677222901242 -0.10605556092168567
4.3 0.1802528061329271 -0.10969374517049724 0.08939128933590526 0.772570280708957 -0.021232026401293402 0.7704805280754133 0.1716231786851417 0.07755799300437366
4.4 0.2515037111275873 -0.007740816394655098 -0.3750215184354184 0.6652984260999892 -0.4662073396072798 0.596444109642359 0.06695092861477862 0.23787423526404208
4.5 0.21159277252017 0.03917047984024094 -0.7037712856862949 0.32081303594033533 -0.7364967987802911 0.21164876481234657 -0.1562788180082466 0.15481748621018704
4.6 0.1829529367992632 0.11825970077506981 -0.7581725046957222 -0.13926695813238044 -0.7237477633689857 -0.2492017467461823 -0.23914371392337447 -0.006218417676400703
4.7 0.12134256860587705 0.14481763054805072 -0.537779145436908 -0.5528803952468045 -0.4415389724446734 -0.624566773288239 -0.15440944010292673 -0.20729694900560644
4.8 0.08606758089774483 0.22948353731266674 -0.11772976803232435 -0.7557646893149176 0.005559841827470102 -0.7573183748986715 0.053417105221113606 -0.2170119203850432
4.9 0.004191034169930205 0.2247876913672135 0.35181800812639263 -0.6688592210652412 0.4531110510057478 -0.6019790942190426 0.2163537935333565 -0.11725586822105738
5.0 -0.07965347481110963 0.25001916301726884 0.6745506025580523 -0.34469399087860236 0.716495658606555 -0.22877198122313114 0.19988671831544816 0.10969038974759937
5.1 -0.15724303875135068 0.1941260863574866 0.7412804110952373 0.10150637410296126 0.7106094093262403 0.23253281042748755 0.015111574382445828 0.20235974857372196
5.2 -0.21857464819225042 0.1814772936274691 0.5402359928554609 0.512054902121102 0.43682967620420465 0.5978158540277606 -0.18816455901356374 0.16907185449114914
5.3 -0.2702839650069374 0.09535487980933226 0.1418823773525207 0.7249182694111491 0.005102133491375893 0.7389607204347128 -0.2487500166580609 -0.08173490101435324
5.4 -0.3092067567475071 0.03844321418526734 -0.29751941700662676 0.6648605702035999 -0.4089960861884142 0.5951114873913746 -0.12371114571351034 -0.25670028070001716
5.5 -0.29224147752565655 -0.07271866884617215 -0.635358680308901 0.34848575797811365 -0.6896168505434516 0.22190970159887927 0.1541089105273414 -0.25294157119981553
5.6 -0.2614810675583721 -0.12412993629164454 -0.7264427142892204 -0.08850972281904379 -0.6925875163617417 -0.2259008384648331 0.2619496205191658 -0.02286049932332329
5.7 -0.18595222861730232 -0.19330187355280895 -0.5411562053660399 -0.49079183621555167 -0.4236705262567224 -0.5906883642798646 0.19872670084405827 0.20613823930924233
5.8 -0.14273566352091885 -0.22906902178926203 -0.15937822435594257 -0.7103666959481252 -0.008699335205395856 -0.7256656723255508 -0.05102162984663479 0.26366337927660516
5.9 -0.04450278921151658 -0.2636629595204104 0.2856066241381737 -0.6658479374374515 0.42060557508485363 -0.585985810458283 -0.2217884083352234 0.12208102966126513
6.0 0.025188119073155123 -0.2320122146049315 0.6330085043918069 -0.36807506597413364 0.6946736180467844 -0.22398265341238016 -0.21843992668809253 -0.09965265689252656
6.1 0.14583276622622016 -0.1955969401943486 0.7275018884581658 0.06862141773623959 0.6948370591468885 0.22033013066719975 -0.006162238848582864 -0.20908694123527097
6.2 0.1686266515913711 -0.1318210807613428 0.5420578033117258 0.477751562652215 0.4321138016968564 0.5794796454005532 0.15503735483104825 -0.15116881141944563
6.3 0.23711631833553787 -0.06452736608721246 0.16420412229767317 0.71141657544613 0.013865587133956137 0.7283752138491958 0.259614665301176 0.055086667229379195
6.4 0.2456978897525735 0.030182672275706618 -0.2567174233275379 0.6654917055262779 -0.39407153518838833 0.5941206201421092 0.1479235799151394 0.25158517467760677
6.5 0.28880936230163756 0.1548052677709627 -0.588015240996289 0.38090418524839703 -0.656262672494028 0.24476913213923734 -0.03707115431103694 0.3343628229231467
6.6 0.19823258502535868 0.22392066160113774 -0.7045419076946252 -0.03393533102117986 -0.6785785906862352 -0.18610248497772047 -0.26218527000112013 0.16342115579348981
6.7 0.13049913631938803 0.2896173531772835 -0.5478178182618666 -0.44345175220317445 -0.4373323467087793 -0.5525483288712513 -0.25543733119515905 -0.07778889703177205
6.8 0.04741588409046432 0.29613580886040825 -0.18783300517866294 -0.6770062348572884 -0.027089489488376584 -0.6997319624538609 -0.0416679884628572 -0.24107247328143794
6.9 0.030292392579212735 0.35852210257344674 0.23651445995727882 -0.65001665164223 0.38068757429807343 -0.5773035942242581 0.24335896615056854 -0.0974291643515189
7.0 -0.08260404288532447 0.34074822241318853 0.563517762535921 -0.37740480873406285 0.6366295957279814 -0.22929061892079494 0.30069222081429925 0.14008273959208256
7.1 -0.21555835298432396 0.3216919995973158 0.6810354192969778 0.022388419136564613 0.652846897219932 0.18642372045197478 0.09596963045690104 0.36509717778196005
7.2 -0.2831285574216538 0.18413264050177694 0.5373709281801097 0.41096512617816194 0.4183141213114556 0.5282822466191459 -0.18678179706233844 0.28558321154666916
7.3 -0.28227932870771405 0.12575271550642014 0.19379151768352817 0.6649767075424583 0.0204158179510541 0.6909799215848532 -0.30181828336809424 0.09621759284068646
7.4 -0.25827875672125383 0.024669166805469628 -0.21896020620156553 0.6656936802578929 -0.3782211290453497 0.5854331930314504 -0.16940297165070042 -0.1976469991552953
7.5 -0.2993549435740669 -0.03028914958371079 -0.5532556030980111 0.39620419964826514 -0.6342296655269373 0.24373942180002794 0.046886789556416376 -0.243948429862328
7.6 -0.26166158954321356 -0.17873513202437194 -0.676480958955151 -0.009818750667801364 -0.6475401050120176 -0.18093584694871162 0.26589125100893907 -0.11832400984225663
7.7 -0.17731534401870308 -0.23472742567430088 -0.5363767146255173 -0.40647945009691433 -0.41118581971197216 -0.5309067338153758 0.2400777349834315 0.16339664039253504
7.8 0.0024727507469072263 -0.2858964264708177 -0.20060394903638298 -0.6453195509775452 -0.02842073987362681 -0.6730540326162746 0.10264492988620821 0.2994184102244337
7.9 0.03338060760401683 -0.26503401085641287 0.20560264285979268 -0.6475906583787395 0.3679315754118552 -0.5702169721959535 -0.20657336120369707 0.21720563458454026
8.0 0.11969052943629649 -0.25414344701453956 0.5391744725712216 -0.4042712164615884 0.6232857452116237 -0.25145602578545234 -0.2918655306264213 -0.036785382743957554
8.1 0.1528858438481801 -0.2325813166900245 0.6743353917985623 -0.008315102372416061 0.651154237528998 0.1679386159226275 -0.16157477786227892 -0.2933642718141367
8.2 0.3103864082851192 -0.12559403989489343 0.5419853561812222 0.38082503173566445 0.422248319456239 0.5051203733783506 0.1410864346223756 -0.2951464086966895
8.3 0.31158191168422167 -0.029412106621028083 0.20239112135127935 0.6227586364525195 0.026003426318658374 0.6510390789142206 0.30654503836776403 -0.11540641923798622
8.4 0.3106583549978898 0.08625873275506235 -0.1972174927840349 0.6421594683311502 -0.37297825706844395 0.5554601398472375 0.27084755671105376 0.17571839286357444
8.5 0.24009839186370324 0.12125396939168764 -0.5199784013349339 0.42346840796226565 -0.6208855638194297 0.2469295483385357 -0.01846006133646806 0.27644520476117385
8.6 0.2392679636998037 0.2162809169519324 -0.6599483515985075 0.04847828618959876 -0.6373034457566962 -0.16173849249802105 -0.22812513324634842 0.1823226921899836
8.7 0.17876040873161542 0.2726249124470035 -0.5593723694712657 -0.33395060704765045 -0.41359365639607665 -0.49712967879501885 -0.29462193577565354 -0.1300146050499494
8.8 0.05572855219737377 0.34813129710537816 -0.24376138631297847 -0.5900956276649563 -0.027258191155251382 -0.635035465411947 -0.09230708484416884 -0.32012190953198166
8.9 -0.10238211457613769 0.3040583274496 0.15689508371166838 -0.6251324551986795 0.3573996671699641 -0.5325793319766463 0.18611129898498507 -0.30624866794681477
9.0 -0.1633421756117423 0.2719490682812595 0.49721961174205875 -0.41832539133947433 0.6055052597653584 -0.22690506637241212 0.3285761034477975 0.0001457051085498387
9.1 -0.19619302148216694 0.19509366565147895 0.6537641118816289 -0.05173232135504893 0.6329455687105736 0.16272109900091586 0.20879565412007656 0.25010179023272067
9.2 -0.26263082940059607 0.16609942512243903 0.5564519351234847 0.32985913152492596 0.41892175488434535 0.4856566653911894 -0.09535482814794775 0.33890605347716657
9.3 -0.32038568425723224 0.04175204566614851 0.23380073418409855 0.58373146815866 0.044209876121554414 0.6247913350963028 -0.3161468331319321 0.10149187539899909
9.4 -0.32385118021782144 -0.08281408414836319 -0.1728804882443014 0.608325302580837 -0.3544949598610769 0.5213438656013065 -0.286599220498424 -0.15872727552870905
9.5 -0.22869757093131537 -0.21562951489165602 -0.5015363723944861 0.4085630162861732 -0.6069857783412544 0.22055597952965852 -0.04036252116067772 -0.3061406586976724
9.6 -0.1652976105540397 -0.2234881894301845 -0.6523908994676542 0.049516272980735465 -0.6263853198164594 -0.1740071906997577 0.2034619509044296 -0.1686313141868227
9.7 -0.11647370187359159 -0.2750134353480466 -0.5709443023428512 -0.3161797106819564 -0.41363464313262044 -0.5024895033984841 0.2842830510665639 0.08014844861409193
9.8 -0.0466788892625654 -0.29979567874249713 -0.28762647739465563 -0.5720552964172505 -0.03857001055631415 -0.6339144225132038 0.11451032274945792 0.3242706406014266
9.9 0.12220703494394665 -0.31559050328371174 0.10093357046083185 -0.6233047658737179 0.3443567558803755 -0.5257459970268171 -0.12354133729722847 0.32032837012287
10.0 0.22268529102150628 -0.22160657700975556 0.44814169458508335 -0.43739910248744257 0.5870067426718322 -0.21092090660513568 -0.35268114790612926 0.13770869484306172
10.1 0.2651458918650646 -0.1099230325326519 0.6391157394912289 -0.061469208732051764 0.6169210634595568 0.16066019924724936 -0.2799215969333425 -0.1476279915559159
10.2 0.24556086785365033 -0.04630937356192036 0.5701086347822126 0.3169799593106566 0.4258882588001824 0.4925092591715809 -0.03308615309270045 -0.28405502040571906
10.3 0.3103126202454958 -0.01883088722723525 0.2818232431763172 0.5582270231254014 0.07198194961561204 0.6175185753221176 0.27899394478392336 -0.16761398704937341
10.4 0.3037589506117576 0.10001567599838004 -0.1110115580045904 0.5992120978825635 -0.3095742005072867 0.5195075860582004 0.2977407131532439 0.1325024840274393
10.5 0.2637255870405517 0.254779647287637 -0.4477296284459386 0.4006174218780055 -0.5576421875917996 0.21714094771296538 0.08115305262295304 0.37303231322204794
10.6 0.09496828115163929 0.32853645722995095 -0.5952928869819849 0.04891641246711209 -0.5748604217792339 -0.1551367897330919 -0.25317102278831305 0.2878631393428952
10.7 0.003693215945460293 0.3258927761243712 -0.5305201613236664 -0.32572383496840374 -0.3900945806927125 -0.4779020458945281 -0.32221307197915433 0.023672484366698623
10.8 -0.07203064055836295 0.29442321242628783 -0.2628742393342423 -0.567607450927019 -0.05272663490153817 -0.6217477662845485 -0.1984391084040327 -0.2885099183458089
10.9 -0.13246697749188358 0.31127526196707994 0.10403361425281837 -0.6082524451672978 0.30697019318256125 -0.5309337063098009 0.11335062053338282 -0.3194244500245969
11.0 -0.28018949964720563 0.246487065535127 0.43748101134283407 -0.422659224544053 0.5527521745823318 -0.2358332395009043 0.321338537414834 -0.12694553395469924
11.1 -0.35063457519798247 0.1527477533044473 0.5958242480256999 -0.06652305648480092 0.575928764214102 0.15504017013089016 0.30728629023026965 0.2073956437761404
11.2 -0.35945097884110794 -0.03740747827255357 0.5267481180890425 0.31137615300248955 0.3668202703487037 0.4843565984611318 0.05139773766965608 0.315400919516664
11.3 -0.3238573053710403 -0.08283820400297634 0.2661844202840578 0.5633083766852708 0.03457677247312688 0.6182145268412071 -0.23691605083545558 0.2199298438852703
11.4 -0.3203162488654383 -0.15814325954829053 -0.09561214533381032 0.6016467656398733 -0.32395059388046354 0.5110799938175212 -0.3012371041863056 -0.1285093291218475
11.5 -0.28823023710099754 -0.2511143901611656 -0.4109364416151059 0.4334043527546591 -0.549539535733535 0.22652699253640962 -0.14417309081238075 -0.3320090970278078
11.6 -0.16627883696401524 -0.38362386792914466 -0.5707156656236293 0.11811275492127964 -0.5633456509915767 -0.11926814515084719 0.19711711320633646 -0.3623599462150227
11.7 -0.009053188159247036 -0.37895401260809 -0.5233146553596022 -0.25651229884968596 -0.3720134397740447 -0.44332560686373845 0.3594815169032304 -0.083177203367718
11.8 0.13684627809377936 -0.35141798545708675 -0.2782297865630644 -0.5342538173762822 -0.03040760439093604 -0.5962517133914895 0.2876697138460065 0.212144980395561
11.9 0.15225372050359784 -0.280612033337457 0.07884982618876299 -0.6088836516188592 0.3242624149514762 -0.5154045505950856 -0.06413863275495041 0.3302833935584313
12.0 0.24211334252895922 -0.26624239726091764 0.41037681141590576 -0.4538557179538507 0.5620822712772742 -0.2325286249838472 -0.2888311173574445 0.12205450000425447
12.1 0.2958665414782457 -0.18460499757242102 0.5856939895914602 -0.11682127148199886 0.5756188435173196 0.13979821072897297 -0.30303554191473914 -0.2012293381343469
12.2 0.3820980861624076 -0.053817225476585684 0.5302435116543776 0.25523122032255185 0.3698073353282635 0.4512881596305849 -0.03569888109150255 -0.3716927704847171
12.3 0.3306944415875018 0.11469815533574905 0.27800234947390323 0.531555773103413 0.03213280437595872 0.5943125718621206 0.2228052867845477 -0.2813754704380328
12.4 0.2962609675888049 0.19532529950243355 -0.07891635337961785 0.5930232651906628 -0.317089313702997 0.502593337960235 0.34301518336156067 0.023605603998238342
