!Created with skrf (http://scikit-rf.org).
# GHz S RI R 50.0 
!freq ReS11 ImS11 ReS21 ImS21 ReS12 ImS12 ReS22 ImS22
0.5 0.01843385542171357 0.031065925325146376 -0.9265531009002246 0.09647078918331126 -0.9264601574730182 0.07474894222717343 -0.0027735971885693433 0.04485660833301631
0.6 -0.001769010121115279 0.05342548590252885 -0.8058385200122293 -0.451104406262432 -0.7909972701948949 -0.47305267188593303 -0.031971168650230294 0.05003545058320642
0.7 -0.036832072365113794 0.04792782030906003 -0.39523210836595335 -0.8274567119271307 -0.36466633412972377 -0.8386871609175426 -0.054402344682562775 0.03284199417373961
0.8 -0.036615424133238025 0.0005276118938008431 0.15197597717221895 -0.8965579029056755 0.18632737100340707 -0.8874466487020538 -0.04156308773362097 -0.014814890576693223
0.9 -0.031059733904070817 -0.02156690845742125 0.6407427773914973 -0.63621865419556 0.664096902774401 -0.6088512398690032 -0.01619524241540112 -0.033271897466976695
1.0 -0.012082804634436277 -0.05553193361002158 0.8875688433907255 -0.15023076167994664 0.8899571583103407 -0.11132344144126222 0.036134274378176005 -0.04745792145283889
1.1 0.01701633090451499 -0.06866398999996211 0.8072817293691693 0.3881577375982064 0.783930008211558 0.42729739113458687 0.05679891898460768 -0.021516151891807146
1.2 0.06779142670515406 -0.07816640847848262 0.42871902051601907 0.7807537104466309 0.3865331728261343 0.7995683934418106 0.08315007809631858 0.0129751772336473
1.3 0.09986380125767105 -0.05341381136137595 -0.10305839751274454 0.8799111694293325 -0.14769073839729163 0.8703073662761603 0.05232746358615275 0.08358974658879181
1.4 0.1259101527190979 -0.020340438104144445 -0.5866969992570833 0.6566497870589287 -0.6209260022749135 0.6178925914348259 -0.017063637540839352 0.0996860725036807
1.5 0.1322201814513458 0.026609976795428522 -0.8544943435529094 0.19311445967885815 -0.8627857926105699 0.13814854377602637 -0.0703685314899018 0.05839650604003649
1.6 0.09202868749883256 0.06783611208885214 -0.805511771548328 -0.332709219952512 -0.7827739660912566 -0.383911429680042 -0.10085300286542703 -0.011136252578638539
1.7 0.06632280648340912 0.09894514397217605 -0.46396159974405116 -0.7326372893981616 -0.4088334705139593 -0.7637528607665676 -0.06317722591506893 -0.08947011863265901
1.8 0.002215346105311602 0.107080324693491 0.04904585547024686 -0.8639075669525869 0.1146671611991617 -0.8561560524644551 0.00045226513742075564 -0.10392013359841687
1.9 -0.03375975499662959 0.10228647819125636 0.5342812952283983 -0.676510958643354 0.5873772652964999 -0.6324644527037816 0.09223846967809163 -0.08106135151629547
2.0 -0.09275502884681114 0.035259600197756584 0.8162062013568057 -0.24247219445107374 0.8348519044783549 -0.1669264084152587 0.1440235724802631 -0.046460089844318216
2.1 -0.09596456118229901 -0.03687120275218366 0.8008839760525881 0.2766570708107451 0.7698985327275474 0.3529643001091973 0.1519054131812833 0.04338291611385083
2.2 -0.09802438970141282 -0.07612581838500015 0.4879878209831302 0.6825929044668889 0.4214122594798902 0.7245747808939528 0.05508689096476286 0.106595588162493
2.3 -0.04843603591349131 -0.03556794472227828 -0.04128506844973212 0.7807595403320604 -0.11272727110418085 0.7721877195895968 0.07308820304149696 0.12662695132759533
2.4 0.05499058964380807 -0.09611306021920359 -0.5160676215318468 0.6644440050034632 -0.578909974634893 0.6052299374175947 -0.056113450451103955 0.0536572631895819
2.5 0.11685400651713665 -0.07050653478484101 -0.8000119654547119 0.24905605473012388 -0.8200474120029398 0.16724228671499275 -0.07750021862557738 -0.016712235050461346
2.6 0.11024151645316091 0.0013376422065606228 -0.7949517019561583 -0.262887862298274 -0.7611673746803228 -0.34229710985761885 -0.07244980878840684 -0.07625675083039246
2.7 0.1062749160504813 0.12992680265500847 -0.4896043096050687 -0.6727727099505624 -0.41572305257247233 -0.7163952113807622 -0.020564713565451774 -0.08880128209676669
2.8 0.04934632948494813 0.14551511560583413 -0.00929829027107909 -0.8282720294961315 0.08002451984039521 -0.8202272032305334 0.08462219487885451 -0.11912286734245614
2.9 -0.026368072918217935 0.14805824099249165 0.4731636545890452 -0.6758901458442005 0.5412136641094739 -0.6181251098395648 0.1586591298313832 -0.04152943447790122
3.0 -0.10470385555249812 0.099423795210097 0.7739793288643723 -0.27533668861680455 0.7970232182615147 -0.18404740151735238 0.1572046246491122 0.054335596288094305
3.1 -0.16095105248891634 0.09874096876774964 0.7799034041163349 0.21953290179458035 0.7448919212533229 0.31236374776458886 0.07415302450514394 0.20291187209883735
3.2 -0.17484724948018202 -0.007907301337312387 0.5060946133770763 0.6329313834242292 0.41780082900862175 0.6916229636570737 -0.03998077586537692 0.1920038855625366
3.3 -0.16105518848253 -0.10258060312606092 0.04546450967642002 0.8047467127813833 -0.05466326298294902 0.8025550847826125 -0.14674594723691897 0.1293940833180801
3.4 -0.05769925461983251 -0.19134877966165206 -0.4341986558260942 0.6759078846088477 -0.5128186133926528 0.6150979321276533 -0.1629993542833068 0.009285230707449327
3.5 0.03755087092147108 -0.16436683665526125 -0.7511643704138103 0.2960970536881847 -0.7786900774175299 0.20173758587893564 -0.1530808383756689 -0.06253814463261059
3.6 0.13651186773095206 -0.13499257461750558 -0.7777995998288676 -0.20093471427418794 -0.7499892544358056 -0.2816292739645233 -0.020739731700961644 -0.1437463403757281
3.7 0.15572933800747152 -0.05376444054804611 -0.5136787143336733 -0.6128917094824768 -0.44125727999800124 -0.6613595148480041 0.06513007555473585 -0.12961273855482644
3.8 0.1894944606134462 0.02034551644885213 -0.05884869492373962 -0.7940626902045722 0.030143807753685997 -0.7930817217784305 0.17718884975643617 -0.04119988200543531
3.9 0.1419408532469436 0.14082383127364448 0.4062894219589232 -0.6745890935841556 0.47762138009320787 -0.619047130684669 0.16572772526539487 0.11363756328830987
4.0 0.08231254696585723 0.20347949082910866 0.7164485653637914 -0.30189385889049036 0.7447450796636031 -0.21164858082114946 0.08568993576691149 0.2179586527144993
4.1 -0.08163161805206605 0.19447894656243003 0.7692195578368602 0.17311996959390674 0.7316872116529539 0.26988442559760767 -0.08648114439554169 0.21110026493725864
4.2 -0.15682916260247245 0.11992973352837606 0.5281722465369095 0.5751467600301399 0.43808506688380705 0.6399315623820802 -0.1795299287606913 0.1267025431061806
4.3 -0.21697389713058526 0.014676252041784896 0.08885112975292107 0.7758688737027247 -0.020783093522109775 0.7746327394459744 -0.23604698691469495 -0.012517586351678406
4.4 -0.15715925830662691 -0.06369241892530103 -0.3722120483725751 0.6905110478934597 -0.4666075022020885 0.6231210620482441 -0.14598189053634902 -0.1138699443580765
4.5 -0.13234571377360088 -0.1777781944346107 -0.6956686376562208 0.3410201010915819 -0.7320644802742835 0.23432039784298084 -0.04732737090808192 -0.23287213763233622
4.6 -0.027873623429337385 -0.20704966405937109 -0.7532272187959403 -0.136796912296269 -0.7206048901853642 -0.24494520547917228 0.10378863385649273 -0.18605756552688416
4.7 0.07194577442831243 -0.21818969067474844 -0.5271712630881691 -0.5573257289848972 -0.4321233284379645 -0.6272395846597403 0.19447643720030558 -0.08544056012923586
4.8 0.18360666046823038 -0.09342117270573404 -0.1086270619775597 -0.7545998439631566 0.012997684976135404 -0.755728350069158 0.19436937002224763 0.09393836887600644
4.9 0.21105889756155186 0.0011347519989031718 0.36140147580219106 -0.665169623998648 0.461262845542991 -0.5983226825329139 0.09642155236269263 0.16603296473183768
5.0 0.1682584320654058 0.14604885653774244 0.6822392922484813 -0.34114803866155546 0.7238140247451035 -0.22584125537515787 -0.053119394214431764 0.2081417875157385
5.1 0.06831919252601393 0.2004024530269301 0.7446342067607505 0.10501141596231794 0.7146653465784716 0.235116250161028 -0.1897492618427073 0.10646292562092959
5.2 -0.05869963878068815 0.2608527276096008 0.5430206360968528 0.5153533671332671 0.4409645920994119 0.6011351420532256 -0.24437712729414507 -0.0004779411319685012
5.3 -0.18986029265879914 0.19442565322923544 0.13954081690902548 0.7264065932047078 0.004368167272018608 0.7409134901426284 -0.18702534371556057 -0.19432688477762058
5.4 -0.2897516343271427 0.10829517439774998 -0.30130187991882684 0.6647923343541082 -0.41174813199680205 0.596068021944562 -0.05102948132808931 -0.2749569474901514
5.5 -0.2943203281098051 -0.0541997700266902 -0.6364996311331159 0.347437492602966 -0.6908448952756726 0.22254795869273786 0.16841224869932467 -0.23961688908842452
5.6 -0.23680645439090522 -0.15395245254471593 -0.7275281694989278 -0.09074688971607439 -0.6945848500037572 -0.2269067647446161 0.2504051466448442 -0.058851551859870385
5.7 -0.09897212594289773 -0.23723606990249596 -0.5401392772319296 -0.49430847752879115 -0.42368166741259705 -0.593719614522062 0.24981687908801792 0.12536720302978321
5.8 0.015712710369940167 -0.23711678818451193 -0.14939835110300015 -0.7148799180898401 0.0004281781294595832 -0.728868583010388 0.09843432274185593 0.23610421594769831
5.9 0.15391121984760797 -0.18553044864859275 0.2913450150551261 -0.6746810205791727 0.4272249926578059 -0.5949895081496538 -0.0517319049154053 0.25022195334249253
6.0 0.20711894431989636 -0.03452265601546854 0.6270005129326683 -0.3784503910207462 0.6913274739730084 -0.2370575242841612 -0.18634108073143385 0.1737325467584675
6.1 0.24427944422551834 0.11258542379009046 0.7247135641242923 0.060045121492154796 0.6951553739256001 0.2102465474875508 -0.21564401449184895 0.04304162188838125
6.2 0.12197191042311012 0.23632171362618679 0.5467184164220146 0.46586803335454047 0.44091212220988657 0.5683301722749506 -0.22125540985980363 -0.12640502348496013
6.3 0.010807266459378718 0.2906204381694056 0.1650395362843695 0.6955757166156392 0.019288704636795606 0.7139112624703358 -0.05108771769004055 -0.23301045747297067
6.4 -0.13829773415093555 0.2834834922642956 -0.2637465648510625 0.6514479046566923 -0.39708941374238005 0.5805454134709414 0.13956658945126496 -0.20342323635605478
6.5 -0.19940723290910842 0.22614044589183174 -0.5931823002800769 0.3648676638782935 -0.6581958696597336 0.2295626763288301 0.31266117154658324 -0.0011821424364661243
6.6 -0.30283536325106614 0.07401359427521864 -0.6930318139368887 -0.04665598993788604 -0.666036548920583 -0.19504531160523247 0.25618644203995594 0.186124180944161
6.7 -0.2775208844516387 -0.07398405176073959 -0.5341212782853719 -0.4401034265118285 -0.42641960090198106 -0.5460680023763471 0.09887123450284259 0.3355556409209785
6.8 -0.17523507928708948 -0.2196789273243811 -0.17839176728693112 -0.6664610661164538 -0.021500726893683708 -0.6883365100046858 -0.10208804644926267 0.3168891275688769
6.9 0.04555760713132561 -0.21556827208787707 0.2532278292416654 -0.654441025337439 0.3970782327144978 -0.579327691275297 -0.21576161744128755 0.24821957763830207
7.0 0.17468089794121536 -0.1717487956262106 0.5847307615747489 -0.39472174986647146 0.6614854560354327 -0.24253855228479587 -0.26420435677139037 0.0440053899408725
7.1 0.23291381622084908 -0.030797442023276 0.7041217244085028 0.02529469416050642 0.6758553790242854 0.1930804953717365 -0.22103148730040859 -0.10938654840760591
7.2 0.25673496189124095 0.05579679030958906 0.5574678634961231 0.42365707893925736 0.43688629535192436 0.5445043483476267 -0.06746126825042362 -0.25722945847833545
7.3 0.24722919055255912 0.23143444124154627 0.20279533258615953 0.6534450357896797 0.03412205572255754 0.6827330154663083 0.16149022332944574 -0.17218720717154176
7.4 0.15129792163760802 0.3166167737077382 -0.2222032208964669 0.6302876000261772 -0.3710303603636136 0.5523617889254115 0.31768164422798506 -0.0467432622149694
7.5 -0.07739109310012912 0.37940693889535704 -0.5581372979640505 0.3785137230201078 -0.6345098161240056 0.2277740288329803 0.25792465816177607 0.18079057928924502
7.6 -0.23411385214871158 0.24972262309614462 -0.6751000403280866 -0.004091499152461778 -0.6489619249032067 -0.17314489974288155 0.12044256475982734 0.2819673012400706
7.7 -0.3228392363072267 0.11833550394912988 -0.5387046573829006 -0.40549204565273284 -0.4159058112928169 -0.5297726307284695 -0.10969677146017136 0.3100071554966104
7.8 -0.24691527489931125 -0.058738089422737026 -0.21730789397851502 -0.6591409666208945 -0.04336628153741509 -0.6913276062086043 -0.20137431548179247 0.1736467330697416
7.9 -0.2306242671589936 -0.1728373389700393 0.19114240574881286 -0.6534556069798318 0.3540218355083939 -0.5814143554522935 -0.30175385223603085 -0.03293496712144579
8.0 -0.0875891002682748 -0.27233523087456346 0.5349680222163378 -0.40264235312529467 0.6186926752512224 -0.25332490022013665 -0.19803361262004898 -0.22074835535199938
8.1 0.03226166721115052 -0.3032760397865912 0.6706553973687207 -0.00409525625642948 0.6478139479319415 0.16902160175368347 -0.02327433582418699 -0.32972990513965617
8.2 0.27118505573535767 -0.1829169630199145 0.5406924577718358 0.3849413798172855 0.42230200488670333 0.5077843878352554 0.20230567754547074 -0.2559277233963345
8.3 0.3103271821427619 -0.029564140077069645 0.2009563970173433 0.6242695617565265 0.026951824688047687 0.6527612610368302 0.3019862819858991 -0.11334233596449067
8.4 0.2864043459136123 0.15439159511740994 -0.19952577727373197 0.6401297295783198 -0.37246995134732547 0.5552581115292464 0.304806679439307 0.1129551590680643
8.5 0.14270067153338556 0.2297512487465797 -0.5232346713033785 0.41955172155691156 -0.6222727258407745 0.2456659680070019 0.12025053849344398 0.24180292127742653
8.6 0.04130519664815581 0.3025461287450919 -0.6605931423983102 0.03962340731909636 -0.6366316286611065 -0.1676151741221215 -0.05262614749464413 0.2974195630676326
8.7 -0.10266586927653736 0.27295976862640586 -0.5647393414975733 -0.34553247357842054 -0.4173504393800789 -0.5085999771061273 -0.25061470808958813 0.14376205009464302
8.8 -0.24352939453541508 0.20095407290103035 -0.25179485074747937 -0.5920998127261454 -0.037047804146361524 -0.6402365323996493 -0.3012634576215099 -0.050071162988386986
8.9 -0.3413811538529754 -0.01571501486747423 0.16106190451160957 -0.6144904570285088 0.3553805903932849 -0.5237140620788182 -0.20791574383554562 -0.27055705991294315
9.0 -0.26077366375698835 -0.18323617084307658 0.506650284418673 -0.4047516212043949 0.6092665465561297 -0.21474129489570912 -0.007818295705537655 -0.3075418125017293
9.1 -0.08382962330768545 -0.3148286203239799 0.6529347530242334 -0.031867488251193454 0.6275098555147662 0.1777387919104765 0.1979849721861925 -0.26239449352487143
9.2 0.07368650244166108 -0.2861534302034228 0.5511438562357218 0.3581131956215454 0.4083026222531181 0.508746629631404 0.29897472768842537 -0.053187371953842974
9.3 0.19815827116419177 -0.24404384680362912 0.25026259452408706 0.6153276280499047 0.054028909380768125 0.6602472824456445 0.27852138982588626 0.12733307499759447
9.4 0.28902744334222363 -0.11480049621501737 -0.12955648957427696 0.6349304303118604 -0.3191807865466948 0.5624128427287187 0.1293303435605639 0.3158732780224228
9.5 0.3611772068187089 0.027187943287888552 -0.4648005102549398 0.4233066777932403 -0.5765107386650935 0.24982058098951593 -0.09657974633324862 0.3393688795713343
9.6 0.2786212431501442 0.25635406980425135 -0.6193224074051977 0.06853775012079605 -0.603328077929499 -0.14198064197050214 -0.313516370345354 0.24017265942614588
9.7 0.08666292071509708 0.3523490542269022 -0.5325274366852898 -0.31085985142242123 -0.38262578668973884 -0.4819780621426674 -0.36788243352087646 -0.02101044998978517
9.8 -0.12989201867320918 0.3477142111674284 -0.2514385246815969 -0.5755791522979713 -0.007314257003051272 -0.6235575970523934 -0.25918358314587464 -0.22304038303992688
9.9 -0.22569338653007323 0.22974473653361893 0.12821022435463897 -0.6254030456457705 0.367834665317896 -0.5189309293223284 0.014073243030316596 -0.31596935440837853
10.0 -0.309323749361858 0.11519050206901905 0.4651433589337358 -0.4470766428787941 0.6059599845928794 -0.2158038929736205 0.18595396693400867 -0.18958260330266116
10.1 -0.3356897491784875 -0.024059071890404828 0.6303534034808794 -0.08127540682613171 0.6168979284518347 0.13618678482366725 0.30203072086043725 0.012399529096063705
10.2 -0.3044118481917385 -0.20028052264654764 0.5483076625758395 0.2992200037713939 0.4142516963226722 0.4668125009613311 0.23222029061098012 0.21808367186178187
10.3 -0.07730537392943976 -0.34495782641354483 0.26783691922499175 0.5541300813354195 0.0633814873123215 0.6093018129231176 0.12319794279843133 0.3228868262006942
10.4 0.12840422577684069 -0.3159868809370972 -0.11995604145149405 0.6045417351065214 -0.3175922612500115 0.5234958547072575 -0.11817533342687245 0.32636239586181415
10.5 0.2933989971460281 -0.14465401912271292 -0.4552445129345487 0.4141685299509822 -0.5688930476621519 0.23014121749050576 -0.2828632173299811 0.22232547289178062
10.6 0.27257572124054397 0.031384348299975356 -0.6162441457280381 0.06636073228890099 -0.6018002623442977 -0.14287780207566256 -0.3719192441013844 -0.01729670626161605
10.7 0.2458132347238863 0.15168703759831748 -0.5541755167904958 -0.3050483918470901 -0.42178252605328637 -0.4646545683205111 -0.2060724819064851 -0.21283150362209144
10.8 0.13394436946401295 0.2403502765006693 -0.27018930272258546 -0.560230442205307 -0.06531563115812716 -0.617651395691344 -0.008810377629326571 -0.34142671246121903
10.9 -0.007265734485110753 0.33484341035376125 0.10902961796636759 -0.6079009622258088 0.3091118458747258 -0.5310465969657986 0.22521922438290126 -0.25133866150345746
11.0 -0.2394837562726699 0.2758848882899366 0.4416350428888433 -0.4200157905051491 0.555048274183867 -0.23500725398454866 0.32917471659615066 -0.0726094716224931
11.1 -0.3591103141875119 0.1317964200036319 0.5966746038061832 -0.06736289484781849 0.5783825245318068 0.151863607643882 0.3163630820783375 0.18329492152995924
11.2 -0.3530891285366075 -0.1347958946733879 0.5243196679717055 0.3049449111386833 0.3698749861294226 0.47608079521601965 0.1528556823086542 0.2901830534081685
11.3 -0.24431267725932201 -0.2467344531673904 0.2586361503455603 0.5609172813629083 0.031851671009530735 0.6136716667183372 -0.08987699744422432 0.32036181416128107
11.4 -0.1297280479456628 -0.32998913932563967 -0.106064945896262 0.610166924879324 -0.33443645730166266 0.5170426709723439 -0.2698893931942319 0.11870716848101742
11.5 0.01826886601011382 -0.350494125725911 -0.4239744651933729 0.43643587157104435 -0.5619924640010929 0.22703115791200354 -0.34143783164633645 -0.08518263724217796
11.6 0.20412647235820555 -0.34979042425431567 -0.5832637418969803 0.1248157034373692 -0.5785223714741337 -0.11562512304203162 -0.18108666166361048 -0.32191379947852444
11.7 0.3471375158215181 -0.14705047492154955 -0.5256247249202297 -0.2452548501770443 -0.38107799310744483 -0.4326003349918407 0.02859348865823591 -0.3727896318411844
11.8 0.38419018570680996 0.07260317592576873 -0.27893533594018366 -0.5147415034360125 -0.04185093961649369 -0.5794477673810389 0.27167833452684426 -0.2903038719755565
11.9 0.21281576235859062 0.2725793995751354 0.07359177089600716 -0.5955815464422461 0.31189055459923226 -0.5075849647709114 0.331759677813521 -0.06777839901763472
12.0 0.04803082820441611 0.3080131654958658 0.41448547750446424 -0.43526972673569936 0.5573604822813687 -0.21688822382623832 0.3109557845141746 0.14263238932812555
12.1 -0.13830012190502539 0.2812746964657633 0.6032214447465372 -0.11754532373688809 0.5929878980645682 0.14407141121146377 0.11424962684037315 0.28223900106476013
12.2 -0.22291980497220762 0.19356695850294667 0.5616767611636297 0.23909037363589414 0.40702072038211434 0.44877509512135366 -0.10249102308790209 0.28957925661354494
12.3 -0.33600484973928624 0.07545801192925153 0.30468170639152986 0.5062454822967375 0.06921766016705899 0.5827980274552262 -0.3149892238165387 0.13759457901559732
12.4 -0.30228481454047096 -0.1291136166375924 -0.05806301322204126 0.5868275589879677 -0.29396947958296055 0.5073681514632384 -0.33404019324724493 -0.08486357294683795
