!Created with skrf (http://scikit-rf.org).
# GHz S RI R 50.0 
!freq ReS11 ImS11 ReS21 ImS21 ReS12 ImS12 ReS22 ImS22
0.5 0.0023997085271688715 0.035124071319724726 -0.926828176452503 0.0959868606094062 -0.9265740335220208 0.07424663614486482 0.013770310071324052 0.04553753277925475
0.6 -0.023890516069821427 0.04545890147351715 -0.8056181021437372 -0.45172685941990026 -0.7906461284030996 -0.4735848546580286 -0.013531033747411816 0.06467614337096715
0.7 -0.05573602314063511 0.022428383133491797 -0.39476310986071156 -0.8274668135027966 -0.3641497056660556 -0.8385425736034852 -0.045769937029689074 0.06355673339025915
0.8 -0.039953683635810255 -0.03988022061328578 0.15229095485818547 -0.8957207143099928 0.18656297939430072 -0.8864693541370945 -0.05441408560633871 0.024015277747492743
0.9 -0.00788756121106277 -0.06286948117603197 0.6402538353912397 -0.6353463042377052 0.6634575064313489 -0.6079373771806857 -0.055024230045498466 -0.005955051143756043
1.0 0.039942655655153106 -0.07920453141596792 0.8865494730295258 -0.1505073071234489 0.8888130788935702 -0.11166858316528627 -0.021113937144614056 -0.05134558051463725
1.1 0.08466916726277152 -0.05621705850963242 0.8059866388933381 0.38749096655020104 0.7825980869717319 0.42646913040694495 0.005186040360698872 -0.06698456207869297
1.2 0.12495591117682145 -0.020543372429601588 0.42767207565921617 0.7796308847673965 0.38552362875475565 0.7982975715782666 0.06773032053050812 -0.06641122380685796
1.3 0.11700176242481232 0.0392726544273299 -0.10392410769169602 0.8801866362147095 -0.14862579634788473 0.8703671730849875 0.09416922432123581 -0.0002330455464067127
1.4 0.08313976481760596 0.07852251614030509 -0.5881324971067453 0.6582415246153261 -0.622280716492558 0.6192615572062637 0.07854134129102477 0.05152347510508469
1.5 0.029457874343380458 0.0924374962633903 -0.8563766411701794 0.19418568840828482 -0.8646030694321512 0.13910968022944065 0.049123149111870906 0.07955899010814829
1.6 -0.044706471869577186 0.06521061903677831 -0.8063288995406823 -0.33268803435626226 -0.7834718503970595 -0.3839384182624362 -0.007707536639502202 0.08800710428460505
1.7 -0.05800091757088871 0.011483475081047953 -0.465981763480318 -0.7330284495367958 -0.41076104211143316 -0.7641910370891142 -0.046605876872440326 0.06106623829402719
1.8 -0.05721485244546966 -0.05002311659195114 0.04405665175316875 -0.8621108525828359 0.10949842364982554 -0.8546114717162194 -0.08497004023456695 0.04039302352438698
1.9 0.007956428429120718 -0.07879152887124469 0.5318965391084236 -0.6757444254537043 0.5847551664744159 -0.6317826004471363 -0.07823912751974088 -0.009866710702439163
2.0 0.0517168453218813 -0.1078281170675488 0.8139775084131119 -0.24214550849927657 0.8323457364833706 -0.16684967865737843 -0.05670164590348094 -0.09367086014350226
2.1 0.12514550152517004 -0.07107051965524568 0.7994582102374156 0.2804950329864467 0.7680483881433889 0.3564667031507912 0.012814882636499901 -0.1291930126631864
2.2 0.1333091524096971 0.017445563137388365 0.4875602755963463 0.6883618533556564 0.4205287641213955 0.7302246097778604 0.037383666451850865 -0.14037080617931877
2.3 0.13765047390813404 0.05473307780993701 -0.04348862045629304 0.7799470684847821 -0.11459466532561097 0.771141601975518 0.0889891624020697 -0.10248764758903545
2.4 0.03276045926114344 0.11393893550759256 -0.5204821670656824 0.6613216941161458 -0.5828016755284052 0.6016719825070357 0.14511188954461227 -0.011572023746328298
2.5 -0.04040303298469295 0.11318103535929774 -0.8037136296551306 0.24440320277059757 -0.8231197133431403 0.16230392380124292 0.14837097758392276 0.06611733380274833
2.6 -0.14026085122427248 0.0695650106868957 -0.7890742488058308 -0.259855061586716 -0.7555272947527246 -0.3385451380136427 0.06725277204189231 0.141221043600434
2.7 -0.1532549016464994 0.04009288867481857 -0.4848072802584953 -0.666485341238691 -0.41163183692119504 -0.7094823060742392 -0.04204375012612552 0.18320943304276635
2.8 -0.12411498600389274 -0.08504989499376235 -0.013168701323086895 -0.8267021652363999 0.0760212657594973 -0.8188667979873604 -0.10548644527814657 0.09712556029767924
2.9 -0.04135365770378101 -0.1523619250011663 0.4641940007259179 -0.6753939804728768 0.5321380017305236 -0.6185165077486119 -0.13477594855575903 0.019082263404472
3.0 0.05867728174449625 -0.1661213184638768 0.7710828458187868 -0.2739742784242222 0.7937658828855954 -0.1830787601307063 -0.12234782605557067 -0.07979174518691617
3.1 0.13287222898175868 -0.03303760887110189 0.7896945433272735 0.22326013770914777 0.7539179771568943 0.31705763916053864 -0.07255410477833119 -0.08110371793871213
3.2 0.15171877369276937 0.05028859462965028 0.5122676264850474 0.634348214109362 0.42372120517546247 0.6935003523713597 0.015932829744698524 -0.13255676781766473
3.3 0.08188564948168063 0.13372793759002766 0.03991362484516886 0.8093127589841376 -0.06056230318015621 0.8060618193737863 0.09895963705616494 -0.10082350576035186
3.4 0.010846224538130701 0.14767782875505933 -0.43761150925671666 0.6799997476781853 -0.5164483548601683 0.6186295148808777 0.17893044541998926 -0.02634657239832191
3.5 -0.09817265651078477 0.1606500792684608 -0.7441588129802023 0.29809515718754 -0.7718250851931592 0.20468579813161078 0.14710828356468375 0.11770121747051182
3.6 -0.16171528267027196 0.05915756002450942 -0.7704515338937807 -0.2015502339434391 -0.742474979699339 -0.2812244955932608 0.10977866010994325 0.1850724752800964
3.7 -0.20289757020552807 -0.06080107922779869 -0.5122573632766629 -0.6109993034333399 -0.44007323756440697 -0.6591559421433483 -0.028519150667129345 0.2156901501641821
3.8 -0.10371036732116737 -0.18798388394338353 -0.058818176418050205 -0.7856909275157302 0.02908430372389099 -0.7846088930220708 -0.1066539893814458 0.17656232316961215
3.9 0.017344087005784953 -0.19587628570504362 0.4129257337814106 -0.6771493421246205 0.48423912649436907 -0.6207184977407749 -0.19347068773248588 0.11791737046106728
4.0 0.17120985116947804 -0.14313355657312143 0.722983525407934 -0.30929237988171354 0.7518495024980378 -0.21823902291381336 -0.19889272676322067 0.006452215563398197
4.1 0.18645467817432254 -0.04257996630715727 0.7712519281256043 0.16793503173824736 0.7341032628275487 0.2648329862566241 -0.184632462142525 -0.13177573108431015
4.2 0.1922006577981951 0.07500702816945161 0.5237070298180161 0.5807746228066385 0.43286963673418627 0.6445293156435987 -0.05362792013014115 -0.20273912907940128
4.3 0.09359068294168181 0.1728559374102324 0.08756688388853007 0.7767572604622045 -0.021964642085002095 0.7750663252378381 0.059514954501577684 -0.19595052724271692
4.4 0.009164125538289034 0.23343960675647762 -0.3747081279965142 0.6730739073097468 -0.4661819794919913 0.6055839776248668 0.19429475079277547 -0.08169004617718308
4.5 -0.1615061403062672 0.15199128140435278 -0.6999534812878504 0.3251909711275202 -0.7337495018847868 0.21829235564734037 0.2001260063740944 -0.006468259850479302
4.6 -0.23421430318435388 0.04145328127225839 -0.7526755992980528 -0.13523681018321726 -0.720191882013868 -0.24307448813896554 0.16258272389906145 0.12894760500240535
4.7 -0.23015632871049757 -0.13257140117262495 -0.5273771416812723 -0.5460962228289048 -0.43410852794830945 -0.6159799077792135 0.05251229714040451 0.18858596587019597
4.8 -0.10161877338675399 -0.18917941530828075 -0.11168188286640446 -0.7517949186352137 0.009338327214438225 -0.7532735404987293 -0.07404849288845541 0.2236859366066771
4.9 0.03674816507413797 -0.23405556293627702 0.34732381048303795 -0.6736247615123531 0.44843234288975775 -0.6088266210246378 -0.17950714878464316 0.10885162177370342
5.0 0.1550012476383784 -0.12900259110845208 0.6745556694955881 -0.34313239522042743 0.716315028494326 -0.2291524315941024 -0.23231286633211112 0.004409270683391725
5.1 0.20354138091872415 -0.016952378032745463 0.7448245724129204 0.11298591778089082 0.7133488632651124 0.24265026561409037 -0.21077074370573878 -0.1501028528257874
5.2 0.15941807555108936 0.16396891136402472 0.5439190136475474 0.52115142171368 0.4409097860480914 0.6066157251878536 -0.11828236496036951 -0.2038491141362958
5.3 0.024609647674682055 0.23464059303935947 0.13416939319537416 0.7301352287394056 -0.0013348287214313692 0.7433689355634632 0.017870358308156226 -0.2732905785914703
5.4 -0.15205405181142295 0.24468197140835532 -0.31319041379128687 0.667326513987812 -0.4234307833289673 0.5964263350366092 0.1421128765140148 -0.22258184637579298
5.5 -0.2633608159885486 0.12116361639296935 -0.6376283275135624 0.3516993343288427 -0.6924639303856046 0.22670504090194282 0.2714755361556031 -0.09957063710562104
5.6 -0.2996803598975933 -0.010547190605548859 -0.7242523377288448 -0.08850899456624953 -0.6916946222760096 -0.2237781378860553 0.24577712243926392 0.0954216221509655
5.7 -0.2135335010857064 -0.16702013356984385 -0.5404399425861861 -0.49125857605241346 -0.4246961172586339 -0.5904783753949971 0.1675062320825303 0.2282231562436066
5.8 -0.09629743241419732 -0.24194740897287226 -0.1551181955780064 -0.7121258171115794 -0.005947739243258539 -0.7271353011968228 -0.005320566966553676 0.2624523872820179
5.9 0.08539205205376191 -0.23655212847269574 0.28990681877061464 -0.6710543423285767 0.4247749449624519 -0.5917046405183253 -0.1297764730795519 0.2167528606209128
6.0 0.18922651173567412 -0.09087482990927377 0.6293615763819731 -0.3761027216102797 0.692861196975682 -0.23439268383828676 -0.21745374000812026 0.121770324799458
6.1 0.25472540376831876 0.08127790146142519 0.7254950047348155 0.06113831759114907 0.6955321681451243 0.21123832869208586 -0.21232224428799554 0.009970140616303167
6.2 0.12761681373615544 0.23382518499740168 0.5463669538413267 0.46607536088073903 0.4405218843468548 0.5681872227036573 -0.2172645672800178 -0.13088643899470256
6.3 -0.010132864218939372 0.294277912036064 0.16510823271832875 0.6939908221459278 0.019844129858221482 0.7121531757476893 -0.07232053237209962 -0.2293709987597472
6.4 -0.18271812395367387 0.26146995780101273 -0.265205527129954 0.6499014539844439 -0.3978977973598703 0.578674322588166 0.0975711922656711 -0.22608253968463388
6.5 -0.23764032181922912 0.15844085287474197 -0.597529881238097 0.3643770351630711 -0.6620761510302944 0.22828938018466152 0.28405049422771844 -0.07025658640846434
6.6 -0.2926238056559075 -0.030952959092938437 -0.6958641275799796 -0.04882137538039972 -0.6682033372585433 -0.19755620078702674 0.2810374942730598 0.08610424251462662
6.7 -0.19103946556990775 -0.17793882837817038 -0.5357167405176411 -0.4468591818411081 -0.4265484064376147 -0.5527409650645613 0.20091283368486235 0.2542288194222776
6.8 -0.02051131506340302 -0.2627857534753809 -0.182329038140355 -0.6708630364763899 -0.02447090493386256 -0.6933219038789957 0.059446760655025604 0.31215345213801365
6.9 0.22377592696321325 -0.14812928112553292 0.24504212866817485 -0.6490565873428944 0.3876091439718104 -0.5759081948433481 -0.05557277125338497 0.35647693298455785
7.0 0.30200901951374315 0.010942748400217736 0.5750441721644414 -0.38679199823579 0.6499238393974284 -0.23726612499207356 -0.19162218157856858 0.25197391005730463
7.1 0.2365319551230406 0.22122817178802956 0.6970229968489404 0.022837283982533402 0.6694076331828568 0.18878991340403958 -0.3011376990697445 0.1292260997563957
7.2 0.10368090748853695 0.28882416795351473 0.5501509888339344 0.41591702055150925 0.43171313617526164 0.5349349724406299 -0.2958421942727719 -0.09720631330589918
7.3 -0.0357095834361075 0.3543404119334627 0.20017684053359544 0.6621936661221992 0.02960273984739932 0.6903514326322773 -0.1401405220741237 -0.191791883150914
7.4 -0.16859092950027013 0.256845965755084 -0.21945690415515737 0.6517538670086633 -0.37348189476233556 0.5737143931198169 0.07214510198745404 -0.2684892973788972
7.5 -0.32042865763785033 0.12228813785273515 -0.5544356638685862 0.38905384267346343 -0.6332447139946621 0.23905224146914564 0.1867378313499692 -0.17027375006935247
7.6 -0.2970991856079477 -0.13070748254979717 -0.6758360889214374 -0.01128794050862001 -0.6477585728394695 -0.18005553731494145 0.2815799638681007 -0.0601785417193655
7.7 -0.1420427779346766 -0.25126329989696744 -0.5359529332688724 -0.40829381701370615 -0.41263561608218097 -0.5314923921246751 0.25123779400853014 0.12631659531082562
7.8 0.1413932136656281 -0.2746098636958717 -0.19282006086014136 -0.6389901791592518 -0.02505987330866491 -0.6654660652561777 0.2242946702216088 0.24024496167453196
7.9 0.24185575022033587 -0.13706563262010496 0.221967330675922 -0.6354815053301639 0.3787717933154895 -0.556171381555507 0.009813999849811253 0.2934557555324328
8.0 0.2983416252152644 0.027040376878052164 0.5494666548109106 -0.39821083086146514 0.6312776644404797 -0.24566859391000123 -0.1471720495095222 0.25426551890532356
8.1 0.18458607388274878 0.1803448294165662 0.6772902065434292 -0.009647062016302 0.655596176952532 0.16503555379499815 -0.2854062996115106 0.10232299457644584
8.2 0.1214792061379032 0.3142532905384804 0.548620169956843 0.37855398767524256 0.4317868390326506 0.5032738175682147 -0.2808616190699018 -0.060864305345254235
8.3 -0.10622024499968871 0.29923800907567627 0.2277982785624097 0.6199384421567291 0.054121945615993594 0.6555202011895651 -0.2192098259397863 -0.26058592474378794
8.4 -0.265580707286932 0.18426425566123128 -0.17479875036064446 0.6221800363533052 -0.34341974769658773 0.5451472551625522 -0.03460361280093263 -0.3290770466314925
8.5 -0.3533783413620991 -0.07015759662145672 -0.5151061570226019 0.39629872413159006 -0.6074190920511643 0.22612154092541925 0.1189059087732196 -0.32847287446323903
8.6 -0.20625860448476557 -0.23916589065441907 -0.6551048567328842 0.019236143773256553 -0.6250526305147712 -0.18478610520107536 0.30516282527237265 -0.16507160586805603
8.7 -0.0023858315040621303 -0.3301403035463658 -0.548891638976395 -0.36399772867642044 -0.3968348242426827 -0.5203026157439352 0.3310713572392389 -0.014122800774151435
8.8 0.184676678043866 -0.24837332206014198 -0.2386257443953284 -0.621579640795145 -0.015130416839076677 -0.6632592627140905 0.26568688994742773 0.17879631184038447
8.9 0.26996347434233603 -0.14609093135877654 0.15032905206545977 -0.6523529465965956 0.3574535367697213 -0.5630774716148641 0.11019522784301791 0.2682070182205179
9.0 0.32391309736886437 0.06138457808759984 0.4860799386456609 -0.4311315766396911 0.5982367209316419 -0.24666665784134223 -0.07844370129563075 0.3238972679587023
9.1 0.264049137364753 0.2247401618348253 0.6384648618571636 -0.05582760401611836 0.6213785855957987 0.15024725282263815 -0.24444999615852625 0.2021367253031307
9.2 0.05612355474782082 0.35819046971832513 0.5434602812331137 0.325976479033794 0.4113494486207551 0.47571670315255565 -0.3380336197631397 0.05298945182488893
9.3 -0.18425070311606312 0.2832415256626821 0.2263384604244149 0.5807602387787956 0.04181602276181398 0.620011326109454 -0.291497673693207 -0.17854418568800168
9.4 -0.3286854966767368 0.10098687521432513 -0.17774502869245257 0.607334701656035 -0.3559982826465522 0.5214835905121482 -0.1422777262037132 -0.27698995350665684
9.5 -0.2702457096684267 -0.14259345216089903 -0.5050362748871723 0.4084100160100197 -0.6094514162572193 0.22302070918139028 0.04320496224698117 -0.2977758927512368
9.6 -0.1437508498578084 -0.2383763422682654 -0.6530463145868111 0.04600228982992177 -0.6273226997016608 -0.174046448355952 0.18119807468851223 -0.18192468776427714
9.7 0.021193944849341395 -0.2950600139318635 -0.5703258659636462 -0.3242594120903134 -0.4132480166417146 -0.5078405494799957 0.27340454865914515 -0.05376146191674056
9.8 0.1796498192693652 -0.22388975028758124 -0.2916615769341735 -0.5774696415796311 -0.04367349115983066 -0.6406783908716818 0.26883316316502603 0.13785584773436965
9.9 0.3417439958020936 -0.07111179617315583 0.09119984370519749 -0.6139414930676689 0.32910800886094405 -0.5234196556576807 0.21068477063343963 0.2758632618128522
10.0 0.3129005800158714 0.1855415808538233 0.4350150783771408 -0.42571403097676164 0.5696420919792388 -0.20897485463153995 -0.021087098584783942 0.39228281761081446
10.1 0.12289804654167227 0.36523048508924433 0.5984598632485909 -0.06025860824068815 0.5799475030412287 0.1446318334710678 -0.20532557302529297 0.34683886171058076
10.2 -0.16281965223262276 0.36884137864998057 0.5145578729326368 0.3204172925398975 0.37573528609546725 0.47496881274295044 -0.36877232727089193 0.17011666418573124
10.3 -0.2892619651174735 0.1941959442434541 0.23286952320532675 0.5840832408113072 0.021128091331979557 0.6253035114717335 -0.33035216233659503 -0.06788873161546244
10.4 -0.3500740578997449 0.010054962328617217 -0.1342811842516694 0.6282066464433269 -0.3384181729590616 0.5409593740205267 -0.24299911848324435 -0.24014417505602897
10.5 -0.2782764244515282 -0.14415812595882851 -0.4617507067106113 0.44361398790699624 -0.5848384111624908 0.2559358878800878 -0.05274337631320283 -0.28532448134808597
10.6 -0.19211178669003826 -0.28075447496693 -0.6287122488437412 0.0950645999389666 -0.623016003008789 -0.11945790828942696 0.099345520444065 -0.2786983346868075
10.7 0.020188204316675062 -0.3396385383179152 -0.5533997875516593 -0.26881946307835464 -0.4330530567897829 -0.4299964043684584 0.3019305455972237 -0.14937482109818556
10.8 0.22094861815728886 -0.2515783835125516 -0.26126137133157257 -0.5421837769411757 -0.06353356072873478 -0.5974869442766338 0.3165716345895402 0.014798125139017876
10.9 0.33453997381972866 0.015120102437891025 0.12880922276934464 -0.5997657692369694 0.32426028384229333 -0.5169224949983474 0.2632665798650659 0.22502494765724695
11.0 0.1959694322132984 0.22041034013905408 0.4591416731858132 -0.4075882035979817 0.5667159335859211 -0.21779700339484634 0.08291050518892627 0.3096836727900371
11.1 0.0015626662287720194 0.335126123690743 0.6134078755004958 -0.047101092530128535 0.5866361383594649 0.17612752351872465 -0.08937592167374897 0.3241235909688557
11.2 -0.18299385485290737 0.2293224466772007 0.5417096694686894 0.3207797795725018 0.3803034537291551 0.49689280198695474 -0.22975283867800442 0.16671976657243673
11.3 -0.28900500852622685 0.13693961658405537 0.27599466600497785 0.5644173187944015 0.04710211057546776 0.6231415656205112 -0.3051289980277127 0.017839313294375714
11.4 -0.35087165760895184 -0.057365559764648716 -0.09338618764494422 0.6001886666130244 -0.31855517635733643 0.5129765799931858 -0.2536361427645917 -0.2190560432540156
11.5 -0.28249213537876183 -0.2569745563117063 -0.4136763108574767 0.4331484211858055 -0.5510975954849239 0.22851175309463423 -0.14787388599788648 -0.3229993208829012
11.6 -0.060073089595704274 -0.4192420253062416 -0.572111735929519 0.12071445893538696 -0.5667631165865046 -0.11449758308082897 0.08395000042714934 -0.39306725969354217
11.7 0.2000462093357916 -0.3316336676926463 -0.5185546271408947 -0.24938734613135938 -0.37318879735262 -0.43329681414822485 0.2518272365067601 -0.2769042064321511
11.8 0.3780839091555403 -0.1355258626764259 -0.2732472285994164 -0.5218469450814954 -0.03417311960677105 -0.5833845534682819 0.3792670187226893 -0.10171827907920193
11.9 0.3127995538292361 0.11681689352118191 0.07715585500009578 -0.6016464583083133 0.3172410882538066 -0.5116992214266234 0.3100503469349142 0.1180742132611416
12.0 0.19116756729696371 0.25075967098569424 0.4183221692728658 -0.43951054514820903 0.5623815335814764 -0.21938920087281344 0.20320649521385103 0.25099465462809784
12.1 -0.017883987804628534 0.3063914099987652 0.6070145244770209 -0.11864481704568722 0.5968507655155088 0.1441867757403822 -0.006316299474709887 0.2995608124197336
12.2 -0.15966508490396322 0.2541628870264328 0.5622289443474302 0.23867914684192737 0.4079590826119293 0.44824365105230024 -0.17838431987803155 0.24848825232463748
12.3 -0.32531231350259027 0.12443674201677742 0.30339263078403034 0.5058648815888575 0.06858011355486215 0.5817679424553688 -0.33487924056608914 0.09086285313217211
12.4 -0.30931738410644855 -0.11450828525701827 -0.05902934921530478 0.5867465777180619 -0.2944440573994098 0.5069881680799453 -0.32894171369397235 -0.10096235816125579
