!Created with skrf (http://scikit-rf.org).
# GHz S RI R 50.0 
!freq ReS11 ImS11 ReS21 ImS21 ReS12 ImS12 ReS22 ImS22
0.5 0.021989036939003555 0.028830415284120108 -0.9265578827370529 0.09677507108325278 -0.926370598713848 0.07490358107125483 -0.006766367391873772 0.043424504723200426
0.6 0.004208151751543796 0.05327433333497323 -0.8061322195215949 -0.4508051638922352 -0.7911334200581643 -0.472828715223768 -0.03506300884944006 0.044853730387661876
0.7 -0.02972563862008573 0.051831504324867925 -0.39572078582050163 -0.8274414796818501 -0.3649508874456025 -0.8386618036260314 -0.053197951621137204 0.024745917730793456
0.8 -0.030947780922542002 0.009271599569594294 0.15162565239670597 -0.8969452593945314 0.1861895587953123 -0.8877014482281789 -0.033982002228269574 -0.022125459591585718
0.9 -0.030497894496762778 -0.009376209220999143 0.6407383170016625 -0.6368415231703993 0.6642050363525088 -0.6092148439727115 -0.0039529002134808915 -0.03408972195260247
1.0 -0.019547431020515052 -0.04273158367598935 0.8879973347612418 -0.150492422476049 0.8903149185208328 -0.11129093854859362 0.04775892502878469 -0.03810248106938796
1.1 0.0013396901808758258 -0.05996818304768932 0.8077812269043457 0.38838791843316023 0.7841860445784881 0.42773284236835385 0.059700318256601985 -0.003854370504680695
1.2 0.04639413865848127 -0.07910634839795795 0.4293923970958179 0.7812607618294938 0.3868954313541997 0.8001084128682655 0.07197478770452126 0.03112841725977271
1.3 0.07883959984474184 -0.0671893002089015 -0.10235588954334313 0.8802373710138145 -0.14725505563230093 0.8704948036704464 0.028495088209965387 0.09092905089529181
1.4 0.11285928358249425 -0.0463014953462778 -0.5859045000069572 0.6570305972097956 -0.6202894707460522 0.6179989036488567 -0.04349495870346771 0.08826195871733612
1.5 0.13447063914242627 -0.00660849266451035 -0.8541398989681239 0.19360212743632138 -0.8623681360704275 0.13830121555177444 -0.08492336632900355 0.02873560701489246
1.6 0.113155658594085 0.03637953850180089 -0.8055563604629784 -0.3326061258723172 -0.7825436418520606 -0.38402664048274326 -0.09148191952190445 -0.0476603845338659
1.7 0.10468718003888564 0.080481498570332 -0.46284173869243156 -0.7330467718908016 -0.4073023534954563 -0.7640843346705054 -0.028083882607724882 -0.1139794349510786
1.8 0.049945539339882626 0.11127779186088056 0.05131696606793712 -0.8642497221746849 0.1172735580869105 -0.8561121291497367 0.04853775983278505 -0.09918686672391444
1.9 0.010442979195325233 0.13303506175645083 0.5356987203269256 -0.6758059853529629 0.5888317435574426 -0.6312692552003772 0.1298722980023657 -0.04227491368402679
2.0 -0.06740750377894204 0.08791390278496944 0.8187115147123241 -0.24148948804924505 0.8370811509991968 -0.16541577567631216 0.14800752970962794 0.015403484625638092
2.1 -0.10240082948884507 0.031111473817907846 0.8025817928527095 0.27432648974354423 0.771473116066111 0.3509713942112015 0.11266682968053408 0.09715362650808165
2.2 -0.13931921753829568 -0.012137458691405367 0.49046980044729593 0.6774522628765688 0.42394718523377123 0.7196649799589382 -0.017350847631901447 0.1283188810218994
2.3 -0.08427839829506473 0.0012166009666175065 -0.027998423135240258 0.7899838604272317 -0.10072059043974274 0.7823155226904364 -0.012645664194731107 0.12905600300018366
2.4 -0.01182164545838451 -0.1063435682865707 -0.5130694587530492 0.6661753316409377 -0.5762349160617807 0.6068002088208475 -0.08086697675320506 -0.008241720104880869
2.5 0.056170499460934525 -0.12083621481754836 -0.7968060633796792 0.25141292733310616 -0.8169215997085915 0.16936640554486432 -0.05087523825738222 -0.08937333778109666
2.6 0.08177162783379291 -0.08063657803847143 -0.7950638498715414 -0.2636441395852242 -0.760812430321327 -0.3433597998310438 0.0033530562673044044 -0.11783332978767114
2.7 0.1254652133117314 0.037560336670590166 -0.49284184431752676 -0.6755909306326798 -0.4181168095574277 -0.7195611385569366 0.0711248182103939 -0.06969872727804108
2.8 0.11724520755185139 0.07046809140449131 -0.010145756538179007 -0.82991364555544 0.07989214261608901 -0.8216605123536709 0.1459414679322184 -0.039197425257232965
2.9 0.07745122117853974 0.11569418315083768 0.4741922537898402 -0.67775919430429 0.5427247770610698 -0.6193442323360638 0.15250303140816432 0.06664540424140238
3.0 0.007910865670027814 0.12582940210677276 0.7742874872593828 -0.27825981320135423 0.7975945501011904 -0.18629531977570712 0.07755464502932219 0.13702334896577822
3.1 -0.07225736116247615 0.18260186565855957 0.778486617136392 0.21635260834758152 0.7434403034848336 0.3095445602463243 -0.04609628692064206 0.21375094594949834
3.2 -0.1403138913768394 0.1165298866907486 0.5049242750620002 0.6321326787185579 0.41615907514792794 0.6907873506757212 -0.14536375389625797 0.11624086142064576
3.3 -0.19601571148576133 0.02958041173843226 0.04386861963886052 0.8045993782986234 -0.05685178887837203 0.801945530795248 -0.18011259120583464 -0.0035741037211869525
3.4 -0.16086962919863787 -0.09086807522765136 -0.43700458599735326 0.6752716688767264 -0.5159251394064935 0.6135437018626844 -0.0975954819202416 -0.11994438455676774
3.5 -0.11193482568607602 -0.12882795435863204 -0.7541028865908777 0.2963129251895926 -0.781701131044233 0.20090209915844995 -0.011208352716577004 -0.12171499816196073
3.6 -0.018111367985379212 -0.1817160408243918 -0.7781614627078604 -0.20054051433659917 -0.7500015515915424 -0.2819216056245606 0.13212365299099177 -0.09346402188897343
3.7 0.041341416566917685 -0.1780502399271917 -0.5142957566211614 -0.6116022492253651 -0.44131013221498394 -0.6605140301802653 0.15241972327467518 0.014591614756721799
3.8 0.1523781863076362 -0.1530452599172377 -0.060321293562779876 -0.7906593349892851 0.029071499200168605 -0.7897397591746438 0.14715318944616987 0.13200896572204995
3.9 0.19984663491926397 -0.03361266007732233 0.40454175133072645 -0.6747743343169925 0.4764547514364848 -0.6188098216088544 0.025281336777947527 0.2304778669312723
4.0 0.22782312897590445 0.080008472141914 0.7161351768470811 -0.3028576055628035 0.7446354762885691 -0.2118484440553914 -0.1036461315434139 0.21277826500595493
4.1 0.11685366329659067 0.16100467115174558 0.7698271852950521 0.17239469809261898 0.7318794820700604 0.2699154010196731 -0.234817346037931 0.0751514789034326
4.2 0.03839707458653925 0.19343854365053814 0.5271452886142879 0.5781455093782994 0.43588804870100617 0.643010199404525 -0.2063234264953554 -0.08110696876572254
4.3 -0.0809377086868378 0.18536392901016355 0.08871756564188915 0.7777580542504617 -0.021943761142515228 0.7762678199011224 -0.11515488936622656 -0.19427922554960214
4.4 -0.12268697524560775 0.1606432055213347 -0.37287008018270834 0.6833982439850039 -0.46670516773472576 0.6154474144773973 0.07357720919237874 -0.17580537559526102
4.5 -0.218995734242101 0.038659631714344465 -0.6973910329332921 0.33339363408076406 -0.7327765469619061 0.22583175472566092 0.1672845147777355 -0.13326228344792795
4.6 -0.22168014759707955 -0.06149435814773198 -0.7524001637456574 -0.13453572620624465 -0.719761527194612 -0.24331418661107368 0.2026456744476879 0.033746767466515094
4.7 -0.1788897167943113 -0.19188962179611335 -0.526721409840534 -0.54844656578191 -0.43231521676350265 -0.6188291575048631 0.1197530281767546 0.15213580500746404
4.8 -0.052328951088512723 -0.20224350546276032 -0.11105420431040101 -0.752268387881752 0.011010611010687926 -0.7537002544598309 -0.024460012850490404 0.23194338532960238
4.9 0.05839119645592723 -0.22581462227042143 0.3484454523825817 -0.6733191599880851 0.450380132895579 -0.607776813190896 -0.16466151144351568 0.12521527525298964
5.0 0.14950987639282617 -0.13335367956967192 0.674316615713814 -0.34373144633310126 0.7165849540116271 -0.22874567311495494 -0.23321905046253322 -0.002103473899957478
5.1 0.19893605531803205 -0.05347349185428493 0.7449113604807753 0.11366865323684239 0.7129662889708955 0.2445287297405317 -0.19086670745082462 -0.18137893576294972
5.2 0.19023775152942407 0.10374828986752133 0.5437251173241094 0.522701088421363 0.43946924223219763 0.6088918116893622 -0.05409197833285756 -0.2273256155652471
5.3 0.11111553180918188 0.18810503137539522 0.13162841202064696 0.7324297273309761 -0.005497546699649469 0.7451855596354281 0.11271179601524914 -0.2428905994404072
5.4 -0.02522669716090381 0.2574713565638743 -0.3231142638600504 0.670291139812763 -0.4347408794821207 0.5968674962150443 0.21858550604616817 -0.11394200908550403
5.5 -0.13813250399642502 0.22501037656678574 -0.6420971439254467 0.3578539668633334 -0.6983904292941607 0.2308076279517262 0.2627476129531987 0.05979217686846986
5.6 -0.2414732754298391 0.17483566159895395 -0.7242082866856692 -0.08447043884729269 -0.6921044073771745 -0.22101463549768716 0.11768538605881951 0.2374925968987594
5.7 -0.2776723863226159 0.051680974616500806 -0.5446296762270809 -0.48614950083499675 -0.4289259611664666 -0.587166502268481 -0.05204237091873257 0.2680965214674893
5.8 -0.2938349587293282 -0.06947686597597791 -0.16839403893558766 -0.7056872195823289 -0.01928042887392878 -0.7236188201658129 -0.22992518398432135 0.14719475895857426
5.9 -0.20054774625480065 -0.20035550150118484 0.28350398767530466 -0.6594487906302298 0.41710789952243266 -0.5811687289109565 -0.245738959639427 -0.04541915092736043
6.0 -0.09496257018180129 -0.238540442658703 0.6322796545397698 -0.36269116819706226 0.6933248287604135 -0.2197476000262269 -0.13862846787808447 -0.19338183332870515
6.1 0.08451113179919463 -0.22636453747929813 0.7260104928031521 0.07106970913866684 0.6937588777467265 0.2220283733268854 0.06403787959802809 -0.21082048926742503
6.2 0.1588289661559551 -0.14238952045404482 0.54135477062821 0.4788824873294017 0.43212043397768446 0.5806568132582481 0.16363617394026517 -0.1382896061173293
6.3 0.24561744668583765 -0.02357741215289818 0.16276936566367725 0.7123749606281543 0.012905767432832671 0.729734339225763 0.25556756821126386 0.014019088978263108
6.4 0.2280590544152764 0.12515373783112377 -0.2570739270025979 0.6642435868840121 -0.39403160949516175 0.5937506360024521 0.2134535860304497 0.18089747923883395
6.5 0.20177455404926378 0.2772936221143773 -0.5836846338809265 0.37586361117594774 -0.6513959503032598 0.24154570544102522 0.11162950119723623 0.3357639147392549
6.6 0.020916499444638942 0.3288802009444446 -0.6966986299646998 -0.03597514050789327 -0.6713803970014081 -0.1859762387910968 -0.1261616635948591 0.3161523187396521
6.7 -0.12557475583048405 0.3173459871586025 -0.5403527936984742 -0.4333728671199585 -0.4331935212788489 -0.5412102633177351 -0.28264745185328694 0.18058193811102652
6.8 -0.24903617130854394 0.19794284557663494 -0.1783373816356716 -0.6676251315376796 -0.02067258347725548 -0.6891551753750407 -0.2916939153889614 -0.061154069031662955
6.9 -0.24652327827385584 0.11819037599861819 0.25395462100105504 -0.6590951728199341 0.3995134425424483 -0.5830503676249429 -0.10557485473164635 -0.17872369606754077
7.0 -0.2529636544130915 -0.025343076866182854 0.5829455436309464 -0.3915900624565616 0.6592576945565622 -0.2392087283632386 0.10535919392010146 -0.21439075661924387
7.1 -0.2149600740535246 -0.12711135356617528 0.693814576638259 0.028382816130750138 0.6646878483346955 0.1945488683173949 0.2340782679379285 -0.05876940659651485
7.2 -0.08424251008011491 -0.2589914403862037 0.5466109973086899 0.4258760936213988 0.42475921919810833 0.5449641192554404 0.25321603392265485 0.08290777378201324
7.3 0.11422303130681469 -0.21338992292451578 0.19301300668730123 0.6514961000820775 0.023970728387083848 0.678381591276181 0.18207212993036118 0.2945465359727154
7.4 0.27496111500618403 -0.13455973022855067 -0.22850396423880737 0.6391052767762135 -0.38028422417494323 0.5584302175696151 0.026546437712418908 0.3206010248183737
7.5 0.2743115575497892 0.04374996406461758 -0.5635805903706894 0.3899829460829325 -0.6430669197107781 0.23624476371241318 -0.21352007735834438 0.2688504251716375
7.6 0.24425069600971241 0.13052292309895625 -0.6872146227739517 -0.0013961352339538075 -0.6607015682582911 -0.17460348969046724 -0.3076358799718735 0.042425217328248416
7.7 0.15813595571850111 0.2679854038893536 -0.5505200028150475 -0.39789005720456805 -0.428025956604339 -0.5263537809532673 -0.2736111030551325 -0.1563137824670828
7.8 0.10655007683907587 0.3144548553599451 -0.21356478518678723 -0.6381047110360824 -0.043825630471277466 -0.6700807048127118 -0.0144757052035136 -0.30111644691931194
7.9 -0.11762081684983058 0.32506956349482585 0.20167241930342722 -0.6309261979098781 0.3591995615686433 -0.5560704733510838 0.15384212988835794 -0.2735505869310881
8.0 -0.2535802591603545 0.21723050264833965 0.5360794368635778 -0.39227853288415815 0.6175347850120201 -0.24170724511502284 0.30771758525882775 -0.10384114244962944
8.1 -0.3695105640329043 0.03410229419605973 0.6573518412915519 -0.0007617779931376745 0.6335914303582061 0.17002025197451107 0.27909800813212876 0.09811226525405305
8.2 -0.2561643931735892 -0.10287178864057422 0.5425459461917552 0.3947539927354117 0.42035506550240137 0.518540834445639 0.15573930511771564 0.27713277006077486
8.3 -0.19336025614241165 -0.24013998956178279 0.22327790403711592 0.6363298250479528 0.04364546321794277 0.6701889626529738 -0.08317818447753551 0.26021906458908783
8.4 -0.05342444738200107 -0.2875365095756794 -0.17644606881937136 0.6404884551079204 -0.3517022546482793 0.5611090846510995 -0.2416508229352093 0.14240975390221064
8.5 0.07092055190603444 -0.32444004963269857 -0.5141651650997944 0.4115881080795748 -0.6118319953847042 0.2390449501837258 -0.32281354476550667 -0.09583128023321333
8.6 0.2653827839780177 -0.21411893759328515 -0.658700418409156 0.040973413918229395 -0.6346710308407889 -0.16732105286579227 -0.1705909141829257 -0.2512432499551352
8.7 0.35099370275760877 -0.06064439905648325 -0.5489782560519368 -0.3416530217448169 -0.40257225668105634 -0.5006826042147688 0.022969023752712196 -0.3502259303630403
8.8 0.31659531300357535 0.15951627235186266 -0.2349008846518398 -0.6058751847888244 -0.014879312280280887 -0.6473189542129272 0.2345964770768671 -0.24721623063215342
8.9 0.1726137479502778 0.2494593590614027 0.15377128678034177 -0.642778070573891 0.35943053617755655 -0.5515638762756208 0.32581789827142527 -0.07026592847732249
9.0 0.05547591703795149 0.31563724217017874 0.4918889714782255 -0.4267909882213044 0.6032339034473788 -0.23838464333125842 0.2620948244313301 0.2036393114626732
9.1 -0.0643737670397902 0.2849275072832121 0.6501237691407248 -0.055242813738249685 0.6316314898637453 0.15672971449425277 0.06564861718244014 0.3125029483614747
9.2 -0.21323308556098516 0.24347485919750655 0.5542077034364645 0.3282085788186183 0.4190128994417031 0.4826875397618615 -0.17902411390203765 0.3006721695148197
9.3 -0.3167581607429183 0.06703556427542891 0.23227917245121876 0.5842576592793443 0.0442474637397918 0.6252750758655585 -0.32089432515461425 0.07468266904500441
9.4 -0.3094894418720293 -0.11828760348699563 -0.17285819626525642 0.6097781143192748 -0.3539225350714415 0.5240840741837194 -0.3019784432324385 -0.1222280396059389
9.5 -0.15198909668708255 -0.28909100314068054 -0.4997351086278251 0.40738989990952446 -0.6048960785253306 0.22171920666556716 -0.14260108080274958 -0.27409566107513245
9.6 0.0003554161389173194 -0.2841266739653438 -0.6485490487678658 0.04396663654020866 -0.6218745755899813 -0.17650619331117157 0.054540155664215315 -0.2567071184947942
9.7 0.1294609407763066 -0.2678227379614763 -0.5685422855392491 -0.32618693410024213 -0.4092407555211044 -0.510331914599369 0.2338429676608516 -0.15291188049379473
9.8 0.2258702211787573 -0.1761580605923971 -0.29253367550114484 -0.5776534284162572 -0.04233223356479876 -0.6413492810177217 0.2867036003115917 0.0747372418763095
9.9 0.3453029728269357 -0.04861997797056017 0.08984111995612581 -0.6135869438503545 0.329412779639748 -0.5226050833381026 0.22970522860524772 0.26281399764194635
10.0 0.32006229404892733 0.16879964239351697 0.4343498493736558 -0.4265730538065335 0.5700477261541615 -0.20824472884661854 -0.03879855348821111 0.393664279967611
10.1 0.172447781808796 0.3363258315519664 0.6011622491390135 -0.05995197448797063 0.5818702749154437 0.1477635887194782 -0.2525413849814585 0.3117551168483632
10.2 -0.06260549829201106 0.37909535550503237 0.5207821552777948 0.32258135432061064 0.37924101924745834 0.4803703855431419 -0.3917106413852211 0.07394536659003309
10.3 -0.17328393898519412 0.286895750457539 0.23888467175136 0.5852159764345715 0.02423298666867356 0.6284535406528357 -0.2663937271845171 -0.19569732297140513
10.4 -0.2823758966798737 0.19097206428201613 -0.129863896251167 0.6270989554497468 -0.33571239417078536 0.5402729315340754 -0.07370274695352819 -0.3238811005029645
10.5 -0.32476952910853224 0.08398823726640373 -0.45814706407727834 0.4387019979905714 -0.5806127025139286 0.25061007642636635 0.17533813665140474 -0.24246416162321702
10.6 -0.3791092090212142 -0.0879119508736407 -0.6155661361138274 0.08495177001139237 -0.6068253228380012 -0.12666692289205322 0.2794475720955018 -0.07405132767911139
10.7 -0.2640743711121854 -0.2723337980192704 -0.5286412984661198 -0.2839583996940783 -0.4034410452447144 -0.43762687488515206 0.32366611200641837 0.16166507810884573
10.8 -0.08082843053313564 -0.38181831029927604 -0.2452974017830269 -0.5491689804167799 -0.04404921183566246 -0.5988099232865145 0.12216769984163496 0.28951392342241766
10.9 0.14106048381252334 -0.30813138624784014 0.13234793833424222 -0.598977327045281 0.3290898365113199 -0.5137719090089564 -0.09993819681317193 0.32192150039830725
11.0 0.22141241439936063 -0.19866138235015263 0.4571916825271826 -0.4219591105016371 0.5706928944885657 -0.22982288907133175 -0.29538931538252877 0.152786905250508
11.1 0.290191093298721 -0.0401695899495029 0.6228762447099143 -0.09116611098079508 0.6106795487484739 0.1406358279864085 -0.30318829413655324 -0.05909528478168542
11.2 0.2919890372177947 0.04854389489233905 0.5543936306235112 0.2656836608316251 0.41084120223513726 0.45225868126394553 -0.16114691844778856 -0.2998261285481668
11.3 0.22723994805403552 0.24001528449217613 0.29176280770179813 0.5342495820046687 0.07063502473229272 0.6012585394022314 0.05413551174575 -0.3375512282032194
11.4 0.02458964699053881 0.3302929092710528 -0.07662093936698774 0.5957926241917344 -0.3033020938065363 0.5143429625219244 0.26750416972860686 -0.2825720817221529
11.5 -0.19003925642966268 0.293187348293294 -0.42170121682593364 0.43456386983157724 -0.5597660254177885 0.22458298076516325 0.329975309751481 -0.03554567622258628
11.6 -0.29436033841206743 0.09397470121269651 -0.6060471106958529 0.0884227289793193 -0.5843156548512967 -0.1591487241199656 0.3039115103439653 0.1553045489647886
11.7 -0.3150039195150274 -0.02659581987553003 -0.5593809625171184 -0.2819248647429663 -0.395814708181821 -0.4804917186590143 0.08194810924441966 0.300742115000037
11.8 -0.2492916675057646 -0.16470238878450874 -0.2970356619255554 -0.5429158057742034 -0.04498322130022464 -0.6122444694981813 -0.13196951250219366 0.25162589359039983
11.9 -0.21592216953026644 -0.2592479930304384 0.07720208274416124 -0.603553889552604 0.31979739350747255 -0.5123694682872243 -0.33433996793508086 0.07717195714309556
12.0 -0.04855389385823532 -0.3702669360701622 0.40250340000546625 -0.45038373883029365 0.5535555528045282 -0.23404004301995843 -0.288452201931315 -0.18457549784806931
12.1 0.12688487385741865 -0.34763240792838135 0.5750713615281984 -0.11178388367681333 0.564672369040953 0.1389887241685232 -0.12133032651271422 -0.3567373619218822
12.2 0.3269502635298541 -0.2112563010886842 0.5252461852442806 0.2607760725423883 0.3640524289946092 0.4539296032471415 0.1388223830682913 -0.34867511871107115
12.3 0.3432367856447733 0.009493730615718982 0.27783276142987867 0.5364783440142904 0.031017831008087943 0.5991458182437587 0.2859367483744397 -0.1923564445909399
12.4 0.3148427320377416 0.16254697173908378 -0.07960984318497513 0.5946603591799937 -0.3177845037037663 0.5047497035440451 0.3319895655747702 0.060524744189259405
