!Created with skrf (http://scikit-rf.org).
# GHz S RI R 50.0 
!freq ReS11 ImS11 ReS21 ImS21 ReS12 ImS12 ReS22 ImS22
0.5 -0.0037891719725677286 0.03453399050695186 -0.9269524605803263 0.09570088455473275 -0.9264801546242826 0.07394090906994805 0.019795397140228342 0.0437148198659008
0.6 -0.030310091431746632 0.03927468369303205 -0.8055871936920871 -0.45206855756285963 -0.7904403526062327 -0.4737963402350269 -0.004833577884723245 0.0669644063734681
0.7 -0.05744967918406142 0.010431443844539916 -0.39463439463291605 -0.8276133185987451 -0.3639426806471229 -0.8384847663120765 -0.03728809080919966 0.07241021868591631
0.8 -0.03265553588749173 -0.05368954471404602 0.15263154209295568 -0.895601850557092 0.18685229838694867 -0.8861419825676851 -0.050627381103461086 0.03932458262887741
0.9 0.008871900566148335 -0.07031007081205189 0.6403646965694691 -0.6351672972786419 0.6633952556084699 -0.6076316252232771 -0.0609507720312186 0.01158218136127843
1.0 0.06142438607977485 -0.07291500621621223 0.8866116856375401 -0.15015570421411756 0.8886683093643268 -0.11131825506969617 -0.039185689323982656 -0.03793344346664851
1.1 0.10016313657102427 -0.033796525550266764 0.8056473323223711 0.3881567363776646 0.7820722982890351 0.4269988246701341 -0.021862747760477835 -0.06546658480262241
1.2 0.12284095971233733 0.011797858878983221 0.42711391247779573 0.7802165468204101 0.38489720574248076 0.7986774151028905 0.04002115826855714 -0.08272763799402137
1.3 0.09154917762273017 0.0674504646037508 -0.10455519676835401 0.8806120079226287 -0.14925214933188388 0.870541647170859 0.07764213618844507 -0.034013827327073254
1.4 0.04010892709802208 0.08637797328642578 -0.5884023573749169 0.6587140019341594 -0.6223938896470187 0.6195622021455272 0.08358000813050322 0.008364136138416692
1.5 -0.015166099876474439 0.06873489831335983 -0.8570463966141089 0.1938226339635552 -0.865040454477392 0.13870169216656003 0.08059740402675358 0.041184112664920995
1.6 -0.06866882404572204 0.013639257335915353 -0.8059660169823586 -0.3338818251412571 -0.7828653611285532 -0.38501154315863456 0.045816033135826995 0.07095927463714793
1.7 -0.04324509796537531 -0.05105730455163544 -0.4634164297223474 -0.7345872187467692 -0.40801683170259295 -0.7653628388405898 0.014228253116133058 0.07773650793915907
1.8 -0.000989249353850018 -0.09506682704812287 0.04780259699550151 -0.861860029048775 0.11313379859425116 -0.8538792445272811 -0.03816794083621435 0.09292345494644239
1.9 0.08860746974656256 -0.08017901219232595 0.534839074561872 -0.6731314092521917 0.5872583929256162 -0.6287981293119005 -0.06624078042921648 0.06798855843796295
2.0 0.12610507568078577 -0.055530065296204016 0.8165197510867925 -0.23846526290053224 0.8342691869076788 -0.16302548767986186 -0.09099115932075212 -0.011896601148208674
2.1 0.15084031190604585 0.02429494425813629 0.8015798792214669 0.2795109046046648 0.7700878533376678 0.35548156387425234 -0.07043590050397 -0.07664126558321713
2.2 0.09102251471220642 0.12221887606567074 0.48688709611555603 0.6847849557636183 0.420164281579574 0.7263764495037787 -0.07492947964285243 -0.1353825053118498
2.3 0.09790852927676656 0.1526554050921402 -0.02992900017294514 0.772796354133723 -0.10034450657751587 0.7651130336286128 -0.01998189372998438 -0.1177294625763323
2.4 -0.06348872693148375 0.09280189530273174 -0.5169705986968804 0.662840959979483 -0.5792044227294205 0.6034215824027394 0.10442988353907984 -0.10326451825694767
2.5 -0.11287366120435167 0.023487312883656193 -0.7990869326308135 0.24619781525322867 -0.8183815016481777 0.16448820327348357 0.16823193663274505 -0.047902668828980394
2.6 -0.14355737043741232 -0.05816432448600101 -0.7895170239325648 -0.26280220974716506 -0.755436409795159 -0.3412889714718017 0.1543947867117772 0.05032879175129615
2.7 -0.07158433504261622 -0.07101275461279377 -0.4889554295348999 -0.6724883646449686 -0.4150389148923101 -0.7155438354617969 0.09144670997703408 0.15335255926053112
2.8 0.019726312541939933 -0.12502372456789274 -0.011719038028217721 -0.8294611288431191 0.07765994637816037 -0.8211205173658767 0.03370822901116432 0.14673239674641608
2.9 0.10590105784354913 -0.09216514528734895 0.4697055409111237 -0.6771005981292296 0.5374821991532951 -0.6194022400292631 -0.039803171914959426 0.1443663336546826
3.0 0.1406401885795436 -0.018451041200102422 0.7732028884993007 -0.2770884276490238 0.7958550894683503 -0.18593726671137503 -0.11052871587002765 0.08784990188932262
3.1 0.10298689856017085 0.14347341477807102 0.7824428191645052 0.21851377235067326 0.7470211201867362 0.31127973364625877 -0.15744561804366414 0.07555450572730389
3.2 0.010381418171398591 0.1781640621732161 0.5060067448578635 0.633267324607754 0.4175912219538381 0.6912349742158421 -0.14945847073707355 -0.044216730242178384
3.3 -0.11769716146494462 0.14795121015281743 0.04002917564490183 0.8062390254945526 -0.05995689029885151 0.8026958536048574 -0.0985842165219933 -0.11898172579124623
3.4 -0.1640757607953048 0.02870365077691982 -0.43956365770509237 0.6757482573702468 -0.517557172561591 0.6139441133653901 0.015709137674738513 -0.15616823016771386
3.5 -0.16779426297767347 -0.050841193935169074 -0.7534368335347781 0.2954661725095753 -0.780306332468316 0.20095862180040647 0.07821056202034476 -0.09025613346633662
3.6 -0.0819237335125372 -0.15817438217233037 -0.7766891295035647 -0.20189700981245812 -0.7483091810586536 -0.2820651000337209 0.16959105442578035 -0.03674747477050406
3.7 0.0038737531902499848 -0.1875103842114583 -0.5131216598423565 -0.6122073786287796 -0.4406447136386521 -0.6600886839958753 0.14993884640559396 0.05379637606598859
3.8 0.14714087327748077 -0.15872320552462182 -0.0589890780490504 -0.7906115094756001 0.029386379278984166 -0.7891226163465518 0.14069998917955523 0.13835802635778596
3.9 0.20234102112776453 -0.009625290351166993 0.40540439573938275 -0.6739527744464449 0.4761598023367913 -0.6181468972760579 0.04701813841151829 0.2239405373289336
4.0 0.2000194242642639 0.12984665474899734 0.7159497098071674 -0.3008666645428571 0.7435020475467611 -0.2107573870379932 -0.05266389259056474 0.233205598918641
4.1 0.03458368856588823 0.20197321168849122 0.7690674268167673 0.174463018392165 0.7308373957378687 0.2707113798039625 -0.1887960675475237 0.15259809699482327
4.2 -0.08608203282884092 0.17664068724717147 0.5273461783975117 0.5769451003668983 0.43688470437145754 0.6409159340292463 -0.21835167031994887 0.04347020723697346
4.3 -0.20008016634982265 0.07657215142936194 0.08790360299567965 0.7768088484851031 -0.021523477270270153 0.7748211083617134 -0.22349396239211144 -0.07604917684502882
4.4 -0.1696430724192311 -0.029677052079812707 -0.37295547987941874 0.6900548428956766 -0.46663009187866705 0.6222851160917973 -0.11953397619497247 -0.13878885058975762
4.5 -0.13806616124515914 -0.17493981781455092 -0.6961046036020648 0.3403062177761404 -0.7317319989632391 0.23368935767942312 -0.04107646225377591 -0.23359599661584746
4.6 -0.0036706977141163777 -0.20844157832145951 -0.7534151639136526 -0.13794601096481984 -0.7201838848360707 -0.24557946428529343 0.0826312868516354 -0.19787732117962073
4.7 0.11803864365957681 -0.18684698995728946 -0.5276492234122173 -0.5590954506003349 -0.4323531027411209 -0.628329102336323 0.17197665411053206 -0.13667417053264855
4.8 0.21345324172588348 -0.011341776541571091 -0.10872702031109636 -0.7555674654870996 0.012608655023459203 -0.7560963668880979 0.21227644161970294 0.007687487806720027
4.9 0.1759527886989494 0.11661256684519304 0.3622528860418224 -0.6641165327057396 0.46128331541449663 -0.5969727875442239 0.18602868108199966 0.08689513110099135
5.0 0.04698086546025273 0.2413658441697707 0.6806026199561979 -0.3409654223334412 0.7215024464089688 -0.22615551450733187 0.10020027826120707 0.1909592556855292
5.1 -0.11792063234979122 0.2106764671043062 0.7419317666980592 0.10427823603153008 0.7117504226292801 0.23333188195707855 -0.027676586773004372 0.19637951375000595
5.2 -0.24415665870371916 0.14345466246316124 0.53745717391594 0.5146730406944642 0.4356400745949303 0.5988353753887987 -0.15284847235661764 0.1954256035374755
5.3 -0.28583449891688484 -0.03851372536921487 0.13737928183109377 0.7266472053777875 0.0027864716242753107 0.7400541845845792 -0.2349369236928211 0.04856852326884492
5.4 -0.23107917859686353 -0.16540910772211467 -0.30511071725510913 0.6658746110582139 -0.41500391549624666 0.5962335635023834 -0.25309765693893216 -0.08660483894855527
5.5 -0.05850326584309365 -0.2608712474330808 -0.6450353042187625 0.34850355155765356 -0.6985747848576249 0.22244141743146295 -0.13763318621728748 -0.21231504914886085
5.6 0.10781019486127237 -0.18931405939093748 -0.7365356862940476 -0.09101992171677126 -0.7029260772089937 -0.22813613438233976 -0.04408874153546016 -0.23570160562222325
5.7 0.2264478582500487 -0.04978615283234434 -0.5450928770790844 -0.4965568278687496 -0.42821018578738484 -0.596213300048204 0.10347135139458992 -0.21766640631432874
5.8 0.18336839438408412 0.13094250069914593 -0.14384435370720058 -0.7153732863798753 0.0050859453215384865 -0.7275143483712163 0.18934972109757292 -0.1520608937035716
5.9 0.07421762751440887 0.24020410428821032 0.29050846016853704 -0.6736730750102305 0.42561464257059173 -0.5939705786310931 0.2703452108376797 -0.03517182888727796
6.0 -0.1167651033907593 0.2803797425270256 0.607728268018759 -0.37294065151059924 0.670750301184468 -0.23603780128608914 0.2612248527952617 0.1244707232869636
6.1 -0.2250501697914567 0.1815498699578661 0.7052113680132472 0.06059367819991113 0.6756288168069957 0.20608201121216618 0.19076022742859983 0.27915622205109103
6.2 -0.31956797328058195 0.016806337734770277 0.5412976160476716 0.45500272632753047 0.4376018284015632 0.556297991843383 -0.020145034800631734 0.32203219729222526
6.3 -0.22684054909148002 -0.16106727561320863 0.16804528939491797 0.6854319742248367 0.024715087624591292 0.7039846961524724 -0.16090232278668454 0.26499466589764636
6.4 -0.06647096339146885 -0.24017983424533065 -0.27234671259773713 0.6567020726589682 -0.40620773488741085 0.5834264039382057 -0.2561043743579754 0.1392816081484953
6.5 0.175238556941355 -0.16871409311878316 -0.6116249984857435 0.3796758209241484 -0.6787550142747337 0.2402232280518234 -0.2253128646985197 0.041111505522968786
6.6 0.24007184036535215 -0.03397879948811317 -0.7136745740678541 -0.04207014629703246 -0.6865446496856752 -0.19436339752716555 -0.21516504130725903 -0.09749118748356358
6.7 0.23541352967885176 0.15906319162413163 -0.5487333547445175 -0.4551933427888089 -0.4373312424765492 -0.5633021294609939 -0.11630669458373816 -0.17949848283031594
6.8 0.10976099686213589 0.2698422057666451 -0.18676728122184164 -0.6804627112613979 -0.02715197813891923 -0.7030767446652881 0.02610177132138873 -0.22955734042134313
6.9 -0.007319878060596868 0.35467119416061565 0.2409143713286594 -0.6508669892426107 0.38365006377729877 -0.5784637462935309 0.2156541718888299 -0.11939156734825587
7.0 -0.1975133499355518 0.2616436003977408 0.5705801726342872 -0.37911521038509466 0.6435123847716924 -0.2311899421297583 0.299967061867172 0.002892390944486567
7.1 -0.3206308697909173 0.10345396670641079 0.6847184358139795 0.028377664701361632 0.6559242240385479 0.19087511497918894 0.25634839646355057 0.19114507026290073
7.2 -0.2656202444127587 -0.15117834619261442 0.5384595886241134 0.4221790414824809 0.4187146658361637 0.5382529327526677 0.1416136144526436 0.261726028081204
7.3 -0.04982362380167642 -0.2290677014712838 0.18820784776913083 0.6563644503220339 0.019582009097549105 0.6815246393664496 0.027069900840505076 0.35802675018276775
7.4 0.18375050532881337 -0.21556297887144438 -0.23054764185734275 0.6469972476307977 -0.382826362073532 0.5660650972360934 -0.08959606104071671 0.2916478646602294
7.5 0.2549767443637826 -0.029236806293293574 -0.5646741048352119 0.3911766886747197 -0.6435536231452305 0.23848088293049288 -0.2586010875344278 0.21046060448222645
7.6 0.2524556562447178 0.10687169317894037 -0.6877338122568867 -0.003943376706914456 -0.6606390860065185 -0.17555756894262883 -0.306993709290427 0.01591896298154695
7.7 0.13813306475413653 0.2830101359989521 -0.5492909148194236 -0.3998019870467226 -0.42739906120068516 -0.5266021725226246 -0.28488911858097676 -0.13591380971217792
7.8 0.03274482978751139 0.31977970417817675 -0.21514113375368762 -0.6429175499413121 -0.045833324946865206 -0.6746664061638896 -0.08423722533500305 -0.276788295036352
7.9 -0.21954229264370467 0.26135902591390064 0.19660404892720545 -0.6364810730645633 0.35400094188887077 -0.5634568305166524 0.03403457842495712 -0.31161980954397506
8.0 -0.3182488307047931 0.058110704889389575 0.5338011182934721 -0.39338829642646944 0.6145825732148373 -0.24509190854591895 0.20577547686235761 -0.24373104081790686
8.1 -0.3197700878221535 -0.18216458929908583 0.6585783702625877 0.002320657995559916 0.6342217132876498 0.17116653601394907 0.2862120630610576 -0.11977942060218406
8.2 -0.05155275796391137 -0.28518018721003097 0.5380563011774704 0.39591108788399815 0.4173451995668638 0.516775694462541 0.32413028171749003 0.0658846468326116
8.3 0.13266164419482548 -0.27885388275274875 0.20397253617273775 0.6344000828903898 0.027914485310035098 0.6627710058435349 0.21969868732729123 0.1789300182529497
8.4 0.28293839574589824 -0.12293124284895726 -0.1965694270839898 0.6463092915810452 -0.37069048050217535 0.5618215174922894 0.09104802120390118 0.2793265980842315
8.5 0.272069637003662 0.031125252919661922 -0.5224296336703257 0.42153103612691 -0.6215408616930196 0.24801432965060802 -0.11207399310444317 0.25319025292424374
8.6 0.22286440130108764 0.2311589876137841 -0.6615512081568464 0.044237920970747885 -0.6387386995724496 -0.16265102310561236 -0.21018208575267358 0.19393612042703723
8.7 0.045434400378568815 0.30614474385178814 -0.5618858115306142 -0.3411157307792258 -0.41658318763682134 -0.5025877571078418 -0.3002513487516656 0.004809200299279649
8.8 -0.17500215253542067 0.2791236776182266 -0.2480181321053484 -0.5908327996457123 -0.03476019713951228 -0.6373086423757797 -0.2707953027057858 -0.15054982654734417
8.9 -0.3380993816720594 0.04503818663195064 0.1630557176459009 -0.6138035689180292 0.3561603021736946 -0.5224827409203182 -0.15751728392260755 -0.30607592001739625
9.0 -0.2711334705239198 -0.16855855219981541 0.508024610734788 -0.40334007415079115 0.609466760275282 -0.21351333995253752 0.011281995797072963 -0.30577393565080946
9.1 -0.058760440623346816 -0.325667098461088 0.6523079742250567 -0.030006967334913717 0.6261093126961325 0.17857962746067077 0.17595738992816867 -0.2755861474624023
9.2 0.14551477677067537 -0.26944852834139765 0.5477958045812976 0.3595531150592652 0.40494191215276276 0.5083598215643536 0.2742780428501056 -0.11945135642259097
9.3 0.2814751694561601 -0.15527396067902982 0.24696997923965333 0.6156093509747567 0.051412893228801604 0.6590617526361626 0.31005190335778027 0.013701931437719417
9.4 0.31624178446161605 0.04774307060882156 -0.13230125866998357 0.634830686202352 -0.32102460032746216 0.5614028336151354 0.2523351301019 0.21285317105058793
9.5 0.2716095033516417 0.21093426773001783 -0.46898214590591536 0.42573794725575725 -0.5806166396077024 0.25113921447430776 0.1038272188856716 0.331470269323659
9.6 0.06553087110512942 0.37169607096884905 -0.624942786735892 0.07404820585408875 -0.6101914385695282 -0.13807059785906806 -0.11157445621684048 0.37887169168189716
9.7 -0.18958879172751406 0.3073457775705098 -0.5368481409937212 -0.3039480656022554 -0.3893862103392948 -0.4764867375788983 -0.27711989914596014 0.24925137169158373
9.8 -0.3556954135209782 0.10974363536181056 -0.2511472496241104 -0.5721222932641683 -0.009017133845827419 -0.6199174045889215 -0.3644123926257343 0.08674383879594139
9.9 -0.2839271109268676 -0.14648652725574024 0.13263889029726353 -0.6321411688479756 0.37383058003828895 -0.5233489960263916 -0.29505758807703664 -0.10431751999331279
10.0 -0.12307470865075694 -0.265313470533379 0.468921315894812 -0.4473150407369626 0.6089314964786775 -0.2149791215293194 -0.23174196062515998 -0.19223779231508395
10.1 0.0660883186949586 -0.2567344904133753 0.6524753722917065 -0.06667406449000335 0.6324232308432061 0.15673782746980716 -0.06218387121405247 -0.25423030547082015
10.2 0.18749754522847203 -0.16098645815981505 0.5745438436101653 0.3155633909619694 0.4336514110544209 0.4903604938050278 0.08402216191094644 -0.24609767791288745
10.3 0.3102895913005894 -0.016086890787973346 0.27958350116893393 0.5614713902016151 0.07255274727551028 0.6196661907409804 0.27231198241051224 -0.16494928327093364
10.4 0.24249588504923658 0.20664994274944481 -0.11548805269344714 0.6040821297493696 -0.3124608768007495 0.5246548668111478 0.31501408428388805 0.012469750239350041
10.5 0.05791996279501335 0.36851323124327146 -0.45138414900507645 0.4060996202559246 -0.5619152209103697 0.22451109407869932 0.2733709538482461 0.23249230315630032
10.6 -0.24591869033522648 0.316721751900194 -0.5933625848917852 0.051651154367469976 -0.5751505961680098 -0.14850293862755443 0.08741664037479306 0.3279799591468333
10.7 -0.38015455084171546 0.08332395891911436 -0.505096820049005 -0.32064644275787446 -0.3710750369683232 -0.46281916521193345 -0.03427452986889015 0.3575358980192588
10.8 -0.36070572180511845 -0.17794904033419365 -0.2357022323097867 -0.5672562811007531 -0.03118901506627364 -0.6122466020260037 -0.22424265297510942 0.2372503628872551
10.9 -0.17038845234850405 -0.2986725849421038 0.12499729336955537 -0.6035064931409011 0.32167236167101687 -0.521598850839985 -0.30534663768554127 0.10577447346830868
11.0 -0.004408997518636659 -0.3409764039143358 0.44845265440283966 -0.4325621687436772 0.5652208237777421 -0.24476284842827442 -0.3275896576705958 -0.0968373621184527
11.1 0.19658930479087255 -0.24174837427105972 0.616408295320371 -0.1108926141463652 0.6120814098296649 0.11782667266730465 -0.20767932209058734 -0.23493678090884623
11.2 0.3126040707106134 -0.10757672633345883 0.5490481578837009 0.25217503863505175 0.4125149351355021 0.43609264071832 -0.029052524979328365 -0.35933128819833604
11.3 0.2939246592959372 0.16973067021986582 0.2884857905563665 0.53097848056346 0.07112394911846617 0.5965877778495294 0.14764423258396372 -0.3147773569706297
11.4 0.06561780024702306 0.3247596005125323 -0.07846416889515506 0.596585063580626 -0.30319940758679853 0.5153950936136154 0.2938003216250602 -0.25001151019974693
11.5 -0.20272338284022584 0.2882350976092287 -0.4221877479999314 0.43367472083924963 -0.5587957490952374 0.22574623330657836 0.3265645855525101 -0.04893754279140945
11.6 -0.3251211314742776 0.03331738547937596 -0.6011694334127936 0.08979061651684352 -0.5808895158566392 -0.15360813207504953 0.3402245118117091 0.09353445123716231
11.7 -0.29683585857032213 -0.1542402506942666 -0.5499313720509906 -0.27924732088778703 -0.3900036980785043 -0.472665954878131 0.20013871925083 0.2526578105067122
11.8 -0.1265070525893075 -0.30676058734939304 -0.28822456750841613 -0.5438912159918737 -0.03898074317543135 -0.609165475931061 0.04141052613518183 0.30146988156122206
11.9 0.01329923469202235 -0.3236759951019431 0.08024748252083777 -0.6091496782852557 0.322794847543584 -0.517236569116678 -0.1965351114446697 0.2688520616148181
12.0 0.22908928066701145 -0.2798783417726283 0.4118085599011799 -0.4541273796927239 0.5624389029331042 -0.2355479876886514 -0.29060501203335826 0.10241700096939564
12.1 0.32708164084715585 -0.08313787160111846 0.5929911319463932 -0.11799852012907985 0.5837906795338134 0.13851531043146897 -0.3314277526209016 -0.09740203924407964
12.2 0.3304922947364701 0.15929153055620998 0.5427750672747911 0.2485704310273592 0.3865276257482675 0.4486856478256263 -0.2376371092920218 -0.2538724603253449
12.3 0.09521894441046073 0.3507931349022174 0.2864108801758013 0.5165961525220039 0.04908126044587102 0.5843102034592493 -0.1202044193564858 -0.35017339396728475
12.4 -0.12643724093570058 0.32262437573602354 -0.07160260033260805 0.5874775856511828 -0.30577522668535584 0.5025165302163146 0.08499769407414696 -0.3421798840410594
