!Created with skrf (http://scikit-rf.org).
# GHz S RI R 50.0 
!freq ReS11 ImS11 ReS21 ImS21 ReS12 ImS12 ReS22 ImS22
0.5 -0.0766092015705827 -0.10603324063276973 0.034579972216178985 -0.7941332093905358 -0.3520103150126166 -0.7242397476083974 -0.025237863763647707 0.11888620288413554
0.6 -0.060772820383816435 -0.11327777485894926 -0.1691791978498305 -0.7376704945713529 -0.5912398115506939 -0.46460949227918846 0.06885275089647071 0.13622698216127654
0.7 -0.023043375233566428 -0.08954047554037503 -0.4700302221678092 -0.6364684915425773 -0.7450524150984407 -0.15401598937254407 0.13021594969154068 0.12143191393984065
0.8 -0.020670637246257263 -0.13159014935982508 -0.7530539926200964 -0.3592851821837084 -0.7830934309573114 0.25526127380934927 0.13495109959832763 0.05742867574445831
0.9 0.03890081578808105 -0.13067242079108443 -0.9064661016237938 0.10467659814478399 -0.5758110621706589 0.6694868647686069 0.11159820047507577 -0.040384213263301216
1.0 0.041929823990996686 -0.1432921296705103 -0.7400427623340989 0.6024333335063375 -0.06307978057495402 0.9250016148573177 0.08671330189154942 -0.04276948720445309
1.1 0.10129191075950278 -0.12980159458647614 -0.39864285892613316 0.8825826277797431 0.43183014076021614 0.8277142964613322 0.1036970079540156 -0.09888539045303132
1.2 0.1504727443790256 -0.145816629439712 0.018155525322452803 0.9835327667920963 0.7946977425150512 0.48281480237956764 0.10995779662122362 -0.17273539336979135
1.3 0.10204074272270378 -0.1928475540943638 0.44916196405143005 0.8316058002684942 0.8861100274396294 0.05302081693590054 0.05752969992519483 -0.1489514360184223
1.4 0.04610111947672656 -0.2203847697493545 0.8055996860437933 0.5442877372047609 0.7784464924066464 -0.432764341846672 0.012496543278656014 -0.08408210161065856
1.5 -0.07159126700222085 -0.09481444018944285 0.9157328149933686 0.1056182759386178 0.44487551499017 -0.698684704918267 -0.037370660067342305 -0.07472836328609639
1.6 -0.10610335299172047 -0.043268401419376414 0.8045563778065477 -0.29436302903910916 0.03333265510543567 -0.7581046465374791 -0.064418444526155 -0.031694160274529405
1.7 -0.04508454444329512 0.08058043728953168 0.5222679257151395 -0.5600398803091566 -0.31368163485107114 -0.5931638964530848 -0.12140019194865102 -0.0058921077143653825
1.8 0.01789102714932812 0.11433606411541218 0.24306837654435307 -0.6469019884791007 -0.5138157364555721 -0.33469121251864126 -0.06825957018620424 0.017144711532483838
1.9 0.07427729273732617 0.05451888811798228 -0.026402345339428045 -0.6553610923744435 -0.5568720288987511 -0.04543378967542005 0.03703177227197314 -0.030389026349616037
2.0 0.12795057287436568 0.018915597607318535 -0.3078301218202894 -0.5291650884548923 -0.48652004178761515 0.18747505733063619 0.06107667932091269 -0.06610272166318013
2.1 0.08598131299744836 -0.038690378560225766 -0.4553117116541321 -0.34835176453869293 -0.35176221873917884 0.3467107973746726 -0.00837333095225478 -0.1260936502616987
2.2 0.10010533833941404 -0.0964624656306505 -0.5476842783661621 -0.11889495262944991 -0.1308679870195114 0.4902269666791788 -0.04341474106849415 -0.07646595646882666
2.3 -0.027919652243875555 -0.11586159401937982 -0.5483926018556872 0.14863450649369012 0.11991803401353066 0.4872196063497532 -0.1357522176066373 -0.004898260209028182
2.4 -0.10965427071370457 -0.18908892818558815 -0.32870686949860906 0.4947761322120154 0.4614537537744773 0.3146943661835695 -0.07903716007457418 0.15412456825912188
2.5 0.11807139381802945 -0.07538208806740962 -0.7058220581166663 -0.13617005879224497 -0.7558451134388661 0.1984703081484895 -0.0740628947988886 0.014632977801686785
2.6 -0.22111113419599482 -0.13718023747411795 -0.605080791520601 0.8305376807546333 0.4722474709922721 0.534588740984007 0.008975999095567984 0.11365449971046361
2.7 -0.07265123463071561 0.2430425974665902 0.9259855687543335 0.4763472073246651 0.6755173629066896 -0.6177757621644634 0.09458998894503161 -0.05395881899340373
2.8 0.3524371810603497 -0.03646840367206731 0.9237646481079658 -0.7529553297007131 -0.9442863098342362 -0.2316234882154918 0.007643246928940726 -0.08319628513708366
2.9 -0.19979823591024384 -0.2928245730544822 -0.8871292236627649 -0.8785402264508093 0.13069519063727186 0.9200613538885121 0.026631244437535635 -0.03390584564510442
3.0 -0.2951541558272367 0.32650761889852575 -1.1136138835717173 0.41746704696349524 0.9170444812929638 -0.4461891924600107 -0.13678399004574973 -0.09349268215964175
3.1 0.482392494498678 0.16704119686788718 0.3948511110902642 1.316336089806424 -0.8673015030964539 -0.6696302893041947 -0.15433587899598622 0.2609942387260575
3.2 0.07533208189352374 -0.46835853881593886 1.0376475814847133 -0.042142330379820056 -0.35970318194381756 0.821283087641817 0.23850271234425321 0.15825298931972062
3.3 -0.48395641088464275 0.04550836590591465 0.19388480418464887 -1.287299026337965 1.0352261818261166 0.2997566467443425 0.1915118048355142 -0.2808695621529229
3.4 0.10548929827972636 0.3445970171246946 -1.0445383638659136 -0.3792407823827329 -0.05269936721878454 -1.0087911677802344 -0.2293501379478241 -0.13223330069607847
3.5 0.26570457097556527 -0.20718173786139296 -0.8262539036777762 1.194387416272189 -1.0651788224051346 0.34239819656426457 -0.18551770008448748 0.12160801521106265
3.6 -0.23977044629961164 -0.10391598395167308 0.7632333050056138 0.8854883460949412 0.761384215327635 0.930423445846138 0.06157523973131762 0.2401121851035678
3.7 0.022159672513699002 0.2770602925651949 1.2509387735072448 -0.4487442003300861 0.5848363813094831 -0.8997922539243725 0.2263911958085822 0.07139150479837005
3.8 0.2166094246786674 -0.1077921150349002 -0.18138335107561124 -1.2390118356737898 -1.0315506904089844 -0.5223505359523651 0.21361926912705353 -0.21428193587488628
3.9 -0.10705944376302046 -0.2595630078689166 -1.2916660627421341 -0.17320028429696913 -0.04688380207645313 1.2453201029266259 -0.2347858929550129 -0.15218189941149426
4.0 -0.23071108921749914 0.16461616891958145 -0.39417394473948525 1.204639787502048 1.0891746726045173 -0.13833460969379816 -0.15844106231927751 0.1414562689215134
4.1 0.23804766495496085 0.1568054761177291 1.018142173036207 0.8036153585980182 -0.32908863989746695 -1.236019490551311 0.05262532738545867 0.2662195750424446
4.2 0.006983843391983813 -0.2544197622030444 0.9962728267000148 -0.8839421405331679 -1.006075266430192 0.7563955069753975 0.29682347023731653 0.004260638458834722
4.3 -0.2685439167586053 0.05338599006303404 -0.3545611627202764 -1.1298998968998653 0.8273812632478004 0.829060325258241 0.1727705074581734 -0.2182986296364594
4.4 0.2029938844010137 0.29459880093687657 -1.208363695380192 0.21183560131979778 0.48208037388974556 -1.1995765761790818 -0.2674767684780118 -0.2744266765376533
4.5 0.24822416537852804 -0.276367177030525 -0.21309242881392035 1.1713529152980724 -1.2168752526724043 -0.01726669713916089 -0.25319473510587565 0.20392635399996073
4.6 -0.3133410289789623 -0.15933466609870903 1.1769399542121248 0.45620495839697456 -0.07975569242432166 1.2543538181166387 0.05966881963190783 0.32711380484548974
4.7 -0.08457013164974192 0.3113184538747066 0.7826098488995704 -0.8104182490360066 1.335515008845059 -0.2255732551598743 0.3652188591872279 0.05755494185669073
4.8 0.3538183454684852 -0.08993128924427976 -0.6752287691362732 -1.070032732834898 -0.46804671972528 -1.114273045336707 0.21548854999982972 -0.25936970473253723
4.9 -0.2177731918307361 -0.2833795106229133 -1.0659065990738361 0.32163566538820143 -0.9911212793565001 0.8111114095572303 -0.21776342881681235 -0.3513802155266681
5.0 -0.2479928722893456 0.2931867279108714 -0.05341949337157569 1.2023335281096061 1.0765044442772156 0.7334041289201553 -0.38615011615153777 0.1764140872972961
5.1 0.2929469423610335 0.17139159436838927 1.064670201748462 0.33668043484315086 0.5638833020062954 -1.1730876300558353 -0.011347796526236962 0.32904308220440515
5.2 0.18823629420045326 -0.3556283219867541 0.7114506923176522 -1.0047165686564103 -1.337446018052059 -0.38156830755302373 0.32134535138885173 0.20953857876277293
5.3 -0.4138430560046914 -0.020713522951574265 -0.8292369965472591 -0.7475207716185241 -0.09854875069608313 1.2382804599088129 0.26499904233915234 -0.2817444945477136
5.4 0.08216034671298075 0.4717543548025173 -1.0949665199461955 0.42843478704891264 1.2286677230192047 -0.16214672767862517 -0.15860663269057762 -0.3422678795654497
5.5 0.37841690141698026 -0.21133402584946848 0.2010246113358549 1.0928284710033804 -0.613550682595309 -1.1700605718379886 -0.40389473288736144 0.035158974859557025
5.6 -0.2142742260845945 -0.3799179211189129 1.0762348704786129 0.22967183518679687 -0.887863722366875 0.7882441308798823 -0.07279176136770783 0.33389130920917054
5.7 -0.30946920080652335 0.35880625182951115 0.4549061692457393 -1.034170470091928 0.8960786357362919 0.8069327464744709 0.1959028000188437 0.22684248856277023
5.8 0.4120985285367507 0.19231200746858296 -0.7937517140761992 -0.7061609996918626 0.5577536598402341 -1.0784438188589955 0.37803328025941335 -0.08215772479764782
5.9 0.03906734739879385 -0.4411355239758848 -0.9392420220534189 0.6835243263410107 -1.0954725684122852 -0.3546265880844087 0.05811855064201783 -0.40936151968622553
6.0 -0.3860753787695396 0.06538173951395311 0.2535341966740731 0.9850489747256471 -0.1837930891897241 1.184019139806386 -0.45544378732598295 -0.23173294741353523
6.1 0.18913782212251248 0.34014587509397176 1.056039363624337 0.1928893374520236 1.092867917567362 -0.0466837908499992 -0.413204013163593 0.34871014769196296
6.2 0.27241364221550185 -0.27497930029505735 0.48041018105518674 -0.8990140353410719 -0.12202798246254386 -1.1043681799623526 0.15934860556503966 0.523310685552463
6.3 -0.3397101845369096 -0.13456713104062643 -0.8159149939058463 -0.7138594861246336 -1.0941088866099373 0.4751764324082045 0.5765708407350859 -0.02369668672732426
6.4 -0.012261764962216766 0.3287695400804078 -0.7861302403614825 0.6218100208490339 0.7787049795976292 0.7912341871782534 0.0011522697723094332 -0.5571927498218958
6.5 0.3321573587221206 -0.03663159288818332 0.3102221539255322 1.029941632531865 0.6915880110382647 -0.8488913169257931 -0.46363188067515027 -0.15565352351780068
6.6 -0.13046705299741063 -0.30897029717009705 1.0199126249991424 0.15881962889213366 -0.9417759703136902 -0.6394631513900343 -0.29510138603423824 0.21942319475461222
6.7 -0.29065115738552144 0.21523960706184642 0.6395469543501551 -0.8587401441129936 -0.5313885538142868 0.9106255836920996 -0.06579067196349267 0.320752187227168
6.8 0.3735755214298224 0.20505940757794172 -0.6926176048356952 -0.7343365817603867 1.0796462422122897 0.27197801519657006 0.3598388800601381 0.2383575174125638
6.9 0.09901137915259693 -0.4453349337843099 -0.928483486414124 0.4331159227273363 -0.2142331282391848 -1.0525767940086344 0.2897778572708676 -0.3459151108818269
7.0 -0.48157234042043945 0.03842678760225533 0.20049723975551798 0.9714211992722794 -0.9416520182600633 0.35414785185988307 -0.2531601424338153 -0.36117289520673446
7.1 0.10797063146779955 0.4411875754407154 0.9791604524007121 0.21386523216792802 0.6053578356107121 0.9018458634148446 -0.4010869812998908 0.10308157113395541
7.2 0.37068872750377574 -0.22163119434577566 0.46574359529851594 -0.9153778872259792 0.7147315017043563 -0.6915458901942584 -0.08131306304506625 0.3545080730997729
7.3 -0.27517104363735834 -0.30159192495012865 -0.6776227625023752 -0.6740148341905814 -0.7383057902258916 -0.6365978917296219 0.2521476675218084 0.22466928209919132
7.4 -0.26362050034433115 0.37837447997313456 -0.838665625789892 0.4904435776753467 -0.3971164402832576 0.9335332769243747 0.3133636181574252 -0.18722396216254136
7.5 0.37302513376295 0.19769328476350695 0.1732063351774319 0.9213178696934315 0.9292846506379132 0.16729686958383 -0.06170866849003688 -0.32900051259560165
7.6 0.09102001388907377 -0.3714846286752116 1.0096325053599104 0.11544855711982521 0.061288365032951264 -0.9909404614159892 -0.3197796145674471 -0.1155638342888288
7.7 -0.3191278511300212 0.023928832334300206 0.32768765970962904 -0.8793845531666454 -0.9777545605227116 0.20647306322639353 -0.24496118466744166 0.2560117284403995
7.8 0.1572947126178003 0.2521937673836603 -0.7492184138325138 -0.6525474607739844 0.38511464164696196 0.8119198677478501 0.09295484937214175 0.36472956062086875
7.9 0.19593728005092279 -0.22641583369885399 -0.8066642350435654 0.38871664737281586 0.8022526628570755 -0.485886591341621 0.46824275137640725 0.08320682510303748
8.0 -0.2576518860588401 -0.18119763035563557 0.08751737288020811 0.9279161970787193 -0.5552722137185496 -0.7116971044313516 0.1921469787525834 -0.4963696134512807
8.1 -0.11794713020010891 0.29143853391115476 0.8607034768219071 0.1566603471176799 -0.5754170907252532 0.6187969692018991 -0.4411331279403121 -0.29363840337509184
8.2 0.3191732506510545 0.03401067253874572 0.4249687061160269 -0.7804814726751937 0.7436249488373885 0.44453557626183016 -0.35942323989559716 0.34108085609861405
8.3 -0.11486459301912176 -0.3009997375086199 -0.5849336605195574 -0.6255753029607505 0.19627696076377033 -0.7946745244955692 0.1646742299428805 0.36004443990586027
8.4 -0.2905749682597824 0.18921394296882768 -0.8030986574749872 0.21932516182912573 -0.815343535639187 -0.09390088058370324 0.369359276310536 0.04017912712699499
8.5 0.3021213594421115 0.2626216822600807 0.036778593091343716 0.8268833723030267 0.06947106408917751 0.8105086237438357 0.19719480370991638 -0.28295658545534563
8.6 0.22950214538601416 -0.3354259309500743 0.7223269291906624 0.16940325503658543 0.7099246424142097 -0.17342064367567783 -0.17009735113264132 -0.30679632383522193
8.7 -0.41007839066667756 -0.14592027734979918 0.345361186416649 -0.680470927780316 -0.3160071622005222 -0.6840359245214581 -0.38866431394025397 0.08120160880330582
8.8 -0.039286514497912275 0.3773648820493805 -0.5284770411338565 -0.5631182282690356 -0.5473271265759059 0.5597958878867664 -0.005866533147520361 0.3761108560801123
8.9 0.36666076429158106 -0.10846858341818616 -0.7229141313840795 0.3985402852042186 0.640258147611103 0.3863813791212328 0.34503282000955077 0.1750836690350068
9.0 -0.15343906758385495 -0.28801639521690886 0.11828123988929985 0.7362178344908149 0.30372496563938034 -0.7219449792180551 0.310448496889629 -0.2980245974275433
9.1 -0.29241480322099417 0.21684900439491994 0.7813000397987345 0.18561167161233402 -0.7533077439964444 -0.14019458504860238 -0.1853658257591086 -0.3175766643721425
9.2 0.30350296115253717 0.15733465681592004 0.33244670335694587 -0.7041398289742289 -0.02822938709437631 0.771640855094961 -0.3095039311815577 0.013845527888794514
9.3 0.04830270352619312 -0.29259718787797384 -0.5895601762722441 -0.5081710816015944 0.798607895609842 -0.1267927932778658 -0.07287297039905584 0.2657435231485276
9.4 -0.24105471612086174 0.05986476389672624 -0.6633339560086521 0.4065859858402886 -0.3289946883561983 -0.7081792610296954 0.1459634999100238 0.16228663128790555
9.5 0.1346354460021396 0.2564917177626445 0.147981133901414 0.7724009737815202 -0.6486824185114471 0.42988608363624226 0.3095511104641881 -0.05120394508296964
9.6 0.199199242225379 -0.2720054816256972 0.7388884249236282 0.053722513217361975 0.5388324962881162 0.5285287389433114 0.08932538434790553 -0.3595637408186949
9.7 -0.34376461775867895 -0.07802171673233999 0.2868420191373636 -0.6305717947733624 0.3818059112758623 -0.5923402604289999 -0.30019906327750384 -0.25518395194989874
9.8 -0.0383790984611225 0.3571050460270815 -0.5167609890744714 -0.4364030247782562 -0.6652268110892985 -0.24410580231171586 -0.3171766900382002 0.2879565506413883
9.9 0.3334610009101143 0.06865675517848835 -0.5711570390178482 0.3272534448466191 -0.14584953928666275 0.660870413978776 0.22035935564909737 0.3099254883459576
10.0 0.003057758696221712 -0.3602779423589672 0.16735440864008091 0.6328259297392369 0.644170343149504 0.17657794929617207 0.34094743434111835 0.006238223287127756
10.1 -0.3565387027834327 0.1176705716657289 0.5817236447132577 0.13286347609572238 -0.3100612695357598 -0.6185767337467534 0.05092514048693031 -0.40058099447366197
10.2 0.2260129569581817 0.3115102971804062 0.3181058649814203 -0.5422230832358621 -0.49892673989905745 0.37267285363932035 -0.36037964928935656 -0.157409277057199
10.3 0.2922527316856811 -0.25541879161170805 -0.39246202104804595 -0.45360125057410683 0.43095453049186916 0.46577875751739134 -0.2756166839487253 0.2980746855817111
10.4 -0.23581774778974482 -0.2996465362254783 -0.5530621170867985 0.2605159371684569 0.43167058611691267 -0.5106189894983113 0.24690943624176878 0.3422095230171711
10.5 -0.26718710490293074 0.2055636098123192 0.1039450363112631 0.5905485575490381 -0.5082077501950212 -0.40084502222048485 0.3483448490924681 -0.1110255040365401
10.6 0.2528283471049679 0.21159817223555086 0.6620685224544031 0.07991081102874109 -0.33811293125520026 0.587384463955311 -0.0019265308775053953 -0.3304480518292627
10.7 0.06799419902442186 -0.2615100057183741 0.27107410955791067 -0.5912384690014665 0.6876873668896915 0.1598062376130483 -0.24616495201657404 -0.1284356729847977
10.8 -0.28700319380595923 0.07374788304114308 -0.4028106992324469 -0.5392817623148055 -0.01723011585464709 -0.7026155021312992 -0.2828179425596284 0.12852052478704726
10.9 0.22008293011232724 0.28721023605495594 -0.6508590406329922 0.17933521486243806 -0.7155128236384838 0.19379482510591062 0.015546275080373134 0.4266343088126827
11.0 0.2770784486787054 -0.3006358491513916 -0.10031845014466054 0.6649891264211739 0.3184648298892687 0.6318106484869093 0.43505631844726483 0.08630624994028263
11.1 -0.3971892743585208 -0.2036758555658916 0.6203743722445026 0.25265662794880084 0.5709073414551822 -0.38028133026102273 0.17158109897995913 -0.3671504067434781
11.2 -0.09156271776003655 0.4251272677999154 0.43365813816069304 -0.46086250063679834 -0.5154779572814969 -0.4708226206746445 -0.2512025747636539 -0.23169461021996884
11.3 0.47120946880162146 -0.07581459105713799 -0.3139323201850076 -0.5515292692599079 -0.3208284098115621 0.5795886235115099 -0.2502515581117521 0.07319538370016691
11.4 -0.21636316900093502 -0.4798429244248448 -0.5863227094263324 0.14923008656008815 0.6502974157127954 0.19026032359143447 -0.06711994247788919 0.22386057638321988
11.5 -0.4051080726381735 0.3666325799629698 0.05164913122117153 0.597006414229787 0.004731072126468002 -0.6488006539094657 0.14928581864847826 0.19239811231767928
11.6 0.37343805812101677 0.3235138064184686 0.5359281261751885 0.10580981103013043 -0.5939083153830944 0.06654905450602042 0.2844304307510056 -0.036538076075778574
11.7 0.2633404349060421 -0.41499593414697833 0.24846425059164887 -0.5433718168736956 0.1883818143617578 0.6179984221126261 0.04697216073650206 -0.3342767801756374
11.8 -0.4147718476433738 -0.11629144699639672 -0.4651696585611413 -0.3682806002621858 0.5287903486637443 -0.37952529649407946 -0.3710598802920317 -0.1520726783550847
11.9 -0.012468095407580435 0.38882854133758493 -0.5055514238521502 0.29442378450812196 -0.41847533839007584 -0.4446525501555417 -0.2815066126651017 0.3227590475284422
12.0 0.3307094459452303 -0.07486465136447175 0.06464047711431742 0.5581986515416972 -0.4077234142537939 0.47354204012854567 0.214834614628378 0.405124920819703
12.1 -0.10859053714253988 -0.31107300860189957 0.5370434428897183 0.2066020568496619 0.49807578178157763 0.3587376982479377 0.44312116275913027 -0.03371825556094238
12.2 -0.2171456698188576 0.1701912746367265 0.4082665252336492 -0.3894252995800313 0.3226549208625854 -0.5375185077390948 0.16838698688807743 -0.37887658945983904
12.3 0.21813808642348118 0.13990708230885496 -0.14156432017076515 -0.5384890170694235 -0.5960707789395617 -0.2252042205368004 -0.2297418077850249 -0.269831915635207
12.4 0.016814294685773876 -0.2787934643738595 -0.551936009767961 -0.01042919349627011 -0.16517563777462674 0.5887801478179284 -0.3257473688699893 0.025988268110735922
12.5 -0.3067920094080157 0.09969923352708722 -0.15407591624517855 0.5096993517717189 0.5867984772569818 0.10274347679094978 -0.1583346827860269 0.30763037136531973
