!Created with skrf (http://scikit-rf.org).
# GHz S RI R 50.0 
!freq ReS11 ImS11 ReS21 ImS21 ReS12 ImS12 ReS22 ImS22
0.5 -0.07757322943105678 -0.13819559015535401 0.04036798184217204 -0.7917175782456294 -0.34556904165034746 -0.7249234801853431 -0.014425538543450658 0.14578287425528746
0.6 -0.07520883577875723 -0.15337898778080927 -0.15782158927271786 -0.7353731754887539 -0.5808840659335057 -0.470022142153646 0.0955308211166982 0.16483308839223734
0.7 -0.06453441720757226 -0.13143959679747125 -0.4548524224739295 -0.6410060127752425 -0.7371087445665974 -0.16718635220128752 0.17959310559608907 0.1396850336183257
0.8 -0.09526223965459066 -0.15516248186002027 -0.7414921259963403 -0.3707982788319385 -0.7827548121490087 0.23901802225075908 0.20132209013582367 0.04233862106322357
0.9 -0.057780387267625105 -0.11584614213306543 -0.9036816222986158 0.08234100782277276 -0.5885825123018994 0.6516820382919052 0.17063006329348301 -0.10949181249405605
1.0 -0.049968276738622946 -0.06926767172263279 -0.7458279290051235 0.5844275955505918 -0.07980277111412065 0.9171456184254672 0.09202243285119326 -0.15212988214621304
1.1 0.04302147209604831 -0.005561344003418171 -0.4032932912077068 0.8696400530869919 0.4190825290749758 0.8235655096605732 0.04291530478971505 -0.20892437183284493
1.2 0.14925926965140718 0.009570609293332914 0.023955429866419325 0.9767364960416101 0.7920450759744425 0.4750365793248603 -0.016430058203225704 -0.2409894017624426
1.3 0.17254994934853557 -0.0431197162292546 0.46119084072216054 0.8298102204331764 0.8907394937577872 0.042893042630326506 -0.09653879993849179 -0.14720259506649339
1.4 0.18844343076472586 -0.10857467723378628 0.7902850040784014 0.5561405434360465 0.7819810638999651 -0.41491719613158373 -0.13217234466394906 0.006746750403642538
1.5 0.10192259915061921 -0.05634069730757693 0.9119582023852617 0.11591541912510465 0.4520630486011884 -0.6914723805930428 -0.11565663484901555 0.07971439882549027
1.6 0.06554609503349278 -0.08666003086467844 0.8161702612391369 -0.27273534948098654 0.05543257107668529 -0.7603032616729398 -0.05737716286091139 0.134004315251144
1.7 0.07433009698500884 -0.022494422465703753 0.5365677898784944 -0.569377577088579 -0.3169769187972346 -0.6078619693382681 -0.033898162158171485 0.12166655668110603
1.8 0.08182016066464186 -0.019969683622801406 0.26892068732759006 -0.6642987522072571 -0.5237350873051565 -0.360808800237907 0.05727720422492067 0.08090365583320953
1.9 0.08509165514699332 -0.07718738486288014 0.0030642272997059615 -0.6607516224328284 -0.5583880743189843 -0.07111257790966118 0.1760213431321779 -0.03307586175178138
2.0 0.092063188572901 -0.09605284111579161 -0.291811331218003 -0.5403018266213183 -0.4939031404587859 0.172154749421227 0.1644957290618296 -0.1330549084970317
2.1 0.016026948063797234 -0.1280667290191722 -0.44025932735711 -0.362568407752035 -0.3622926203811712 0.33194973762065133 0.051113276817845756 -0.22124278583286422
2.2 -0.002539768189255524 -0.13789483994037408 -0.5517111333134855 -0.12575445155856346 -0.13754213053011125 0.4934948634248192 -0.050444172735314784 -0.19078209433294013
2.3 -0.09243621485623368 -0.09973112040693462 -0.5331697850417529 0.13789840829867514 0.11042463824696765 0.47364415795614734 -0.17452806471177437 -0.02973835263868561
2.4 -0.1619271794225211 -0.15481247177808605 -0.328252073069112 0.49368618728647207 0.4603632594601425 0.31445039484190856 -0.1439575744120355 0.14324436255873696
2.5 0.0796336769124155 -0.13583577371669567 -0.7052522461579649 -0.13206480798433087 -0.7531906443524102 0.20223154938898272 -0.04350996139287022 -0.04218515878295359
2.6 -0.27528807607675826 -0.10202695324566032 -0.6030647156109364 0.8266056064091427 0.4699603902289345 0.5327040495471885 -0.027386736228328976 0.09405661484559522
2.7 -0.047108371453276676 0.25622968806543833 0.9284010821704641 0.4758067546117109 0.6756653295951933 -0.6199149156052203 0.07813547743054769 -0.040122913513914726
2.8 0.34274773442101103 -0.021050758364073673 0.9266281110357898 -0.7506893815373397 -0.9443277341812525 -0.23467428528179132 -0.003911513544477491 -0.08894788687914641
2.9 -0.11832043803711809 -0.29841524496795535 -0.8776972294435738 -0.8949842018002078 0.11762805851094195 0.9255435539127261 -0.0026977963482406942 0.004160538612336082
3.0 -0.3285068618870301 0.19345230448787526 -1.1427770061184674 0.3935990454091497 0.9439786282183711 -0.4282678793072326 -0.08105923145671415 -0.017808712311315304
3.1 0.3034347489759997 0.3042473027177801 0.3572449203203593 1.3685119881825134 -0.8669849081670354 -0.720513945896949 -0.03178216545135063 0.17412551865108622
3.2 0.26157433160439725 -0.31000936479115526 1.0886582666175035 0.007475109808923739 -0.4174515139148272 0.841973486233422 0.17886209892011792 0.021179719634467513
3.3 -0.3054263161046688 -0.25059972970385874 0.2518886156201484 -1.3329859849095331 1.066488214486913 0.3522638509980303 -0.047547394778729525 -0.24883466184993122
3.4 -0.22683671860637128 0.22460920595081685 -1.062015385730147 -0.41316573229032066 -0.030473344656103102 -1.0352707568654784 -0.21766049015894257 0.1322074044486318
3.5 0.20887258645765053 0.2907248213922464 -0.8572188778070509 1.187115705738272 -1.0805788919441996 0.3231696397050128 0.16368833632310203 0.19082627456946696
3.6 0.21301873638233645 -0.18473424046187925 0.7599903490248224 0.9000548539539399 0.7576977053031282 0.9451356476980521 0.21047658545133202 -0.15775636288634545
3.7 -0.17980091716810467 -0.2640795208564833 1.254565774621888 -0.4516189610287424 0.5856058153877991 -0.9035984179799978 -0.12035744977783373 -0.15928856468302288
3.8 -0.2474810745691678 0.25499617498735194 -0.19189392646854836 -1.2225095438630478 -1.0247003832501425 -0.5056384807182225 -0.18430962082056762 0.05551430765288408
3.9 0.36530477127362637 0.18617459136814418 -1.2360095517928096 -0.1572804027926626 -0.0367826563191398 1.1910617572436335 0.06449294301899135 0.28984391748820393
4.0 0.10901514166340066 -0.36303138236565363 -0.38345475114709215 1.1316071166298323 1.0282528673840472 -0.11977759776014685 0.32152508703516786 -0.04256179203178741
4.1 -0.34952079254739615 -0.20640969518585583 0.9633103276694047 0.7965880749614932 -0.2897631806845999 -1.1979830163254142 -0.018748129002362317 -0.3477763587666844
4.2 -0.1154753643711922 0.44357748529515256 0.9833423177263853 -0.8160044651419455 -0.9886721108771283 0.6933925110795844 -0.33666896069168806 -0.04073033581734157
4.3 0.39617177673652215 0.06821976474726768 -0.2982291535472025 -1.1151512205219287 0.7714183687178295 0.8419128050457012 -0.11283842399092096 0.2901171498289883
4.4 -0.030250434450286252 -0.35579361160593864 -1.232443371889472 0.18588678385632557 0.5187120124537573 -1.2066527748401215 0.2860719852961301 0.08508627667947322
4.5 -0.34271607578513436 0.02092523150026807 -0.20646750247253307 1.1876090979825937 -1.2324030930691465 -0.007787915147759219 0.11412368704182954 -0.27422672536464127
4.6 0.0393246331361685 0.3875083818305498 1.1680107668277502 0.45186587446951754 -0.07808467232661583 1.2445449835090616 -0.2668424334032426 -0.1910985192963572
4.7 0.37921555601087287 -0.009504329858608279 0.7829457300835995 -0.8046230227428126 1.331865112497741 -0.21943583653067364 -0.2107848288970303 0.27237332919873636
4.8 -0.09915485750438348 -0.4416539783419487 -0.6712739453667116 -1.0529517288659285 -0.467039507463449 -1.0974205084213617 0.24125987220397974 0.25813696169866224
4.9 -0.3914857835942182 0.14624679683898742 -1.0571583331560288 0.3280132912369084 -0.9788874826689923 0.814047550389411 0.268471620825889 -0.2501896059984919
5.0 0.17636073981689254 0.435052491604134 -0.028366398743912304 1.1988010723068785 1.0873494137364705 0.7082780305754404 -0.2538604149995178 -0.2434377717616463
5.1 0.3327140702241891 -0.1780020308252774 1.0553606923657595 0.30477126060525284 0.52545469610625 -1.1675687297980961 -0.3100968591621589 0.11755706904081167
5.2 -0.11697833589023716 -0.37066684407784645 0.6862708657131802 -0.998763339556679 -1.3218535972945922 -0.3567994146063623 0.08928789501710471 0.4197029639726016
5.3 -0.3739128952103667 0.17420474932362973 -0.8321125661891982 -0.7340680993332961 -0.08487007446807128 1.2317387381973588 0.37279562325391874 -0.10725541999370529
5.4 0.19967524517228546 0.43509827753427005 -1.0870295796142233 0.43526437427055614 1.222245343621426 -0.17092491560883555 -0.0410190184026396 -0.364428674330289
5.5 0.3608415965327383 -0.23347460724443544 0.1997393671188 1.0921197608073947 -0.6116379387624206 -1.1697489945037844 -0.3995827713164733 0.0011328935685582372
5.6 -0.16615622000964297 -0.41579283217149154 1.076168931483422 0.23321759393068484 -0.8910612831613692 0.7858733978992548 -0.012908980170655076 0.33758371108938334
5.7 -0.4349409098992701 0.2673594730870451 0.4630931408138769 -1.0274125402202594 0.8864953630787652 0.8129271730684251 0.26970797344538805 0.09290708468143492
5.8 0.305007559312561 0.40064227512362954 -0.7858175019875573 -0.7212466124101651 0.5766063871636176 -1.0738643479995669 0.19154315098206753 -0.24811811592127142
5.9 0.3695603947428778 -0.34794213118816814 -0.9507742151260544 0.6844646813742671 -1.102762653902175 -0.3632552524612777 -0.21838176748990518 -0.22112673320685372
6.0 -0.32933428928415276 -0.3133917475443209 0.2598068997603664 0.9920695196137415 -0.18016958028948396 1.1946523728073017 -0.3433626984905833 0.1925172739983549
6.1 -0.27607828522472255 0.33271353079243277 1.0750039314827426 0.1711895564724721 1.1067944531292766 -0.0725255159903782 0.09248439020750945 0.3975667283115276
6.2 0.3414075449268548 0.24498389780815225 0.4684849136482794 -0.9228623345078424 -0.14727738344860405 -1.11860095269472 0.4348728618632845 0.006129929909714611
6.3 0.23035485649409615 -0.40048597293562616 -0.8554907982174702 -0.6861940531101942 -1.085255272852187 0.5274016523732726 0.034122118042000625 -0.48289979602988076
6.4 -0.45360340356508333 -0.13583205275950744 -0.7372420633766725 0.6795302343950977 0.8364569362304122 0.7304389392192425 -0.5249121912681258 -0.0516589929798831
6.5 -0.15763713130420726 0.47821022051905265 0.3899755259948199 0.9604732710012762 0.5876529201547527 -0.8766298753241333 -0.10043309972588796 0.543175151785455
6.6 0.4183976540965962 0.19243678014332144 0.9696377605765443 0.07998278716545758 -0.9289409629223891 -0.5371066996485809 0.5242847904903172 0.15403209675713903
6.7 0.23511729513114263 -0.3979569258575695 0.5558384662283772 -0.8508025027754219 -0.45048305631119084 0.8936285299026037 0.23662458790516092 -0.4236124196638808
6.8 -0.40253307633704155 -0.07949171802022532 -0.7256291844298167 -0.6958905975853041 1.087461070752675 0.21667007415418318 -0.33540785093628367 -0.2997242611531941
6.9 -0.03892193546459676 0.39991880303775446 -0.8992833729952365 0.5119684829949851 -0.301701909440685 -1.0420569409558649 -0.2744020512606411 0.33283930900946984
7.0 0.36373585998409363 -0.013057894028636179 0.31202068797333743 0.956834417056182 -0.9093659526110587 0.463524800886845 0.22195511188215922 0.32147443443314727
7.1 -0.005389717908920695 -0.38822234112455867 0.965766164657997 0.13899117575094497 0.6510567908084139 0.8330993116320649 0.41685887973804664 -0.16454434032836837
7.2 -0.39485675091597555 0.05959964272573275 0.43077333459674727 -0.8931872535193351 0.6757583529851213 -0.682443138702533 -0.0558340333088975 -0.4288045023021797
7.3 0.05276714803811073 0.36298359199685143 -0.6552497988240292 -0.6661993658081893 -0.71480423459997 -0.6301464661533815 -0.43379319713293485 -0.06265068109195031
7.4 0.33795599632072404 -0.027797233185825238 -0.8528231059875936 0.45879208732720805 -0.42864561929563216 0.9159756316806383 -0.04684469787271671 0.46220722466495356
7.5 -0.052958051717060584 -0.3068557791787195 0.14162948770664596 0.9328089388997893 0.9285358010424473 0.2010745388965894 0.41806194010265724 0.10209641049626951
7.6 -0.30499668225813553 0.14303100368041158 0.9951005016419919 0.11065446021267253 0.05709977126294497 -0.9765471977090924 0.22164354247655305 -0.39619230870472216
7.7 0.15008776962616754 0.26444338314985233 0.326250936417636 -0.8456703353652207 -0.9466585928347698 0.18841212507441374 -0.40703795220668393 -0.26081200136109844
7.8 0.280930678515285 -0.19552566572396102 -0.6955355013805774 -0.6415093548428754 0.3446439666592483 0.7832907808882658 -0.33406564127564947 0.34152364896749926
7.9 -0.13946649096417293 -0.3085970941784812 -0.7825558852306465 0.3472271181661268 0.7811444658785593 -0.4402144449960968 0.3252025093215659 0.42280731205314803
8.0 -0.3198918300263608 0.0836763752268278 0.050111688687177275 0.9065412699170579 -0.5135753641360423 -0.7137161864528434 0.41848458400024063 -0.32082003735555537
8.1 0.05840526773693606 0.29395010146020173 0.8558436408702558 0.17877349062960254 -0.5908352299963423 0.603350309003711 -0.2886837378209412 -0.39937986689273985
8.2 0.30348198533315407 -0.0573204161892021 0.43119973330721756 -0.7807438057902559 0.7436275296601151 0.45061719594610183 -0.38824621668295656 0.25143829390983774
8.3 -0.11401682058297169 -0.30019096609141777 -0.5848044088062136 -0.6275039502280458 0.19786309971432378 -0.7955563133322155 0.16327202000442284 0.35484984592503904
8.4 -0.32807982624927556 0.10590230560121841 -0.8065435556888622 0.21956395989493985 -0.8185681509076764 -0.09507016499434641 0.3880868668328368 -0.044162203497591215
8.5 0.15395035085356798 0.36692638652665877 0.03771372974710637 0.8322038978652961 0.07041066654929018 0.8155510332361715 0.04183665461351737 -0.3589948952113612
8.6 0.3900597047699112 -0.1529525855781915 0.7229447578871081 0.16695047711032185 0.709433436097418 -0.17571522591590327 -0.31747212613255393 -0.12866190301745964
8.7 -0.20357830703321977 -0.403236098187971 0.33787208291240034 -0.6669315610462507 -0.3102061518370608 -0.6698193101800398 -0.20045017478014523 0.3266243458886741
8.8 -0.39482602139732 0.16969051017999057 -0.48540825571552526 -0.543623353081079 -0.52950980345764 0.5151657678834506 0.33026189058444055 0.1997509215907342
8.9 0.21050184129908456 0.3907315490951532 -0.6991873944972784 0.351386034223161 0.5921647933322028 0.3890913396734556 0.2502047693184658 -0.24357175292384717
9.0 0.36732343351339913 -0.19387693317207666 0.08886143462142025 0.6825663255543745 0.30015805544293495 -0.6576291545560571 -0.19302671378005673 -0.34507124860094474
9.1 -0.25055586361743937 -0.40570429850030965 0.6906554168933201 0.19115080360645326 -0.666966734038116 -0.14970475360387847 -0.3919289668452107 0.1775001481366551
9.2 -0.34284631528888343 0.2969752515294389 0.31369130788883803 -0.6364580219125971 -0.03779680651804145 0.7025154774774868 0.14911110124180538 0.4065051748166018
9.3 0.2758753768813815 0.362290421711263 -0.5522846614229264 -0.4208788882977796 0.7041656572490941 -0.15573078341611876 0.4161343833008728 -0.20057722418528376
9.4 0.39785115572555513 -0.22391259828086102 -0.5445055663349 0.3632534885146265 -0.2992982673718839 -0.5845406667359674 -0.2404361405034581 -0.3769075718021262
9.5 -0.22675124667174296 -0.41437739251209027 0.10348139323385594 0.6889087105712934 -0.5892649869928314 0.357026972587498 -0.3792845613693038 0.11150004646803824
9.6 -0.3366519683529273 0.2848804830921502 0.6994947073274156 0.08061821753446705 0.49037940097519583 0.5233691382687037 -0.003049029982103643 0.36037117232942867
9.7 0.2928580938687362 0.30529649831133004 0.30017807653830003 -0.6130698659419415 0.39258023054486557 -0.572785059337243 0.31705599747499613 0.07145162463071117
9.8 0.28474085156662987 -0.3234919386966844 -0.5259855433443815 -0.4636143303956715 -0.683984347165516 -0.26783084812227576 0.09968656073035677 -0.2832942560353754
9.9 -0.27460225682060235 -0.3085447453421578 -0.5837230140457149 0.3552415110518468 -0.133215778923763 0.6896723015749439 -0.2977529578311804 -0.11674602760709359
10.0 -0.2753837747698374 0.2721035415882123 0.18300352547867083 0.6552413770902807 0.6719159343629132 0.1742032269497639 -0.24679134404775827 0.26650126188642137
10.1 0.24469576491923625 0.3003706113141982 0.6304822572696983 0.1489697118392012 -0.331730756027759 -0.6740331298119279 0.3695730368223411 0.14715055446273584
10.2 0.3130868231384578 -0.298936597840261 0.35002302010732395 -0.5973181351760193 -0.549213671382129 0.4105233231297576 0.1696521592141039 -0.2935358570156773
10.3 -0.2455917182266526 -0.28768931051871505 -0.4190780411614585 -0.5055032136075001 0.4609584308106988 0.5196411161832579 -0.24053427404765845 -0.21526344853910181
10.4 -0.27482171339214956 0.18583498885586608 -0.6273857517478268 0.24644622757856233 0.5119221767334261 -0.5306503328401828 -0.242689825062471 0.22863802806526332
10.5 0.1517804342608892 0.210699635931545 0.0727711006630604 0.6654769861371547 -0.5371120262069881 -0.4836080821852994 0.13576195289326792 0.2620151213162348
10.6 0.1920725797866038 -0.1753803600981678 0.7214986569483793 0.1141057796921501 -0.3938105411493505 0.629470346565531 0.2533163117531742 -0.0568166719674437
10.7 -0.21891713428665271 -0.1482300965434202 0.29886453093957416 -0.6037733574112635 0.7071208446177765 0.18666798075882884 0.017992002424338262 -0.2736692214059668
10.8 -0.1770251483420637 0.27813566175686893 -0.38958336777434815 -0.553722434724477 0.002820993820455639 -0.7068067367367542 -0.3131456896733721 -0.08975630618485017
10.9 0.3331502431835813 0.19979332089468124 -0.6520194729744175 0.16760517175857037 -0.7167485410030665 0.18080073347432774 -0.13415004332360284 0.3993025814633387
11.0 0.23778279821625958 -0.3436406035477947 -0.10266404242644235 0.6646234411819445 0.3161543644365402 0.6329345930606367 0.4061232544728427 0.1377378754404063
11.1 -0.37937740684047716 -0.22738975117779162 0.6210397834314142 0.25463869625260216 0.5730428818109199 -0.37959809504301545 0.1489232915406384 -0.38070132367350973
11.2 -0.1975820258531176 0.37061999939203083 0.4475915404164131 -0.4543840983096269 -0.5085310039424746 -0.4863288127243226 -0.3391752172445112 -0.17279430964991413
11.3 0.4199478352611116 0.13453857056133264 -0.2897880556322796 -0.5830236392768813 -0.3621124087261466 0.5751845163207105 -0.20582365009147352 0.24149026950235963
11.4 0.08829279997774664 -0.4704691485543848 -0.625562066066121 0.10219444530425 0.6614425605833616 0.257942017258834 0.18059355226815602 0.23031881531590803
11.5 -0.5026881958504577 -0.0018755018416437396 -0.005161940177730992 0.6432128174525009 0.07067802490403569 -0.6929242769667069 0.2153456750622334 -0.11234776256901503
11.6 -0.007805258977600969 0.46828006890768026 0.5567374214647802 0.15498864413160748 -0.6317489475182559 0.02223423900490349 -0.024483196268071265 -0.2015843973592448
11.7 0.48553311170752234 0.04030662894527429 0.3069829394827042 -0.5156563622962052 0.12083296444901023 0.6374095244447492 -0.22647979300705384 0.0010652438849808495
11.8 0.055406835506413135 -0.44549182755698885 -0.399050366431422 -0.4418197094499782 0.5863535265882396 -0.28763366091514053 -0.03291905560704246 0.2069033904239021
11.9 -0.4053702858177159 -0.08593427370570346 -0.5577958066017574 0.21483314745372778 -0.3497858793281794 -0.5166117994449047 0.1861126913093731 0.09903788112736531
12.0 -0.08782354250681064 0.36493996409273677 0.0003868817779148254 0.5648842265962469 -0.4617220542365743 0.426000619067495 0.18143914151147872 -0.1754988030535279
12.1 0.3993872211190484 0.07476982659941026 0.5256809477667438 0.21727467296766997 0.48329344271972907 0.3666571386202484 -0.12470940404132502 -0.24938897112009542
12.2 0.08668114547203219 -0.3778694700531102 0.3669355447828063 -0.4008648225065867 0.2749355247411451 -0.5375079503399599 -0.28997038715846746 0.09500097808710711
12.3 -0.36791783386621746 -0.1318120261923967 -0.1989861673351241 -0.48309018820431837 -0.5825132844340807 -0.13488851216176673 0.07800084162517863 0.322746278872813
12.4 -0.1380358225771059 0.37114282628527073 -0.5274518152674571 0.06917124778512987 -0.0732203418563354 0.5847180161724967 0.3245065942515252 -0.03942498903957519
12.5 0.3695145245771941 0.11541120040886249 -0.06958120549798434 0.5467983271987239 0.6165520004507553 0.004105889797527796 0.02627660193248944 -0.3229277666068485
