!Created with skrf (http://scikit-rf.org).
# GHz S RI R 50.0 
!freq ReS11 ImS11 ReS21 ImS21 ReS12 ImS12 ReS22 ImS22
0.5 -0.06714235730125259 -0.14888045603880992 0.04189042123584022 -0.7912993627558943 -0.34428095769335754 -0.725228097685106 -0.0020066518555912263 0.150686988384454
0.6 -0.0638341549996746 -0.16963429858291862 -0.15554118637400569 -0.7347908129769012 -0.5788819199581862 -0.47084305383988095 0.11330185561978173 0.1618257383361999
0.7 -0.05531076034703644 -0.1574651313704609 -0.4533410163723516 -0.6423247286023367 -0.7369387533601126 -0.16903241933216395 0.197107535168684 0.12176978954433063
0.8 -0.09474197927565946 -0.194941427790581 -0.738697315296317 -0.3769667114101358 -0.7848178275907491 0.23291703768602126 0.203222978566418 0.009010086508886014
0.9 -0.07184730819591022 -0.1646583774044894 -0.9031133604901892 0.07365297985923791 -0.593734823976289 0.6452743594168096 0.1410040524591033 -0.14300866558487096
1.0 -0.08855971669331003 -0.12199349371422108 -0.75245174244619 0.5726089035873081 -0.09236514115961329 0.9140942388477175 0.03504065833828795 -0.1539099555461017
1.1 -0.02025019291836166 -0.05279462678830243 -0.41740835296823803 0.8669160045304086 0.4088986105035356 0.8325776388607787 -0.009289605085234541 -0.16385575695800486
1.2 0.062169876384525584 -0.023571505499018715 0.005551482004976428 0.9911396671520823 0.7945411092329192 0.4967219359618072 -0.02390432087149766 -0.15822677311664557
1.3 0.07013017571421562 -0.05383281983778208 0.45263650222431806 0.8469247136003252 0.9001300819611617 0.05789747718959772 -0.04378297204975699 -0.06844263670654636
1.4 0.07501103495035277 -0.08809815920565342 0.8028776045719377 0.5589434860495403 0.7893372818724352 -0.42449231428011275 -0.026212787312975647 0.03961940950773293
1.5 -0.007602654127059095 -0.0014190561611150813 0.9181420871270305 0.10655617691997367 0.44653588952931594 -0.700328916819332 -0.005732498082662398 0.03116929075742265
1.6 -0.03102643113659141 0.003309211356326062 0.8129555469595287 -0.29561117317679875 0.03516750292317163 -0.7654619492574914 2.0179420088237926e-05 0.023339173733470855
1.7 0.011547536588929328 0.08925177032096744 0.5297341213202179 -0.5655690426165474 -0.31619954074141293 -0.6008313262186201 -0.0649243819645016 0.00013063033468108687
1.8 0.04710006220947435 0.10759869300052369 0.24863176653208496 -0.6498866170514446 -0.5153268050370658 -0.3401720290225868 -0.04053082224991246 0.0046857855446491995
1.9 0.07895178668149887 0.05240623895883867 -0.025762153950913386 -0.654217141226251 -0.5558379370436949 -0.04578778501916399 0.03900201917989798 -0.033154742897784785
2.0 0.11261570404226458 0.03479228664077132 -0.3083909386829101 -0.5288166417878505 -0.4863173262543804 0.18797619163445345 0.06410348659929441 -0.04429217846709739
2.1 0.06568519829314598 0.006635512588326592 -0.45803306580128805 -0.34272053411322345 -0.3473091825702823 0.34969539422806734 0.01889871152323292 -0.08647875377924309
2.2 0.09740548157517875 -0.009057196390004543 -0.5433375842327517 -0.11392940932404107 -0.12623964508727822 0.486520220862468 0.03361777219433607 -0.05435649566607561
2.3 0.007911646212280582 -0.09788442903045792 -0.502049365169246 0.13399985515036714 0.107878985169759 0.4460609357318665 -0.05218877699122809 -0.06414309245768829
2.4 -0.026761184467321977 -0.11842349380705772 -0.330099760862664 0.48589276014031313 0.4531313690062281 0.3159529148165396 -0.027590672425035333 0.04830275128279603
2.5 -0.015244889754383617 0.06904687236162388 -0.6975907324498156 -0.1476704062114231 -0.7531647115237711 0.18308556046389854 0.05472323037353335 0.13837805779163662
2.6 0.003196532197072196 0.08468663704825993 -0.604009556600098 0.8592940717428423 0.49177097117399443 0.5383278263032198 0.13567414198317512 -0.04275434418340339
2.7 0.043821818936055364 -0.10107810624812763 0.9265843610560005 0.45343145137696783 0.6568540143328732 -0.6253067793923706 -0.06718236503168978 -0.27977304548339665
2.8 -0.07328008433196756 -0.16237845087285904 0.8973736635894959 -0.8066822982887706 -0.9666513067659697 -0.18797925818401603 -0.23135965078620074 0.14935263423825498
2.9 -0.10552461783644448 0.18895023782859738 -0.8852009634673099 -0.8513887431766571 0.1417238006904828 0.9030192737748918 0.24584823208481454 0.19477226868378847
3.0 0.1661773495288154 0.20646673820562889 -1.1167601254232897 0.4364200058640284 0.9182464941461779 -0.4626141746108805 0.1631022934411032 -0.2864134182808222
3.1 0.18696502429263703 -0.2621298632662136 0.3818342672273509 1.3457305890052542 -0.8721523179254406 -0.6944487742249956 -0.3747170749921704 -0.06880010838888374
3.2 -0.22153025232396162 -0.20485640291654963 1.0843590261642129 -0.02360383934833129 -0.3918563539714799 0.8504995141808036 -0.027132249840029675 0.29129620489124103
3.3 -0.15313449443991659 0.32303763211484393 0.22383949581384002 -1.3349249234099998 1.0709283843994086 0.3294880558923399 0.2794380154030123 0.05231478440390383
3.4 0.2737466968698363 0.054630569833999026 -1.0803784331441402 -0.40614370493836655 -0.04294313127730634 -1.048031279557092 0.0339678117812216 -0.1921277975505952
3.5 -0.06085321067326711 -0.31300686549653794 -0.8456866256977845 1.2105332073326225 -1.0845728262953582 0.3432105072737865 -0.1875736630575127 -0.131166444814051
3.6 -0.2551331916673768 0.10250870439081126 0.7671387518769224 0.8974744448857409 0.7651447321616783 0.9429531472609992 -0.13227804046333577 0.217943921005877
3.7 0.16034716200290167 0.2683721039213917 1.2560645102722028 -0.4391375544038098 0.5928957300447775 -0.8960924906948526 0.19314812352816618 0.16928466955395854
3.8 0.20603933879799421 -0.13721243751817377 -0.17628624569344492 -1.2408034239562085 -1.0303078053850896 -0.5271282469667017 0.2333174975329115 -0.195206140364021
3.9 -0.03407450638644566 -0.28896651830565107 -1.2822180214846843 -0.17255472703415703 -0.04696403495239114 1.2363285265084334 -0.2659111297875032 -0.09597025836702015
4.0 -0.32076204672734165 0.008145604762335605 -0.398338107780501 1.1790787192871224 1.0706896245063164 -0.12542579506832918 -0.04943488849169967 0.2373637796705995
4.1 -0.02646920900109374 0.3056631863333462 0.9986552072534852 0.8070111903354011 -0.31160829812952734 -1.2270263244343298 0.2660080210354849 0.10552151279807184
4.2 0.31723884068459585 0.01761667012558359 0.9887826680509119 -0.8627053300725739 -0.9974982382400309 0.7368009853473828 0.1164153570307054 -0.3140094061605184
4.3 0.005011275837372299 -0.33553225241837875 -0.3390905055333801 -1.1175107565132507 0.8081995463392734 0.8252923509892898 -0.23477167941463603 -0.16709641295443148
4.4 -0.34865800774149563 0.12831625248301795 -1.2082362709791112 0.21494461769286535 0.47927167058476694 -1.2011360173364285 -0.21803832962707423 0.27112572806235
4.5 0.09901056463062849 0.3390357966274066 -0.20838970360290202 1.1657460619873663 -1.2106851822078712 -0.013506100766955837 0.324671624236512 0.1752126108953567
4.6 0.38519584736928425 -0.027810102975024346 1.1606522781013946 0.45306937275574 -0.08158853054259915 1.2378852401706895 0.22383832426318134 -0.3200284478980735
4.7 0.051254767200589156 -0.3634162438384901 0.7754223575929186 -0.803316753968266 1.3234020710813144 -0.22392204458411016 -0.3225187430734839 -0.23466730325186266
4.8 -0.42065315463285435 -0.047490454702647435 -0.6790565198343828 -1.0465039048485876 -0.4751869150620344 -1.0927098406652922 -0.21046114082456835 0.2980793665025934
4.9 -0.01746593736396924 0.3844146687084916 -1.0552007996857367 0.36026056357464675 -0.9627426502010752 0.8473654329419869 0.27417550942242275 0.20820696578547085
5.0 0.4535462661116144 0.05897200944940683 0.036005190373293666 1.1840700326589386 1.1103754730345339 0.6407218719954965 0.1783249478295905 -0.2843673136972589
5.1 0.005226826986764165 -0.3942569874320057 1.0234208662145248 0.2579632867480955 0.46653704746575975 -1.1383393759009142 -0.28372621562094763 -0.2767929160930091
5.2 -0.377715982437263 -0.07404829042243112 0.6633694077206521 -0.9751887581318213 -1.2876516459347085 -0.34133840442713625 -0.3162648884093742 0.3620007786123043
5.3 -0.10221787327757749 0.376846830393543 -0.8380495102888298 -0.7125088812205521 -0.06179710683199852 1.2223621731028242 0.3267009326715003 0.2370286785245377
5.4 0.414290255086211 0.1874107692233841 -1.0641827012229277 0.4544598285999564 1.203873284434112 -0.19621173543468964 0.25963331975875586 -0.26738727524560985
5.5 0.13315210330525415 -0.3817384855676582 0.19974538601930078 1.0745488014684257 -0.6054554616257314 -1.149680382274738 -0.29849085151516386 -0.2902757668470956
5.6 -0.313861459724092 -0.2263498297809964 1.0768894541773477 0.23170286604457294 -0.8903893488483371 0.7873581555203897 -0.23954214066621668 0.24063618353829572
5.7 -0.25253481861818494 0.3785788419375789 0.4568176551218732 -1.0358973997304672 0.8968917668372128 0.8095096568465574 0.14637682118502096 0.26566180821991286
5.8 0.39445144375051194 0.2598640418220606 -0.7913345623725364 -0.71159753553982 0.5646210540764477 -1.0769978976779933 0.3302909049549894 -0.13876640409065907
5.9 0.24958111606912106 -0.4189504623308594 -0.9454339086678324 0.6854332301717249 -1.10044987075732 -0.3589209724722626 -0.12816794184338356 -0.3197529228022163
6.0 -0.37626575394528267 -0.24066739322391167 0.2598582244292988 0.9897167256087847 -0.17939906808525066 1.1919236621644052 -0.4027346217757105 0.11573395289701133
6.1 -0.23564062361701119 0.3610664157122886 1.0733891218496194 0.17227015265440776 1.105510836864074 -0.07092008430122719 0.04566049516167757 0.42191197256543705
6.2 0.3480089880510417 0.2380860969292623 0.4692682370599191 -0.9224739652408469 -0.1464320899332343 -1.1186087844542905 0.43725482300192364 0.0165858368278456
6.3 0.26003009217506684 -0.38757823067313907 -0.8544321191079274 -0.6869488634828753 -1.085506101414952 0.5259129746608068 0.0011073022649354986 -0.4744614818231671
6.4 -0.43621011355972755 -0.20418690135214082 -0.7402974726761543 0.6792445622479228 0.8363572944486259 0.7340741324119927 -0.5029960232733657 0.017975229617421765
6.5 -0.26365412492921825 0.43895200933301076 0.38839140485441387 0.965873746504155 0.5931897768355557 -0.8780918393538859 0.010872350931449755 0.5242681620126839
6.6 0.34486007896784204 0.3212412697510548 0.9704518861594795 0.08194864625985208 -0.9287667721052614 -0.5396690381814732 0.535918767523985 -0.0005566027675287443
6.7 0.388301065216373 -0.2766237245532253 0.5579465484370985 -0.8474953337284997 -0.4529843435988954 0.8905197648952041 0.06262000930016687 -0.4911299405298405
6.8 -0.2931010527367872 -0.291185816298523 -0.725728902646666 -0.6958627696006556 1.0876158275527257 0.21665285352847097 -0.4500458255727587 -0.07785881940739155
6.9 -0.30107363611111143 0.2789796691946718 -0.9044869794887164 0.5108767377580054 -0.29912985630026906 -1.0470686835647312 0.0002258852987076908 0.4287518991768512
7.0 0.254645713170021 0.2920612880828334 0.31797597814241996 0.9643986110048343 -0.916111161691848 0.47046474423435836 0.35521995254671546 0.03336401412786065
7.1 0.31322689705377144 -0.23605436173670213 0.9822741729711173 0.12286127151369344 0.675845179788934 0.8330521168877565 0.10123820604842144 -0.37389409774487603
7.2 -0.23501242336864234 -0.29650075023911693 0.4114281709631892 -0.9192193422362395 0.6664975634735154 -0.7121442079843915 -0.3347033920864728 -0.1471688476512017
7.3 -0.30851570611555995 0.1683486746966377 -0.6914465935286921 -0.6533451660697804 -0.7505000516944182 -0.6146425205417443 -0.19637642159295318 0.29807230552865416
7.4 0.09688575506638472 0.37226488407942776 -0.8363114893328026 0.49455787199758244 -0.3926047284815532 0.9355782411360779 0.34796545586643624 0.1673659874864861
7.5 0.35876878622213765 -0.022259463871670774 0.16970210469329 0.927494532761961 0.9338348410171518 0.17291917525879064 0.15013621264537755 -0.30965132593139577
7.6 0.0003507913690099232 -0.35281868112069376 1.0130704749233526 0.11727547767167527 0.06297532351309006 -0.9943356601848083 -0.2808443900277831 -0.19395623489278171
7.7 -0.3368443633691905 -0.028547923977965614 0.33214198441857534 -0.8784844818986762 -0.979456013374998 0.20170777477434612 -0.19431885846532584 0.2741581003237877
7.8 -0.023304072166551632 0.3508772712314774 -0.7544843569403413 -0.6618475520462694 0.38610873188194644 0.8213420000475642 0.21396291459693736 0.23164775094506287
7.9 0.3470323838255209 0.054185051590910874 -0.8258874831530696 0.41043360128611683 0.8202083830616603 -0.5103133968052208 0.30486232318957546 -0.19700104968699048
8.0 0.1432247650653605 -0.39238001924110927 0.14306451865284095 0.957910368165315 -0.6159512504671456 -0.7072931166377987 -0.23885218916273881 -0.35232024268808265
8.1 -0.4461685773740889 -0.12030783587888294 0.8862253601545708 0.08363907584763344 -0.5292143182219787 0.6774284499964323 -0.40956443897820727 0.2470668585776746
8.2 -0.12744471978920102 0.4748880349235436 0.3658470859364789 -0.8045669781747654 0.769289545648766 0.38800353335542836 0.2731767892538224 0.44624127553338194
8.3 0.4599805851660831 0.12130405603574439 -0.6242237411483401 -0.6096029422433086 0.16314439569603478 -0.8173551721131268 0.41190504171202513 -0.26023389440571126
8.4 0.16266253966981267 -0.42465243347029047 -0.8257934621880118 0.2861067406168445 -0.8606434054781906 -0.04129138848211682 -0.19077751044654878 -0.4501064022082539
8.5 -0.4098579197953997 -0.12978603835677047 0.10482707807657987 0.8850704030056611 0.1382987191205383 0.8648558999560555 -0.4048546368690794 0.22102637619128473
8.6 -0.0975657758832928 0.36229719629097973 0.8275357274782537 0.12703257672315055 0.7837594667404567 -0.25766302739566027 0.1837865360505734 0.33301939281613707
8.7 0.36100886868037757 0.07806256986758385 0.29284258013736597 -0.8241863509364197 -0.45949271595496505 -0.7312348875461475 0.32990151190611827 -0.1686202110256771
8.8 0.069707243822382 -0.3751380315807736 -0.6178120368137215 -0.5139529339948186 -0.49399236861737805 0.6480279760664994 -0.17560806364661594 -0.3415292334126563
8.9 -0.38421019485069247 -0.11834199598935205 -0.7166529176190616 0.4139961052311072 0.6494338305001931 0.37441332243026687 -0.2991049820329334 0.16832896844891798
9.0 -0.13024534379026714 0.3355609141823711 0.09679633142843158 0.7571910040823389 0.3345440189911663 -0.728446646890812 0.11915179662512648 0.2949418353925636
9.1 0.2950730516972264 0.15128282206017893 0.7977191897740652 0.20966618934407802 -0.7701074402515349 -0.1624639119958639 0.2660220951526251 -0.03615975853631423
9.2 0.159379797059174 -0.2869152067981971 0.34744862116212594 -0.6953311676639388 -0.04554192282131556 0.7694499461697202 0.012966651539390034 -0.28359890937547944
9.3 -0.28821440502279855 -0.1701771718818048 -0.577191448839803 -0.5042112104554817 0.7872099105206267 -0.11953427425263746 -0.27820434826474644 -0.008400300540145707
9.4 -0.14876919981869918 0.27005061737004343 -0.6453277121532512 0.3924757600093916 -0.3168876315093879 -0.6885594344888358 -0.0411152219677493 0.27306139553572695
9.5 0.22592864064193904 0.20781484810826026 0.14325858250338733 0.7614099327038406 -0.6404918532925808 0.4210399662786523 0.3289251307765702 0.0440961342985246
9.6 0.22004054241696833 -0.25047627692514973 0.7432870583719453 0.05585686190605972 0.5407381883113682 0.533192605176182 0.06273967561079627 -0.3529643342771319
9.7 -0.2554393216451589 -0.19886265943635612 0.2950011067196111 -0.6537242045854719 0.39371208269395286 -0.6144713613514711 -0.3445938035336604 -0.1215377443470819
9.8 -0.25789064148737467 0.21031909977124574 -0.5549490989832425 -0.44663087208670904 -0.7065421050817124 -0.2407521368255458 -0.08006805823646135 0.3972721072240185
9.9 0.07236539997429821 0.32043991895844476 -0.5868161797846161 0.35473543701849886 -0.1358332283474096 0.6916664920368986 0.3695911849887436 -0.015375072724141797
10.0 0.36439821677309736 -0.03905844962092787 0.15272480780055075 0.6728695259079257 0.6718302885444346 0.21002943161213544 0.06078364800485906 -0.32307459774288966
10.1 -0.040830475517790114 -0.3421491887416475 0.6553714844043629 0.1834387608819419 -0.3188596091788395 -0.7217420959767659 -0.3086889381421241 -0.010182794810626634
10.2 -0.341542404451972 0.0025168114419123833 0.3786450251134879 -0.6115305404356881 -0.5810015986812185 0.41200359487691823 -0.04179348216146738 0.3033727703915981
10.3 -0.017190521335023454 0.336022990012155 -0.42100911060390467 -0.5103623144691354 0.4629390525828852 0.5249969926849436 0.29771867259574114 0.08238888277953618
10.4 0.37689637122412867 0.08139620629219498 -0.6115369231794501 0.2490175473466785 0.49520741523596046 -0.5255558874863125 0.07869774564505248 -0.30858285812362235
10.5 0.08323483886797049 -0.40554762394588345 0.09709812587609054 0.6128157662962861 -0.5187197342020121 -0.4238953550823253 -0.3163901598972056 -0.10207522269424074
10.6 -0.4336036285691088 -0.0932400078926754 0.6443730637378926 0.08548503995384973 -0.3364917448314199 0.5685959442871967 -0.16145249784968418 0.3370672517865693
10.7 -0.11424349599591915 0.40909558745767655 0.2489486788124383 -0.5385213988325885 0.626721401587371 0.14790101225483182 0.3682669363918742 0.12516050929690642
10.8 0.37844830336171903 0.21984562536559293 -0.360475299349771 -0.4899530063186793 -0.010924700271066267 -0.6348242126171143 0.10393266351457477 -0.34135195446367944
10.9 0.2782672928491282 -0.335615573249882 -0.6048326755618073 0.18055473443334766 -0.6647783351877553 0.19504088383227947 -0.35264809308623707 -0.06088017481742785
11.0 -0.2972987844127947 -0.3168397485361826 -0.03628210822413414 0.6449996607121443 0.36105577560585866 0.5755933670820671 -0.027584745144509253 0.3051793640723487
11.1 -0.3198385364915659 0.2941890838040586 0.6272874688606014 0.16842171051806978 0.5037745944721581 -0.43440839773792506 0.24209465024505508 0.03188242020059492
11.2 0.27317025344382934 0.33081094418919593 0.3646755272104108 -0.4867744537745245 -0.542845306187591 -0.39411983902654557 0.059828458585255546 -0.21560745449041668
11.3 0.3666538534894834 -0.3133954506427016 -0.3440314167398866 -0.5088492301645566 -0.26664559234655927 0.5830652658628587 -0.18899045806610573 -0.11531193818785034
11.4 -0.32208981027154965 -0.41600513687643126 -0.5732364239174903 0.16609471329573847 0.6472113914889323 0.16654322125840282 -0.1501201941172163 0.16963684777928517
11.5 -0.4124950528751493 0.36027570377320983 0.04901299111490848 0.600260825719251 0.007975169903620218 -0.6521025474802439 0.1473593559990934 0.18402051172852216
11.6 0.2873768202556565 0.4130907085216754 0.5404703217403939 0.12054365575294318 -0.6034519888263902 0.052773062454980695 0.21525969512372747 -0.11298506611260262
11.7 0.45486171671967457 -0.245022210645169 0.2749592860146131 -0.5279646052200545 0.1555060692536321 0.6244388736769372 -0.134012536829817 -0.21785169912519578
11.8 -0.2026823298322929 -0.4255291133965234 -0.42926364520104954 -0.41168320420293475 0.5638727379528464 -0.3283550481389677 -0.22417787991354451 0.12793836328172384
11.9 -0.4070119932323387 0.13981565407105828 -0.5402158739548937 0.2517623568734973 -0.38322968396092955 -0.4900885391166988 0.1005038373565642 0.24254667015298567
12.0 0.08962264265749773 0.3727203640899294 0.03476966656213972 0.5645085026489894 -0.4355862154607703 0.453734928638807 0.28451004991155004 -0.08239058470877601
12.1 0.40890941581610263 -0.06560367058388836 0.5339577594653688 0.19345976306599755 0.49833959877657846 0.3445041414100649 -0.04049911327759296 -0.31014818058180077
12.2 -0.0072501694315608 -0.3857959188119017 0.35671544777684056 -0.4119600717500278 0.26072855152559476 -0.5462925585783901 -0.3218907672772037 0.025753506026351118
12.3 -0.378132722062119 -0.07855226149691172 -0.205866625906769 -0.4834773998746848 -0.5873988920702231 -0.12868678809728135 0.034022268403886974 0.33629724141327155
12.4 -0.11970375898201217 0.37468769210680436 -0.5295360348135524 0.0707625267132061 -0.07206018911547828 0.5874053138551747 0.3250190965701393 -0.02333898771840147
12.5 0.36715045963102905 0.13333851063176225 -0.07388966352247914 0.5450266629707359 0.6151560352443611 0.00904777301016224 0.011892703055134837 -0.3213325688281804
