!Created with skrf (http://scikit-rf.org).
# GHz S RI R 50.0 
!freq ReS11 ImS11 ReS21 ImS21 ReS12 ImS12 ReS22 ImS22
0.5 -0.023441997168891417 -0.12781392699445487 0.035144244665826566 -0.7942613686240872 -0.35195816978966576 -0.7244726808965223 0.02733792246928262 0.1161139071349581
0.6 -0.011965777432625493 -0.13843690838767572 -0.17033437659700149 -0.7373441639790465 -0.5922059411374785 -0.4632982806857247 0.10862422031155183 0.10331134316096086
0.7 0.014326488802560664 -0.11780350409481251 -0.4745381335964672 -0.6369142547862172 -0.7486306425675097 -0.15086151423904856 0.13758862915896206 0.07839803360136373
0.8 -0.004175277562787901 -0.1520194014761692 -0.7535601904348779 -0.360938334549854 -0.7843864106154557 0.25518008059143155 0.1216405904377193 0.03909790841222645
0.9 0.03428998277044591 -0.12134923238022578 -0.907180214951242 0.10334444838567514 -0.576606274709543 0.6693623640551757 0.12071779882793755 -0.040588758849792184
1.0 0.03197806979324502 -0.08773102412235112 -0.7392324846610027 0.6017760714776901 -0.062331951658562645 0.9239051427035042 0.12084176108258358 -0.08234705572216885
1.1 0.1026248447264293 -0.025036664237007566 -0.3948546209435992 0.8761116746072721 0.42983438928969026 0.8206112870776192 0.09600332200982326 -0.1947651138822101
1.2 0.1773194659726614 -0.0022526766640201027 0.027776218607022472 0.9738577268131434 0.7923715854158511 0.4695322368724439 0.0040465941022105704 -0.2578386018574073
1.3 0.1643641881861469 -0.03771314753906419 0.46040082895797424 0.8327959554131604 0.8926661405794729 0.043612304752427375 -0.09646888756868009 -0.138386090039207
1.4 0.14464997929584938 -0.0787162641980783 0.7952782394557748 0.5605314537274309 0.7868746819867822 -0.4185442982113409 -0.09326182340914585 0.03950447664068847
1.5 0.02900379764312047 0.001528975984372956 0.9177491393890519 0.10969401703805458 0.44793434192267056 -0.6993643672686599 -0.026214584667899735 0.06068418079519159
1.6 -0.02922951047006393 0.003527077495493219 0.813893957156438 -0.2951832716062803 0.03473376863026616 -0.7660443715788398 0.0003273933512095136 0.025415674455713272
1.7 -0.0191103613401931 0.08962706273899544 0.5268671310328589 -0.5623900773788308 -0.3152255515525388 -0.597070135749128 -0.0939097430171886 -0.007082648271816462
1.8 -0.013068650047088418 0.10862349601346866 0.2417307101392912 -0.6450083775115362 -0.5128986338955134 -0.33232151961057843 -0.0871171207937735 0.040212147107505425
1.9 -0.007054555288461723 0.05493923215981985 -0.03415687784949713 -0.6560347805265204 -0.5582403011982384 -0.03816288454462797 0.03627829959957387 0.05527530090775699
2.0 0.0033982973253351063 0.033827428122229025 -0.311057203360933 -0.5265291194005255 -0.48429441849210203 0.19142714497421756 0.15262088650945277 0.021057693304351893
2.1 -0.0664383354479355 0.00601221414194698 -0.4480108039106878 -0.3308331170158104 -0.33539861951157546 0.34316152835704977 0.15026958605386986 -0.1190708107657141
2.2 -0.04260154058516175 -0.006794445639865179 -0.5166573619100747 -0.11930201015483757 -0.1291485146269175 0.4623239754295114 0.06113228034872882 -0.21594329207147434
2.3 -0.12025140467723841 -0.05351972325428548 -0.5392711062805295 0.16764738608055468 0.13760592342854738 0.47924140634743057 -0.15561670171689776 -0.1308530448021602
2.4 -0.1809852673532953 -0.10030154755183322 -0.3211563906565389 0.49623096814587925 0.46317214273897783 0.3070997647946947 -0.18690186312518847 0.09751458959356049
2.5 0.05617749451278187 -0.1577042975652676 -0.7051568128760423 -0.12631612907565956 -0.7506860210288949 0.2073248717809421 -0.023851608443391372 -0.06279633220072275
2.6 -0.2448010215352954 -0.12893996291706972 -0.6030474849972116 0.82993245820467 0.4718196208985235 0.5332619240788932 -0.005634696089965328 0.10796601472088627
2.7 -0.14195197205236829 0.1557543556361485 0.9174456609558758 0.47998837702292846 0.6762065097758564 -0.6096766139761447 0.12464066382303184 -0.12896047031512672
2.8 0.11914906424426226 0.09702480948561984 0.9337430045473721 -0.7614338795629992 -0.9550569374671309 -0.23355979465905738 -0.19350398251808532 -0.09543176023258386
2.9 0.10224430572925673 0.006315597936776433 -0.8582166585613689 -0.90223217222116 0.1031016638427268 0.9212829654906927 0.060545262544709176 0.23508092359990218
3.0 0.08068347760027092 0.030494092750509762 -1.1597650996918838 0.4023979778615881 0.9576414990696166 -0.43707862493292965 0.22581973720136506 -0.14264619978732707
3.1 0.07655739997464685 -0.21466000870209379 0.36270633021381266 1.3750151582789778 -0.8731105949280591 -0.7227269688550285 -0.30805306605071386 -0.1381566979912304
3.2 -0.22274246338373188 -0.19419003966319165 1.0863174495880912 -0.023240499921109565 -0.3929567726212616 0.851755570446925 -0.032929612345016596 0.28758274525739486
3.3 -0.2493074718236078 0.3261945886195698 0.20564755495288342 -1.316686687573315 1.0580858391650398 0.31271464212016425 0.30936297700338866 -0.022114445896457183
3.4 0.2403531231340422 0.23810751684811973 -1.0571982966268858 -0.3853104064499734 -0.05235976776777356 -1.0214280174304815 -0.11614691430115029 -0.20548024493606862
3.5 0.27651271173457803 -0.1950773511971083 -0.8286375600189081 1.1925593054744519 -1.0658069469670606 0.340186951950852 -0.17517643999177454 0.1286116007371971
3.6 -0.0835152948302009 -0.24736474401812938 0.7588188479994711 0.8857936607927165 0.7568462596009243 0.9307137599576819 0.21310882604575024 0.11791992573232904
3.7 -0.260699625700264 -0.07137083568126523 1.2498888939042703 -0.4584574890861582 0.5796605610675163 -0.9054404532921472 0.024094549844033506 -0.18101723495281116
3.8 -0.20724296641774245 0.27749543367697643 -0.1945445107291817 -1.222187634542734 -1.025885746711735 -0.5035096956016029 -0.18745942986903252 0.020374813494886932
3.9 0.30145846102762863 0.28527047498280694 -1.2457996012698531 -0.16118959219296475 -0.03949782400328959 1.2006134690066537 0.1479620523564299 0.24787442590595635
4.0 0.2896229777720409 -0.18734763141061458 -0.3799895982597195 1.1627182808999912 1.0510908672551948 -0.13420076799811406 0.20552486867802022 -0.22025093034121287
4.1 0.033977243115345133 -0.37904745246816574 0.9915939009429316 0.796076261026669 -0.3123035199151067 -1.2143812531568234 -0.3068123565938606 -0.0982135945725063
4.2 -0.35034150488719923 -0.059955318813900725 0.9974426353340872 -0.8590856335736708 -1.0056885580163009 0.7326747958036383 0.05031097304348202 0.2753773626283425
4.3 -0.20598944509534634 0.2022485179105745 -0.3452506396969829 -1.1324126061696502 0.8202733414605312 0.8356262656256298 0.2570809450707944 -0.10189049404154588
4.4 0.13042813170685816 0.3389136411044789 -1.2062779324206236 0.21532545062871586 0.47814389642390626 -1.1996776368268693 -0.3167603098682321 -0.20845490619884183
4.5 0.3706905349279353 0.02928245689667039 -0.21153213632846368 1.1622870640944052 -1.2076062732158055 -0.017353262587953097 0.0008599401343702275 0.35940846851705127
4.6 0.22932196279361844 -0.29218514986499594 1.1657451128542335 0.4534437301689874 -0.08063607259739432 1.2431917895037634 0.38025860131024064 -0.08314475580135743
4.7 -0.10544494160512265 -0.33893419105067774 0.772963865705415 -0.8063379103007284 1.3232175883144988 -0.22868666305211188 -0.20422194417322265 -0.3528091729817559
4.8 -0.4227947934292072 -0.021086472995922794 -0.6818297521385537 -1.045634958966119 -0.4776338869082335 -1.0925655436305028 -0.22668928635198513 0.2831988744229416
4.9 -0.13376409824053273 0.38195128297628506 -1.054462543835145 0.3546935909572903 -0.9648316834781754 0.8411008165053815 0.3271687794046894 0.10058879397917984
5.0 0.35617036471882657 0.3262294999211461 0.0006499721379052801 1.1942397153310786 1.0994469489623937 0.67912849685141 -0.07874318202975018 -0.32139679483195904
5.1 0.3329479153663057 -0.1893144292218802 1.0555773528422285 0.30341542970207835 0.524359961011792 -1.1678381929250272 -0.31210234111957086 0.10696456876419873
5.2 0.07318758370956123 -0.39394494293268845 0.7039488142081455 -1.0047032307790116 -1.334294421856048 -0.3736893623054175 0.24469970431186583 0.3071604530743346
5.3 -0.36839420047616683 -0.17836758328549826 -0.8270169712254452 -0.7602833552469901 -0.1118292772811588 1.2449014268336842 0.11609924084454665 -0.35658065792219246
5.4 -0.31808316258746633 0.2744252203378138 -1.1211749738635661 0.4066256780574388 1.250329390215294 -0.1327428515511616 -0.40742499681549 0.017057843979854805
5.5 0.13292247405428542 0.36822535354151376 0.17663412390073166 1.1181138127393215 -0.5940937947933197 -1.207237109495709 0.21188126109776975 0.38515628673230956
5.6 0.42270109363876224 0.019679075830013448 1.0604939612658348 0.27138821576123245 -0.9142493018776842 0.7475800137542297 0.3148040696355154 -0.32388095795336996
5.7 0.09034250020738213 -0.3385451486674112 0.5029434136970518 -0.9944971457382509 0.83973938949815 0.84253759893197 -0.43788954529886015 -0.292092017321772
5.8 -0.14446564097450124 -0.212520270795731 -0.7579831584229367 -0.75883207664629 0.6263596609765957 -1.053389630024145 -0.09261985744537161 0.5498160097155294
5.9 -0.32420938262281035 0.005152047946614169 -0.9645035186026969 0.6439941208692924 -1.0784125682500028 -0.3986224724639946 0.533603247268982 -0.06276057919872063
6.0 -0.18111536916224913 0.2798991134220033 0.2339444950892562 0.9919242296044325 -0.2085743156729316 1.1824504208577646 -0.2230415973035453 -0.4951555689462978
6.1 0.22159515129361557 0.32007367037551177 1.0555606244861735 0.19542719296579095 1.0929494895936 -0.043610979578559396 -0.4357395153699956 0.3118197515183508
6.2 0.402852094883444 -0.0841755977488362 0.47067108837118454 -0.9137729769208136 -0.13976863824609184 -1.1119420947424958 0.3676894956333004 0.36457265164803665
6.3 0.06698898792405211 -0.4432985158173168 -0.8568192569225542 -0.6861290021562081 -1.0859147904320443 0.5286006617877542 0.21579456673615707 -0.47844965656644717
6.4 -0.45237575403607055 -0.1708247026776186 -0.7366502637385832 0.6818891790692854 0.8389608023389955 0.7296805273436051 -0.5128475507059916 -0.016205966609237767
6.5 -0.3661515496300008 0.3669180459316461 0.3870579343575933 0.9745308497322657 0.6015755781787506 -0.8818106033075486 0.12016293729358082 0.4697523522745177
6.6 0.10682896095164997 0.46121142146804034 0.9825358429135799 0.09620835689381652 -0.9340668856486377 -0.5594554715857395 0.41655098106058347 -0.2500663643566109
6.7 0.4432483554144146 0.15876209080971912 0.5899527965946684 -0.8477924068400894 -0.48437239657147585 0.8943566449504944 -0.30856088847321417 -0.33976718689060287
6.8 0.2817499751607065 -0.3204079184428867 -0.7080849879539309 -0.720020676314975 1.0854811509309124 0.249614123703436 -0.15307529431992514 0.4172406940896435
6.9 -0.17084044047294725 -0.42443218345303413 -0.9313088529939283 0.44595127153674113 -0.22616916153034325 -1.058576517326422 0.4199623128055741 -0.11439768548301019
7.0 -0.48804542225523234 -0.0025778464729972017 0.1942860533409114 0.9731607694029117 -0.9445328290156381 0.3479102178284684 -0.27854470121630615 -0.3359046033432262
7.1 -0.2464474697225728 0.39991528623180883 0.9588854349049077 0.25066707293385404 0.561548430054901 0.9155384811277233 -0.2451971897262511 0.39990430254100956
7.2 0.28079766952933394 0.39745483523511865 0.5173109917913438 -0.8654453531680608 0.746405905695388 -0.6293438807697631 0.4390532681407106 0.14362863926167121
7.3 0.454358324644329 -0.09066953327994774 -0.5966217011653122 -0.7059145722310357 -0.6579319817663677 -0.6751081328150207 0.060094303802604596 -0.4689655207098647
7.4 0.05134288037538842 -0.4306224312199575 -0.8725865817856061 0.41217865979670076 -0.4745294621352551 0.8889308212490477 -0.4682535228955172 0.15208492031552195
7.5 -0.34573921126442925 -0.18799531714590756 0.1229672859441081 0.9285967157982034 0.9178201195173249 0.21749481050814976 0.26915886314503007 0.3732636759271328
7.6 -0.2731310125118467 0.2679298762459218 0.9864396487016863 0.10832639096818829 0.055609243258352536 -0.9679632475793448 0.32544300719878294 -0.33870255418180334
7.7 0.06843950203205339 0.281080472082716 0.32239273012882985 -0.8557214178685242 -0.9533620254028992 0.1976214683115997 -0.42948704327901716 -0.17562390604655004
7.8 0.2736665647645572 0.0958173098239956 -0.7351700868618848 -0.6453461644030974 0.37578624804004973 0.8011216121947453 -0.07421721323999769 0.411783644053506
7.9 0.27825853634745107 -0.14675576658710449 -0.8133525977624916 0.4025018539261763 0.807923952709661 -0.5006476330164901 0.4305128608177593 -0.030616968770447308
8.0 0.09256605024750539 -0.3983764720882562 0.14450554657459522 0.9551722246271769 -0.6157471706350617 -0.7043487574917097 -0.207092258522235 -0.3853129721588259
8.1 -0.4377939175693085 -0.23376566840417543 0.8900360918190964 0.07161017679199866 -0.5217220223538328 0.6866756213447783 -0.31643595663216567 0.31083314725622546
8.2 -0.37871638845575095 0.3803863283698726 0.3502459245665906 -0.8154943454687562 0.7806494178539923 0.37337024563908017 0.39815716210997876 0.20883594663928892
8.3 0.22388623727897186 0.4693918148229015 -0.6374234079541468 -0.5933995588921552 0.1434370232158099 -0.819649542063313 0.04243842365919957 -0.38730679984260846
8.4 0.480775216909792 0.038310607485873234 -0.8177661293603161 0.2849542693591638 -0.8527305687266865 -0.03947319462322793 -0.34522294012009425 0.04994472137028638
8.5 0.23661268603263783 -0.3682028682717639 0.0766848383651659 0.8604593604891793 0.1095683083357538 0.8418031169292784 0.22349728964954704 0.284427024095938
8.6 -0.12786067913307286 -0.3622642965180257 0.7611573662598979 0.1650960675347701 0.742316345706507 -0.19438576147145867 0.14733846909637496 -0.3242157280013211
8.7 -0.42881477545182334 -0.050266442231707814 0.3503696844590322 -0.6945827138130803 -0.32381358993537995 -0.6966939920110623 -0.38775428251403216 -0.005087512287007113
8.8 -0.2250458178963987 0.341621176727036 -0.4998412486468966 -0.5601898686852383 -0.5458355143072836 0.5304798287311586 0.15236667935181977 0.3439007905495885
8.9 0.2678372724571247 0.35395988973954956 -0.7032716885594589 0.3534166753240301 0.5956741830517974 0.3914775885653433 0.2879308694388594 -0.20054720698810452
9.0 0.42344039882903334 -0.09128079141055251 0.08364644275885709 0.680524397541427 0.30372396536945623 -0.652821522364886 -0.2637297111709056 -0.2647535989518396
9.1 0.04197790762524358 -0.48011542068870866 0.6916743324788378 0.19944060076115214 -0.6683522202560342 -0.15786643261182634 -0.20058449958719618 0.34479663156388235
9.2 -0.4088171903344434 -0.15917127254309046 0.32533571569671593 -0.6372423988851559 -0.048039025581110305 0.7076160961892071 0.3952209040561433 0.08308350369426844
9.3 -0.31738224498482737 0.31601908194902767 -0.5532462843748492 -0.4441269139764459 0.7233320407193087 -0.1408313350759244 -0.08589428935260074 -0.3944330535711663
9.4 0.16659648052638865 0.38920919529624465 -0.5833822130111121 0.37118499706282687 -0.3027197351404536 -0.6243680820752476 -0.3355391559607076 0.2085437321139502
9.5 0.3596576741638684 0.048589901646503175 0.1396004030465522 0.7285062006240864 -0.611878989390281 0.4050961161112299 0.3029138239398796 0.22893945698762785
9.6 0.1856353720351207 -0.2935937417840385 0.7370864385613459 0.050894331575668805 0.5391915798247093 0.5252562651691806 0.10953912444128124 -0.34862220222330687
9.7 -0.17733552122542715 -0.2594352154133274 0.2941444178817258 -0.6690400178227975 0.39522965785752606 -0.6300022166692582 -0.34499556279322435 -0.02786456464937578
9.8 -0.3383256829981097 -0.028682222513883124 -0.5836767396356682 -0.45289204313797127 -0.7371209161568322 -0.2367298411150334 0.14817835542793786 0.3311452234959011
9.9 -0.2892799483804732 0.22646207525745157 -0.5932464133276187 0.3789356557107654 -0.12211922065823333 0.7133896980143297 0.15428916151403316 -0.3012483739504681
10.0 0.0829578081834565 0.3786044534699299 0.16852347856587382 0.6823122393089734 0.688470237601283 0.20109927898520202 -0.338811122379985 -0.08042298540272257
10.1 0.35276283504279016 0.13270959424746992 0.6571037230395386 0.1685871991706674 -0.33305347753307374 -0.7123334651129656 0.21790818776996623 0.28772239589917964
10.2 0.3016533455074384 -0.31747866776858635 0.35461844474910315 -0.5990896070358429 -0.5542601479945259 0.41009233952131274 0.18180019432331687 -0.2763939060776268
10.3 -0.11490139796255268 -0.3774269652289633 -0.4091411829740975 -0.49093548887370686 0.449680111963166 0.5048538107290118 -0.33186835400156106 -0.10059937334878616
10.4 -0.3413346825477533 -0.13217426927740192 -0.5810611292451108 0.25418010116212625 0.4624578328581555 -0.5170380804899896 0.04440042052663582 0.38788672779228545
10.5 -0.30325098439464243 0.18005831160238014 0.1036272910172181 0.5840972520916674 -0.5031143466330279 -0.3961531276129961 0.3278308343183268 -0.15112079177401241
10.6 0.04566526549353151 0.4136589828733316 0.6061544223341943 0.06049224827105561 -0.2979540835312729 0.5427733023967174 -0.27213015229826953 -0.2610026024387792
10.7 0.39729693740924654 0.08909568813026911 0.21201287684824924 -0.5178678416298881 0.5967227824763685 0.11311383673973437 -0.12606725500906554 0.3332608172645677
10.8 0.24043989433258212 -0.3238349231192612 -0.37629605597704585 -0.4419022341211239 -0.05326534890903518 -0.6035341924358181 0.3147583108126996 0.05347657613863545
10.9 -0.20025455121406704 -0.3262558237418764 -0.566348388373564 0.2231595538244341 -0.6228455301239547 0.24196802982871668 -0.029997934279358155 -0.30345066004379795
11.0 -0.3872121118983644 0.05160256344086258 0.029019876159324182 0.6239709475084302 0.4042146611480294 0.5179132903416931 -0.24206915450992175 0.11780577360633589
11.1 -0.09922088051908556 0.3914130701040383 0.6220876744404036 0.11498991540190198 0.4554090181046596 -0.46072032598354534 0.14702264882245464 0.16524911616634808
11.2 0.3217390163087413 0.28184934119808114 0.3470809171635446 -0.4927771369623127 -0.5491353326509771 -0.3747135172004149 0.10027351286416204 -0.19197834277822587
11.3 0.4291070396862539 -0.24247961544227617 -0.338742607399656 -0.522992285506368 -0.2822638492251039 0.5859323349302128 -0.22014598314167708 -0.04882432014686829
11.4 -0.09030063641413365 -0.5156274211497393 -0.6052184471379356 0.13297407229745023 0.6591597621658601 0.21699479760237697 0.03618347666552765 0.23976876348163237
11.5 -0.5037383653842338 -0.02414725366820745 -0.0053483964370628955 0.6464863479326408 0.07130959452961909 -0.696417856692039 0.20656739854810266 -0.1309226351145158
11.6 -0.17888627708558347 0.3709387281088791 0.5711290028624868 0.171646847823955 -0.6524574532012837 0.009555609454211259 -0.19047655946459927 -0.14388880474589502
11.7 0.21641516539142674 0.30098646185648764 0.3380449922719736 -0.5202570840231788 0.09886567925447202 0.6637752895243962 -0.07980987278659762 0.3041926409825059
11.8 0.3041537156751056 -0.0005931472608758305 -0.38210181255894077 -0.46883593465274664 0.609939679116651 -0.2612815597854912 0.34624573191586755 -0.08158252087942222
11.9 0.2043746179848021 -0.2142099376898613 -0.5679001975556953 0.17263274132990936 -0.3090494746259603 -0.5369506647734372 -0.16531494931993582 -0.32450683660126795
12.0 -0.07836339855793605 -0.29035275866366705 -0.05586101063329589 0.5563354119890815 -0.497196705904654 0.37333641750915775 -0.3148027260134753 0.21261063149433784
12.1 -0.28111105611961484 -0.08529334973133518 0.5032160834992196 0.28072226983639514 0.4426985362976664 0.4265141811602112 0.26801034028869986 0.2699297876265401
12.2 -0.1745791444943113 0.21642194175618565 0.4206273324178379 -0.3735041254886111 0.3408064209050371 -0.5239243222501705 0.23007156778725776 -0.317360093241911
12.3 0.09473061194411896 0.24258885604079844 -0.17930605506202238 -0.5320321345302497 -0.6150384826538342 -0.18579338060097791 -0.35148263887532 -0.11128124088022334
12.4 0.25091964319802124 0.01713048217083124 -0.5743931559550965 0.07644334982263822 -0.07817655056016846 0.6370899070840009 -0.024787901121749632 0.3410402773063719
12.5 0.1245936728640528 -0.23504705020127364 -0.04581386173946967 0.5819213716259695 0.6525125083623692 -0.026990951834391392 0.3308298334843973 -0.05198976429131553
