!Created with skrf (http://scikit-rf.org).
# GHz S RI R 50.0 
!freq ReS11 ImS11 ReS21 ImS21 ReS12 ImS12 ReS22 ImS22
0.5 -0.0510572603339944 -0.15309730498683427 0.04210593845421494 -0.7917370534041814 -0.34484441033841784 -0.7254387437864758 0.012884302367467694 0.14814462985487936
0.6 -0.042935453120135324 -0.1762598668331034 -0.15642461639598298 -0.7351869461068862 -0.5803402263832784 -0.4700634100401245 0.12734215099432164 0.14655999156304242
0.7 -0.027830683900952613 -0.17087315142678391 -0.45729820486702155 -0.6429471614604332 -0.7403255335418071 -0.16593690781115983 0.1975783038783652 0.09275814219997487
0.8 -0.061609653960949036 -0.2221688378193563 -0.7409705314693179 -0.37841624291856607 -0.7871884735720017 0.23444925257980465 0.17578277788184632 -0.017220858427205964
0.9 -0.03646720512874027 -0.20609308769473128 -0.9044528777402466 0.07646951396415953 -0.5920658698131764 0.6487618635320697 0.09027395008641097 -0.13569694497226759
1.0 -0.05809073780705869 -0.18398728121183644 -0.7539469340067728 0.5755676044365551 -0.09022246743881918 0.9171345619037617 0.0036168424940236856 -0.09783848224036293
1.1 0.003242756790995463 -0.13378475063479323 -0.4191819929569718 0.8736265710127974 0.4138599333821856 0.8373288295828774 0.015181263077439378 -0.09000120652337243
1.2 0.07586814215549885 -0.12427334196910338 0.00193219156319932 0.9942869630463034 0.7959381637948956 0.50012429176197 0.06182447942984897 -0.12195718130153317
1.3 0.06579272799715773 -0.16744595856973007 0.4457080993956963 0.8414673412402331 0.8923623597667708 0.059157684920036466 0.05132618781218522 -0.10793122934730846
1.4 0.041898998833683615 -0.2131499732726898 0.8052213805794969 0.547838218240834 0.7803000203799837 -0.43241064921222416 0.015739212983731054 -0.07600356263515007
1.5 -0.06322615994715228 -0.12518363370135205 0.9143750891623121 0.11020506693734108 0.44662449818241656 -0.6966839096075121 -0.06502628177851458 -0.08561435486951414
1.6 -0.11026127266989352 -0.11386983719475341 0.8027523261642232 -0.2808152885321143 0.04202988440361378 -0.7520296827558286 -0.12694450752892858 -0.016917722874325143
1.7 -0.08592844136599649 -0.007089229718119039 0.5197659014983301 -0.5523531379215977 -0.30951249622974325 -0.5879985777399215 -0.18134021931127828 0.06632739866783952
1.8 -0.0679415177585374 0.025056615377737134 0.24570430461619544 -0.6479669783539188 -0.5150201782864757 -0.3358861037758118 -0.08130252512336428 0.13239109940568006
1.9 -0.04421933022654033 -0.014327632228081096 -0.021902480755147117 -0.6604568214973819 -0.5607711064000587 -0.04854089115883617 0.10338332733338719 0.09241702310848623
2.0 -0.01847663041542638 -0.022167758907150156 -0.3029613544506194 -0.5339647535561118 -0.48932553631953307 0.18396664872309237 0.19996376069086594 -0.007354118292104499
2.1 -0.07783819881117408 -0.040765163717458204 -0.4454697492375749 -0.34648237345877925 -0.348066527044776 0.339453444855108 0.14765757183670183 -0.15062533112714305
2.2 -0.06987166745700489 -0.028946026929684267 -0.53960623652135 -0.10846152852063093 -0.11994923298405158 0.48369437648400654 0.07376694790514188 -0.22020307603636402
2.3 -0.10202849166490661 -0.012757687272626543 -0.4962978517205208 0.15284182430025423 0.12572889849643806 0.44097777616417977 -0.19448302713764928 -0.12588314414447738
2.4 -0.1637127852282997 -0.07521910604039483 -0.3275693970975447 0.48901801769823444 0.4565781230886728 0.31274508281243035 -0.18148670730826855 0.067368579022452
2.5 -0.020780732571966356 -0.16297709103366118 -0.7017958718594348 -0.12910968176934262 -0.749150996205227 0.20244832924813458 0.044833232292816216 -0.0744696626257502
2.6 -0.33188549165450687 0.0020202751579322512 -0.5983556351189554 0.8266536656480905 0.4699498553659933 0.5298914019901324 -0.06846700501844795 0.03262328108554139
2.7 0.044100589001401715 0.27776077877726674 0.9380997595597121 0.4682195672144167 0.6728994540853878 -0.6303852476699806 0.017391442444557707 -0.00829954979824382
2.8 0.36467306891525264 -0.07820315139349646 0.9218450700299846 -0.7554051673317196 -0.9450886891893618 -0.2284609484319963 0.02713095613892665 -0.058660645288585694
2.9 -0.13354353348602335 -0.30075127642463123 -0.8790865346082274 -0.8933726779948542 0.11959468184991597 0.9253049723133472 0.002069685825555799 -0.002906801820496207
3.0 -0.3259849055239426 0.15237132770421716 -1.1520989016030172 0.38631533510534 0.9524177523301899 -0.42285550290721374 -0.05792009210880561 -0.000847018302445479
3.1 0.19154189331242438 0.3145657063495494 0.3389291946633204 1.3941597961109873 -0.8661761025530195 -0.7461570961107279 0.0012855053126114185 0.10378485386258143
3.2 0.2724062677092433 -0.16378570198330203 1.123509497388428 0.038310611016357916 -0.454943989887229 0.8571270920279838 0.08931086950231837 -0.019617741365805894
3.3 -0.06959626016250883 -0.25355501525668717 0.29304544901343993 -1.3741905620437593 1.095470920415499 0.39072221669969415 -0.12691502895743825 -0.09399489930635622
3.4 -0.22857243981576858 -0.03759021084447924 -1.0939839692713533 -0.44583478212335154 -0.015016508219873007 -1.0738372932891378 -0.028249260675056224 0.19737828073962108
3.5 -0.18262770658772945 0.29623869215185156 -0.8855644445131339 1.2041083516114963 -1.106283385024115 0.32030419632895685 0.2593430918042351 -0.0730723250120376
3.6 0.24476377704109042 0.19217851398650554 0.7697931750389707 0.9214441443328444 0.7670395165963626 0.9676841021026894 -0.12495255401686059 -0.2531119501761725
3.7 0.3159914197180916 -0.281226274856537 1.2681394046590615 -0.4271717574655293 0.6068768674197434 -0.8938704778005979 -0.21688545518260022 0.17533438104555948
3.8 -0.3130003653917782 -0.26543677426886 -0.1536007434189155 -1.242761052532021 -1.0195674463567794 -0.5453686934103062 0.18576046375847047 0.23587758121071165
3.9 -0.22341883617706856 0.23644981108154445 -1.3113395312551654 -0.18658110252373145 -0.057505293062865025 1.2647705535113969 0.18023981943994877 -0.1709193444677089
4.0 0.13506133242670665 0.21474487033625703 -0.3869931806902243 1.2203643879953507 1.098886120713148 -0.1498846888896175 -0.14045882948011448 -0.15989040718208308
4.1 0.2950236619720449 -0.0910592365287496 1.0180973931047328 0.8025846220121564 -0.3294718901710361 -1.2350680373780885 -0.16977133178125797 0.22001604051138876
4.2 -0.09884959080050246 -0.24933379608136474 0.9993198059867189 -0.8813032747624625 -1.0092500262373003 0.7532747844641814 0.2674373642435111 0.09572270425245098
4.3 -0.2738257668267934 0.0028302413103315992 -0.3550530504212107 -1.1308186460735394 0.8279330761854721 0.8299632406151919 0.13343827109086917 -0.2385110775071022
4.4 0.008818636317584562 0.3651688933306699 -1.2038970986682223 0.21846666193469313 0.47445197902462144 -1.1992364039091825 -0.3670034102809247 -0.10160015028298201
4.5 0.3649768740230903 0.05483691701905066 -0.21275795940698644 1.1620359471155959 -1.2073281058651393 -0.01910460661406852 0.02366671029312033 0.3619866670705613
4.6 0.16177573435776274 -0.3269356045878092 1.1672880888159665 0.45580104188457976 -0.08268597888406086 1.2453330174431667 0.38659425264360425 -0.01240597726610083
4.7 -0.23695316785619114 -0.23755358115428266 0.774782288891667 -0.8073016753583039 1.3256161389001744 -0.2283568973700033 -0.036680141053043756 -0.41231052162558834
4.8 -0.28852465773468267 0.2328929103186737 -0.6847638966162016 -1.053545853662391 -0.4786576766347075 -1.1006541542780532 -0.35320784296693747 0.059461404425024636
4.9 0.2046518838916419 0.27213225913151173 -1.0587165836086638 0.37113988902242434 -0.9623726552015027 0.8601133883615347 0.0561147977257709 0.3516504607151113
5.0 0.38425199974004043 -0.16350753425296166 0.05545289137065952 1.179306200976455 1.1166048270171638 0.6204844407467135 0.3339875397421415 -0.12957097898096614
5.1 -0.16032963910750053 -0.3558912238139638 1.0129683450588862 0.2476352015275651 0.45375382465202047 -1.1278216108618286 -0.15257242514938077 -0.3899631797048266
5.2 -0.3827631756567603 0.06973371196425436 0.6616761438522387 -0.9678641446674725 -1.279094703987158 -0.34317444594471375 -0.4180630165362686 0.2486155483437473
5.3 -0.0060067581530117015 0.3826087551794153 -0.8404150118197261 -0.7087287787389178 -0.05721386789410802 1.2220623143387708 0.26248079092131127 0.31151096267740047
5.4 0.4287980404962928 0.13072175964557697 -1.061312718411255 0.4579873854180459 1.2021798703751778 -0.2001685107349241 0.29852051373111116 -0.22793608538778784
5.5 0.12177903356371117 -0.38587187981899396 0.20105359433729425 1.0740710820669497 -0.6057975603354823 -1.1490942781822966 -0.29006212414153776 -0.2997055398922946
5.6 -0.3037996084889717 -0.2566633731918937 1.0777978826741137 0.2304343930110025 -0.8900985014910237 0.7881616352550391 -0.21320359312659842 0.26146248022727286
5.7 -0.3280843005118653 0.351592383017723 0.4578120202193191 -1.0343491392774014 0.894470124787117 0.8105495639712592 0.20270692939528695 0.2085748504167482
5.8 0.33842106659851595 0.36776080115526405 -0.7884801949349978 -0.7183086869701871 0.5730238108765883 -1.0754317780922253 0.23392607859037817 -0.22344941601670568
5.9 0.40283642851093376 -0.32301384123044974 -0.9529792918357012 0.6840379978457193 -1.1036355999852279 -0.36651853858689243 -0.23750272487609528 -0.18722026576308945
6.0 -0.24339611125341495 -0.39715603850001946 0.2572632385841967 0.9967153549335361 -0.18609569005135482 1.1984161932762838 -0.23738335332247482 0.27070871836916427
6.1 -0.4060336940788655 0.17069899094798938 1.079875160459936 0.17547274091296786 1.112813347993115 -0.06859137544087603 0.23931971605585534 0.24058145623653535
6.2 0.10467804436709574 0.4021110146742257 0.4756059736287081 -0.918978475279496 -0.13850865838634288 -1.119503027604677 0.25158954293534486 -0.2343083440050373
6.3 0.47090786552894337 -0.09149489175944686 -0.8336969697033587 -0.6975824956103955 -1.086545321862174 0.4999532466738307 -0.2860492053039874 -0.22796193583107452
6.4 -0.13334782425721126 -0.45829411328182856 -0.7769081850231564 0.6593887968946959 0.8186512872385997 0.7768508960168606 -0.20503775271808222 0.2693204873482546
6.5 -0.48199161239425103 0.04190150905603409 0.35285842874459455 1.0152681604554052 0.6556121010539845 -0.8759351806370431 0.29739594362241556 0.20967879286551788
6.6 -0.11241424506251496 0.43756285701923425 0.9963990253928249 0.1203589185134815 -0.936280705317232 -0.5903944272627506 0.23755654716836916 -0.36183055632355576
6.7 0.383857201754061 0.2502501566070236 0.6023516744981032 -0.8472662090743301 -0.4969842969495726 0.8949397571859319 -0.361128598010063 -0.25885271697535656
6.8 0.27102206876855284 -0.32603809099040865 -0.7075905399594826 -0.7202718346270679 1.0848738629368138 0.25069850384044473 -0.16557577770801613 0.415924578873196
6.9 -0.2845597600815642 -0.3482285446590874 -0.9293258037182838 0.45625190309350694 -0.23662998547715114 -1.0590451689198757 0.4345214646522422 0.01315630706553871
7.0 -0.40933704044168673 0.24284946552222209 0.22345706135429313 0.9789577893917247 -0.945677197029335 0.3777179139216711 -0.06207793692486865 -0.3974713879259854
7.1 0.12950921253001763 0.43611140455413144 0.9819457376926886 0.21548442713810445 0.6054883490581522 0.9053805135972537 -0.39406771838155846 0.0792374567931327
7.2 0.45111397969129086 -0.05785386680191994 0.4916894139655187 -0.9029053922050118 0.7349416125345881 -0.671336109018232 0.07265503650911835 0.374585576638544
7.3 0.046804389694963894 -0.4531443861510286 -0.6369424687185109 -0.7024171844913795 -0.69838671014586 -0.668767065403224 0.3750969164729265 -0.06892576417685535
7.4 -0.5148816933577441 -0.09802214027365358 -0.8677673551730699 0.4368739869727852 -0.455556230990784 0.9062604156945547 -0.14001289690656316 -0.3822088838311045
7.5 -0.2009151171087952 0.5058214788789743 0.13002070241164188 0.9174554460327577 0.9098219399388077 0.2071687872496134 -0.3574024108693329 0.1841008374193894
7.6 0.5213251553060602 0.2908685502000415 0.9519398482791344 0.12841373494775593 0.07758995605837143 -0.9353183685668741 0.2054869486995221 0.39359304453230126
7.7 0.3245468879299615 -0.4477303184241635 0.3424136116608835 -0.793867230480448 -0.9089973549331526 0.14385662796131932 0.3486237607133233 -0.2778318352498696
7.8 -0.4167814963635141 -0.3994039553766974 -0.6497428811550304 -0.6513520114257875 0.30235287117678356 0.775070142137692 -0.27140945742994965 -0.3146924114578693
7.9 -0.43341932136829736 0.25808137526053165 -0.7813620362679483 0.3283189940956304 0.7819168736194313 -0.41961183757898374 -0.30608088889556434 0.3033660065960375
8.0 0.170971327718225 0.4778196887862665 0.04465406654168302 0.9043519898606232 -0.5072589554295758 -0.7151348207262302 0.2869535439797613 0.24849600316719034
8.1 0.3971646600244633 -0.14803890291835306 0.8703603872217623 0.17979623576126702 -0.5996865064055074 0.6140463628143265 0.19392004804737625 -0.2336765588092423
8.2 -0.0877902204136711 -0.36759846450387534 0.4230114452317571 -0.7979197682366329 0.7603515921398278 0.4437561284043101 -0.219970556609127 -0.1804396469183405
8.3 -0.36959102327759497 0.02695202225012595 -0.5962059872495112 -0.6173593288463128 0.1845741552282623 -0.7990201859846774 -0.17227921232086893 0.21516391947163852
8.4 -0.11682611009320427 0.3497835339930728 -0.805003712688445 0.2222665373997511 -0.8179262299337358 -0.09238119052032354 0.22453040857891465 0.20866680418055075
8.5 0.3403123296749724 0.21813849083711162 0.033972770988243396 0.8294570478575962 0.06634101912125455 0.8129545144428777 0.23423919455126666 -0.23667422846486152
8.6 0.3165015583512526 -0.26966491850445823 0.7205028042321717 0.1722824166093288 0.7096417054773455 -0.16966947517327227 -0.24286719006528112 -0.24082952322110462
8.7 -0.25748719395078495 -0.3737885774886457 0.34217991088997857 -0.6646510292222919 -0.3053212774148464 -0.6718732243888714 -0.25220179971985746 0.2900520120027052
8.8 -0.40488874074967224 0.15724323507494128 -0.4844034342870069 -0.5439522344763857 -0.530378401899605 0.5135269685224052 0.33628792734613205 0.1872351177537427
8.9 0.12033556838178058 0.43886144290231216 -0.6969067830352856 0.3467580127206045 0.5874488070355934 0.38955736359188187 0.17853133069558286 -0.28856278101837746
9.0 0.43327341000812786 -0.03778850218513476 0.08097281982324547 0.6808453517076616 0.30665466196036456 -0.6513397518708176 -0.29143429691718176 -0.22439861290696198
9.1 -0.005912340937842429 -0.481850086628121 0.6890848058390495 0.1995959750735621 -0.6656584900310027 -0.15843510951129924 -0.24032469241225726 0.3297402247868486
9.2 -0.451005410382471 -0.01382448096168671 0.3219159744594435 -0.6300371506632382 -0.04780541968282068 0.6997210090874826 0.3655046940100782 0.2157843566141206
9.3 -0.10434001925656632 0.4609366680074864 -0.5439013473210442 -0.42311050825873353 0.7003196519664913 -0.14720519634326373 0.13715825368319695 -0.42977035724688945
9.4 0.4361310479559268 0.19973959208133626 -0.5369977071640735 0.3509991581934552 -0.2876562156031163 -0.57587016779191 -0.4604831737237914 -0.05579899011311899
9.5 0.27592443465196176 -0.3704444190472329 0.10935796180384699 0.6682825644290125 -0.5683826481793534 0.3541732157559013 -0.04049120437704858 0.4379417036441891
9.6 -0.33025224010060683 -0.28712654878909194 0.6720701725471281 0.07089603633777146 0.47514987769063943 0.49781300053838506 0.4145612866270067 0.0319416731300028
9.7 -0.30609087155262354 0.2987150584703644 0.2786436471099401 -0.5783055816559661 0.36642782867348017 -0.5405656265813298 0.034300733959047244 -0.4032082322764985
9.8 0.20079400922945453 0.34051904378306935 -0.48920850452980835 -0.4347922009083186 -0.637303726097981 -0.25278820010207914 -0.40548693785743545 0.062187924508006136
9.9 0.3518847891161637 -0.017901354778342222 -0.5696332527619888 0.324102634982592 -0.14784058247620935 0.6571606711458355 0.1410950078743366 0.34351602776811185
10.0 0.07489162144366102 -0.3556490188023743 0.1655133306290141 0.6385026553176556 0.6480100427763216 0.18147567829911698 0.32795752718833976 -0.05592291447776773
10.1 -0.35080468239149715 -0.10621147319027877 0.6044660681603423 0.14792233063234642 -0.31200585183994295 -0.649927951298714 -0.14784861276162165 -0.33757356121126364
10.2 -0.15282211311554833 0.31364550978017974 0.343277068332819 -0.570548970387598 -0.5332008176650801 0.38796640598486554 -0.320277044046363 0.16518149251222247
10.3 0.2719150433342979 0.2289059281182666 -0.4070370872238989 -0.47606046110462596 0.4465043747477454 0.48952708091920233 0.17056032802353358 0.3237037597049524
10.4 0.354644213200894 -0.199232488451664 -0.5709837305519555 0.25907306760440824 0.45066316282692 -0.5168225457040202 0.29992910933776235 -0.21836767785115188
10.5 -0.14334749580103257 -0.41613651192539275 0.11270657649986349 0.5736838165108467 -0.5027521616484878 -0.3814657812801956 -0.241745473476853 -0.27235536967698604
10.6 -0.46167228243187713 0.09529814917630931 0.610810128859334 0.06685947888627586 -0.3061012516504709 0.5445432767626306 -0.2987558465757346 0.2662291050307488
10.7 0.023641087924109266 0.44232989761731234 0.22953934458669825 -0.5221672724015705 0.6050842513207703 0.1312342155068816 0.3220957334444264 0.2343673006248594
10.8 0.4261410482072293 0.1224965504549293 -0.3630682110734184 -0.47354443131978746 -0.02285552234804347 -0.622669048746219 0.18047739272564478 -0.3092705026190395
10.9 0.22069390257644855 -0.37573019236963034 -0.5962143626511526 0.18942135535525495 -0.6554970222842927 0.20441976288043345 -0.33261682656054326 -0.11147200536153783
11.0 -0.3184700755581525 -0.2974355421291866 -0.028257483744493248 0.6431014011759305 0.36649374432930854 0.5693936276917517 -0.043945575195030895 0.30044937249809667
11.1 -0.33816276435728687 0.283084789197253 0.628193810143483 0.17014754151970368 0.5057858708213706 -0.43404700889674486 0.24959283475407415 0.015151563483077229
11.2 0.22470697870414788 0.3770094499438261 0.3757352537720946 -0.4853184622115125 -0.5409973406534041 -0.4068704179507152 0.009386688847243257 -0.2368804285798748
11.3 0.4361632062249494 -0.2217281198468629 -0.33414094061931826 -0.5274695165724509 -0.28893896606959557 0.5842157209885148 -0.2267659970902729 -0.036311732605031524
11.4 -0.18418957439329792 -0.4962494176549675 -0.5930881795153939 0.1458763146030869 0.6546064557113901 0.19789545291341729 -0.03811192639917789 0.2279408296822275
11.5 -0.5112254127101304 0.18431377483419797 0.024032802398610636 0.622780353065752 0.037545903700809326 -0.6737998993888589 0.2152339961842994 0.0366164832576872
11.6 0.07855945800011226 0.48380622485019 0.5521464822461183 0.14368803530558646 -0.6231426807026353 0.03218534465963455 0.04818584647499865 -0.1961781755100743
11.7 0.4924838927468242 0.031870791906924247 0.3049839462391286 -0.5168729314784926 0.12308718327731337 0.6370154028686164 -0.2251831851392656 -0.005241980941691147
11.8 0.12623508745882142 -0.4217664605249706 -0.39226788968521187 -0.4490449016628681 0.5922016800394314 -0.27781194412391186 0.029798527006372637 0.2062312915495077
11.9 -0.3244245352887377 -0.2286569014462262 -0.5672628006137831 0.1893542657417546 -0.32567603606376977 -0.5325509144423538 0.1986249239279062 -0.024002296626200705
12.0 -0.2822022204894923 0.22394056377898713 -0.04644760019290274 0.5599415791641049 -0.4933610350944349 0.3834604835796968 0.0005053012011406624 -0.22451288389531646
12.1 0.18256324276706237 0.3238168680476588 0.4965635441056292 0.2791439647930277 0.43584713352861415 0.4232294684227562 -0.22364679839102 -0.03171730901015855
12.2 0.35667362847795586 -0.10500673533227603 0.4205780632243778 -0.3404836278584885 0.3504213463193175 -0.48825269247274883 -0.03768270623736554 0.25385910977182347
12.3 -0.020468704572737636 -0.3892968461134291 -0.12182866428668472 -0.5003707247569504 -0.5472823035485423 -0.21871923184980233 0.27777582020536895 0.044691721284830885
12.4 -0.40768359949794464 -0.03035033253787114 -0.504799099701523 -0.01574647122611696 -0.15756643235538015 0.5367703386535664 0.04785152797745827 -0.30363073180619177
12.5 -0.08131448542459568 0.41084735189825156 -0.15361838088303414 0.48291877291952356 0.5569714946772035 0.10618140711690945 -0.3292656595751101 -0.054674969552340975
