!Created with skrf (http://scikit-rf.org).
# GHz S RI R 50.0 
!freq ReS11 ImS11 ReS21 ImS21 ReS12 ImS12 ReS22 ImS22
0.5 -0.07927642745043914 -0.13487061007902104 0.0399801079556875 -0.791896880318562 -0.34610598759000316 -0.7249333614224283 -0.016982612091890777 0.14367675959987133
0.6 -0.07649446120262975 -0.1484695029044545 -0.1588378530665375 -0.7355720815396142 -0.581781935682746 -0.46966061412676324 0.0910955965469292 0.16384912625472922
0.7 -0.06391363692390596 -0.1242935138820728 -0.4560658100834509 -0.6404391918231496 -0.7376182008616305 -0.16609735062343706 0.17361817269920918 0.14186890187872775
0.8 -0.09051603732614394 -0.14587036503147963 -0.7427265914109955 -0.36880580718705014 -0.7823579867923305 0.24124632290359269 0.19682931182740615 0.04965268470957994
0.9 -0.04789510206899086 -0.10687687703208462 -0.9039259644242981 0.0857618860671625 -0.5866371365792825 0.6541849369301764 0.1726403364447776 -0.09786811009408267
1.0 -0.03371246247942899 -0.0636972234410942 -0.7437978079759765 0.588492778619355 -0.07568404886882465 0.9184809356660769 0.10412508614815182 -0.14316652575619906
1.1 0.06410452101011159 -0.006279763369139532 -0.39946017963547925 0.8712961438079523 0.42259787168212193 0.8218153452660232 0.06080508282787226 -0.20961603382006785
1.2 0.17229637524832034 0.00023904871517873392 0.02803172264578695 0.9735388441391775 0.7915880054157978 0.47020922641023816 -0.0006820701241867387 -0.2554175175109997
1.3 0.19323574785558198 -0.06136719743606656 0.4619247310520844 0.8248454803430475 0.887154139706029 0.0399455776282296 -0.09121617598659616 -0.1711755169502077
1.4 0.2033047918491333 -0.13605014774511273 0.7885303018105146 0.5532345062479522 0.7789129623533647 -0.4147339956778589 -0.14333525140873163 -0.020714199940539503
1.5 0.10752806665745196 -0.0890650971877707 0.9100775210381791 0.11751173146687824 0.4526502643933493 -0.6893583844439805 -0.14404776266986022 0.06311000087977295
1.6 0.059812294143728004 -0.12165393979286762 0.8136796375607922 -0.26737956431385534 0.0590232589825213 -0.7564828196300362 -0.09182677140948582 0.13629736740156398
1.7 0.05525093778268137 -0.052982637539074055 0.5342310595797468 -0.566549011849192 -0.3152297656546083 -0.6051243845392282 -0.06006657728178084 0.14556981819411202
1.8 0.05283370379309446 -0.04523075384698082 0.268327400611173 -0.664163264741349 -0.5237385556666048 -0.3603131474139109 0.04791754824937327 0.11590802349043706
1.9 0.05112799001659396 -0.09335563675078336 0.0027599740969789922 -0.6621098978385912 -0.5596134563350512 -0.07110151327572502 0.18850813576201766 0.0033088377361884446
2.0 0.05349315582688707 -0.10171506183970466 -0.29100742842788174 -0.5405410877285138 -0.4939927538611468 0.17139685917584443 0.19658633693745287 -0.11225446951607268
2.1 -0.026276509967725518 -0.12347761696419421 -0.4389592879788222 -0.35996432243356036 -0.3599688725939281 0.33113310222077724 0.09171281767816143 -0.2201271850192832
2.2 -0.04592410997262758 -0.11359855600187302 -0.5487369393405418 -0.12036182006523392 -0.13256602528838174 0.4910434891328576 -0.012284458139516365 -0.22374572214132904
2.3 -0.10858049952268074 -0.0698628195651592 -0.5221247274331179 0.1415920537166084 0.11388370136055612 0.4640337795890787 -0.19312793904633221 -0.06159210982882117
2.4 -0.17488849042926824 -0.11177423660744788 -0.326390595299772 0.49235320412530087 0.45907518124724966 0.3127063795002366 -0.17580587836913794 0.10769605341334738
2.5 0.011976870068115335 -0.16493824903864582 -0.7031614619921897 -0.1284216280469154 -0.7495262185452183 0.20494872128058692 0.014629627978483 -0.07424262900650808
2.6 -0.33019204981447603 -0.004491830767218715 -0.5970215459549277 0.8267219893363417 0.4709065496269095 0.5285632658880924 -0.0676348611518848 0.03728916339425895
2.7 0.08299125923417204 0.27234826675211465 0.9416427713130535 0.4626507806454403 0.6688342228139663 -0.6348932830840786 -0.010115487887863022 -0.002900760963504145
2.8 0.3609519179990375 -0.17797230928589222 0.9087556796032378 -0.7660443840365155 -0.9458747886497813 -0.21568511633559007 0.05741524493133786 0.003999779443103511
2.9 -0.2958696598144195 -0.2408011641866733 -0.8987433040144416 -0.8604249788806368 0.14562380126655364 0.9144077333274602 0.08760493174264776 -0.06439611729391578
3.0 -0.25829300705957925 0.3722308457930541 -1.1030487265785354 0.42562292910331584 0.9073940735659665 -0.452216170652827 -0.14373163904282535 -0.13225020420271485
3.1 0.4837676911040378 0.1601429962522923 0.3939656063875427 1.316393636345007 -0.8668680679812575 -0.669944992924973 -0.1600146067562623 0.2587778694110018
3.2 0.11820527109781008 -0.452786787432324 1.04522626254748 -0.03361774539356456 -0.3690984633123427 0.823994571244247 0.23601280339259215 0.13131065526590371
3.3 -0.46663568255231314 -0.06621745653081756 0.20880155421326113 -1.2964108131964747 1.04123827618858 0.31297170954399184 0.11534167792534084 -0.2998434507422024
3.4 -0.04587921651034189 0.35390038631488 -1.0448743424950844 -0.3882206323310015 -0.04524371198622871 -1.0122817434357996 -0.2689408105640134 -0.025208047612128012
3.5 0.34627255173493227 0.03661360687370638 -0.8351406966235624 1.1855800110282662 -1.066520181335669 0.33282280265626435 -0.036732646239510884 0.22711135275783398
3.6 -0.023612344953803693 -0.2595583175723422 0.7581165107881458 0.8872111577840025 0.7561968832310845 0.9319477337582032 0.2378644697570185 0.06819596121995573
3.7 -0.24781693523535464 0.02766524356710032 1.2486506795256376 -0.4581818906384336 0.5785664353817529 -0.9049789890822433 0.09215043451207029 -0.16074515767646053
3.8 0.048201430150574036 0.26155739711344284 -0.20092270880881283 -1.2235492609537613 -1.0303189020670884 -0.4992900768034444 -0.12058517922268319 -0.17118860682862524
3.9 0.35356197425347646 -0.12845607023876948 -1.2344528786968458 -0.15451338529042458 -0.03436074105892893 1.1894778713865597 -0.18558454423992302 0.24091261345557466
4.0 -0.18619120059077443 -0.3314808637196567 -0.39103844091974266 1.1306792475303276 1.0302868229876785 -0.11348546229399477 0.24254460914308903 0.19306937928773737
4.1 -0.34716640130688303 0.13022894894041118 0.9703562642109287 0.801497479632533 -0.29245778346490975 -1.2060370171441837 0.2503808896668805 -0.21419960412018976
4.2 0.2269381677082102 0.34300378248339364 0.9819029721552812 -0.8319184323178752 -0.9885344733425536 0.7086541602094962 -0.17556016065232613 -0.3066209077646676
4.3 0.27954179297250864 -0.2616816321937729 -0.3163073596011254 -1.1121125480859568 0.785913250463984 0.8309324814863892 -0.2976316441517467 0.0607849400220021
4.4 -0.34365460661952973 -0.13104210802745947 -1.2186844429737236 0.20405876174143747 0.494596770760646 -1.204575553234363 0.015978642905092922 0.3182726191574524
4.5 -0.1099653611129582 0.3267641000465727 -0.2057294926839109 1.1735403126434127 -1.2181819876118838 -0.009359273977094844 0.3506624732256992 -0.015720568417360067
4.6 0.36378405861013485 0.1446534516341333 1.1611312165336958 0.4511797085859486 -0.0796059689974073 1.2378167367480966 0.06860842736289363 -0.3720382073427848
4.7 0.168362743378229 -0.3349063797631019 0.7760661506192276 -0.8033521377007011 1.3242913277731367 -0.223431676070867 -0.37033459094362065 -0.11379275098275951
4.8 -0.4124979308313569 -0.1330634128861179 -0.6783207403964283 -1.0453245040773995 -0.4749280828241009 -1.091360666126267 -0.14293309120968115 0.3362482328120294
4.9 -0.05225148675492885 0.3851296791632651 -1.0544873513630828 0.35889256497377575 -0.9624657509288777 0.845836109677451 0.29491196327741914 0.17785315627704548
5.0 0.45181407657306416 0.04745885886147488 0.03803608526017652 1.1835328289939249 1.1112835257336793 0.6384874237789336 0.18749230774658446 -0.27981802304502695
5.1 -0.04967350389635215 -0.38866403774595776 1.0194696711686544 0.25323141245990566 0.46001151469678037 -1.1347933868489066 -0.24878838921038918 -0.3193304413327011
5.2 -0.3831000734025556 0.03467580835469271 0.6618158206457685 -0.9686840007676071 -1.2805459766733283 -0.3417598502744153 -0.3973094046792297 0.2795501284847313
5.3 0.047962424388016185 0.36987872484943934 -0.8403644547561949 -0.7076316930305226 -0.0556714471917738 1.2212152172343629 0.21678574284927593 0.3475640820780786
5.4 0.41712669735439567 -0.021967550378984017 -1.0568622369868124 0.4613037233236488 1.19799896973136 -0.20527214044339484 0.3755327985336504 -0.09726381320437509
5.5 -0.10646792536686944 -0.3522454361360848 0.19605326067990075 1.06628925541654 -0.5983792502916331 -1.1415736357058865 -0.061455489140070416 -0.436007252671351
5.6 -0.2971265222168752 0.06624542420218588 1.0739723050004792 0.239192627968887 -0.8945796022461656 0.7804626876969972 -0.37477530864771114 -0.03557771492462785
5.7 0.09461074448905875 0.3096289666398823 0.4613646738952182 -1.036394201586176 0.8964678704970619 0.8140430580264103 -0.20852351080256082 0.3479263120074588
5.8 0.3262471677056988 -0.1109630655956465 -0.7896368505431963 -0.7131493095041488 0.5666492008804012 -1.07592326281751 0.40452661403128404 0.2769026790791227
5.9 -0.19677361251304823 -0.31891482680722877 -0.9465771391315719 0.6685637518406812 -1.0877458190873852 -0.3692492447292672 0.3272850689709742 -0.35746105398525957
6.0 -0.2902257679314583 0.20219064842073306 0.24161452387043747 0.9889257821457607 -0.19833479487228334 1.1829253108482938 -0.3512214064524776 -0.40390474811322613
6.1 0.258703198495637 0.2743594188988333 1.0533556751911726 0.2029090929924914 1.0925742739105873 -0.03637734788094141 -0.4781171560342093 0.2597622398003918
6.2 0.25608510447532656 -0.2853843792537295 0.48316754641598425 -0.8977680602816477 -0.11866995203143789 -1.104972139880794 0.13495575412715688 0.5240406876230133
6.3 -0.31726110333454094 -0.19028851659790483 -0.8214203051718296 -0.7124509682565149 -1.0951895844284651 0.4813400314220322 0.5675061969064121 -0.09310932024790056
6.4 -0.1428643457225124 0.321444916865986 -0.772867590044042 0.6352026348301618 0.7920534479001458 0.7748614867266066 -0.1563475153711029 -0.560393480013524
6.5 0.3321314538023383 0.1786734853122294 0.33656920031689536 1.0042905828073605 0.6548887977768268 -0.8565930496774076 -0.5428873007220976 0.08116599759086757
6.6 0.16423872019283992 -0.32295142786477626 1.0040378700942234 0.1309474932363455 -0.9393871539580247 -0.6039818321304374 -0.050986533739177456 0.4470384533259974
6.7 -0.3307327886776559 -0.16902905693278902 0.6112945885844604 -0.8622332745897073 -0.5033574144887948 0.9109369333640711 0.3056442861173558 0.19115407370773035
6.8 -0.027911090583579986 0.4165545438127458 -0.7016351534278259 -0.7253950562438318 1.0826149894492956 0.2581651615361632 0.33843821341074903 -0.24977563188374308
6.9 0.4289383540951696 -0.03457769738678343 -0.9168414449177307 0.45360282911142 -0.238017670189572 -1.0456496983485346 -0.26706599222866884 -0.35240275332942333
7.0 -0.11676084745818789 -0.4162156643298014 0.20939093125752575 0.9590734944355706 -0.9276761817516312 0.36124510776407087 -0.43282884602830124 0.18956580691710606
7.1 -0.43975315309569285 0.06679697469437777 0.9449209934636792 0.23789225071892883 0.5606020233837296 0.8949108867647152 0.1422342289893121 0.49726692658929084
7.2 0.1093605608727356 0.46249523178878044 0.5095461804395583 -0.8595046650247602 0.737156110562737 -0.626837520033374 0.4837410312817045 -0.027589078194576348
7.3 0.44341504546940913 -0.12276757373281993 -0.5968739214995448 -0.7062027528398181 -0.6584407344194946 -0.6752313080538959 0.09311610108893882 -0.4653209925464856
7.4 -0.20072636039187483 -0.43398120043218896 -0.8751126161413046 0.40799275227262444 -0.4788784661976064 0.8873029658006438 -0.4685464625605578 -0.10003594414985872
7.5 -0.4414448495112564 0.24678222176874937 0.1160352941559758 0.91947921206462 0.9069620878323736 0.22033977614104083 -0.14811316830709254 0.42798312283042705
7.6 0.3316892619059002 0.46743684183690243 0.9481607639402203 0.12202989751996128 0.0705489309702835 -0.9313663370006177 0.4107219031482635 0.25614923649158444
7.7 0.4149647504405861 -0.33369015382502887 0.3370259187825757 -0.7907042927229732 -0.9031931888889235 0.14748787804423627 0.26147617409682133 -0.3995253954199119
7.8 -0.3710435489714643 -0.43008485104731775 -0.6486474864233412 -0.646280329366669 0.3041520035657128 0.7701200809383053 -0.3165834824493512 -0.29142316925105294
7.9 -0.4107556826764478 0.2960197361614148 -0.781732387247198 0.3337777661810509 0.7815817637690785 -0.42615667477591884 -0.32326066041458307 0.2693733412211155
8.0 0.31939036954700484 0.42761696449942316 0.06343833904043666 0.9131618166524672 -0.5281262693443229 -0.7122202600976022 0.16939476157144037 0.29547261163713123
8.1 0.29498947428933503 -0.3885843863035779 0.8838305107916777 0.14668522124398134 -0.5791420142702974 0.6430584194248212 0.2450737694701611 -0.02829760473855135
8.2 -0.4153296267596829 -0.22217840321664717 0.387431792058675 -0.8141850664243626 0.7780557444717577 0.40929060320363975 0.08486236377359452 -0.24097379360143198
8.3 -0.19321092459552514 0.4262914511132558 -0.6232563736993417 -0.5977049686120816 0.1537779384675574 -0.810746771569205 -0.2354379280770311 -0.14839632103292258
8.4 0.3857878869217426 0.23589991827381976 -0.8120506242795908 0.26818657317950345 -0.8413780155598921 -0.0523719092337421 -0.2277361830006228 0.20166839028171624
8.5 0.2304669506467177 -0.36475355068683873 0.07864680073580967 0.859240111859006 0.11177528963004008 0.8406360432692366 0.22632054938331744 0.2891610690412524
8.6 -0.2885935862769001 -0.22468454265852283 0.7901204681190057 0.15153858589509445 0.7618066219681624 -0.21948621276579944 0.2933699695834321 -0.22152082306224116
8.7 -0.21250423529539814 0.3181430562873102 0.3311862888236542 -0.7790517521480608 -0.40134073685399835 -0.7334392025994325 -0.21462772716846498 -0.30709482559835716
8.8 0.315179308167414 0.1182784605574102 -0.6100507285840651 -0.5527692752508504 -0.5334693359223424 0.6419436715343438 -0.3171207158955271 0.15429882871636616
8.9 0.08359833986555697 -0.3477569044232179 -0.7314811572257344 0.4279842799435952 0.6674160280956095 0.3797255027453138 0.10441430260202611 0.36573710576271107
9.0 -0.2954211168090495 -0.07243519185768342 0.11856788632519216 0.7616828721829775 0.31757259359960827 -0.7448523432467511 0.3936007709525557 -0.05331845145071782
9.1 -0.11277889383122675 0.30397406516668285 0.8038819190032231 0.19279471042922766 -0.7751829175198525 -0.1459279751259412 -0.005671454555030735 -0.32007400352244325
9.2 0.32224506866986885 0.045880777084406826 0.3383996118965746 -0.7083180146838356 -0.032103488162441705 0.777863997919547 -0.27256915335827253 -0.08672760356734142
9.3 0.01599014749734405 -0.29431944432761353 -0.5891145056668419 -0.5106638896241537 0.8002931016899166 -0.12494540452723253 -0.09936177023672585 0.24636100116682083
9.4 -0.2418148153880141 0.01019065721289252 -0.6650514685267674 0.4074459018940752 -0.32974048295195074 -0.7098991837962676 0.16887859081223794 0.12108691951561362
9.5 0.0010314478206686246 0.280329070167263 0.14742355349440198 0.7840160156081781 -0.6594166653776915 0.4338621270262792 0.23623327173499234 -0.15111901796696392
9.6 0.3015811463905254 -0.08988988999354242 0.7612119189273817 0.054275743654877556 0.5560486877217646 0.5436127634727104 -0.10090151683416154 -0.3145641578980545
9.7 -0.1487777410534264 -0.2646262157949201 0.2986283609501039 -0.6705742116768635 0.399595297880009 -0.6309439787545403 -0.34503665982074083 -0.0038716995151675125
9.8 -0.29548469196855587 0.14403680857034418 -0.5654626036603393 -0.4480470094453169 -0.7175433060368513 -0.23824600526128326 -0.005083879330240895 0.3973098807362949
9.9 0.04669615906336525 0.3252171015527441 -0.5866103300521108 0.3579843100663208 -0.13308669205137005 0.6938576661992251 0.36787743148010554 -0.04276990002597497
10.0 0.35997621994287266 -0.05943286735617589 0.1538802044134461 0.6708262272672693 0.6708403581286505 0.20788503408640896 0.07876875410003292 -0.3203680688373924
10.1 -0.109387265945504 -0.32830019505840097 0.6472297440334963 0.17748580076296494 -0.3187491503923453 -0.7101521391213629 -0.3094407281310502 -0.07699064988551303
10.2 -0.3148836852568862 0.12121866461652964 0.3681339181922907 -0.5985469180299966 -0.5662441212726075 0.40470516691672886 -0.14631233469903157 0.29092051835442445
10.3 0.14144956449750293 0.3113665490918122 -0.41347692648992623 -0.4934529968616361 0.45485308261398444 0.5071280794986507 0.2589912994958685 0.2210899063720754
10.4 0.37713565882573913 -0.13228130120568202 -0.5813849035638426 0.2555351416953605 0.46185459707992205 -0.5187827206755093 0.2551660411296114 -0.25419511099148595
10.5 -0.1601912049669207 -0.4066358879176745 0.11164203064627884 0.5717569337265385 -0.5009052620101835 -0.38001944534086735 -0.22931673985210083 -0.28747598615042397
10.6 -0.43044053097117824 0.19599151321761876 0.5965425562586861 0.06201176908242891 -0.2952565662754595 0.533201108501334 -0.35934889865898084 0.19831127042382135
10.7 0.19771279541730344 0.39651627549437757 0.2151088827993686 -0.5075782848251214 0.5864505597884593 0.11829778852386187 0.20699195346314503 0.34257429786107113
10.8 0.397197619162497 -0.1535380783826143 -0.3656943929264197 -0.44629730357328784 -0.041787751976886986 -0.6006650699233476 0.3155576050521863 -0.1354022575857986
10.9 -0.1525468333770127 -0.35156297720205 -0.5686038449932376 0.21716551068449427 -0.6252597081344426 0.23559461255686887 -0.07339815280047061 -0.30103641625882666
11.0 -0.3150427062462603 0.1763591146189714 0.0395375948116904 0.6197578504281629 0.41096838857747503 0.5076912451858564 -0.2776354111360258 0.0006427820864195892
11.1 0.217474130257136 0.25924991047375356 0.6089047935979305 0.07510280056527195 0.41385637402726166 -0.472694819308 -0.10712526060046859 0.25080628222089
11.2 0.26059994406331827 -0.1932559533729761 0.28935290907335187 -0.49307184156075345 -0.5486498341693957 -0.31085817815023925 0.24287972789918102 0.1972271587542257
11.3 -0.18757678899429475 -0.2971854513113022 -0.37257013588175975 -0.45606890811765816 -0.2038806179122017 0.579677945757535 0.27123963967319387 -0.22959741610796433
11.4 -0.3118730501937186 0.1575248076363657 -0.5526012747575951 0.20033847361449314 0.6469872222410414 0.12162093587851713 -0.19550628681252716 -0.3603585075970604
11.5 0.18187813609080736 0.30155628160006026 0.07132276765427747 0.6012841134054955 -0.01616602817215348 -0.6554257016410187 -0.41717940400947745 0.19075596013444324
11.6 0.2572314572645183 -0.17348797216823333 0.5638805183297965 0.1000293368712098 -0.621291726898702 0.08199789453653913 0.13962567422031305 0.4316545284772716
11.7 -0.19763974287689642 -0.22625215889450925 0.2646209801662432 -0.5733749312904356 0.19662814610216445 0.6539044805370327 0.47494045724193457 -0.08346363389459516
11.8 -0.1743798978350003 0.23429871385215084 -0.46282050801048846 -0.393782466893991 0.5550490531943801 -0.3693370721077977 -0.08518480849885533 -0.5007629936764917
11.9 0.25980183539976387 0.16770603801877343 -0.5341702610660884 0.25426898764649586 -0.3844385246045036 -0.4831595792977026 -0.46952415734656944 -0.009585458644998303
12.0 0.13805058443831364 -0.26583225531752214 0.0010625227074555178 0.5643341240773768 -0.4605339954752167 0.4263067232273739 -0.13143782195004847 0.42771134057300864
12.1 -0.2536177995356571 -0.14598838248263507 0.5140907360363 0.26417002059873745 0.45883817141065086 0.4119073656436437 0.33886854395357463 0.2223828309480362
12.2 -0.09150417317150603 0.2588420462497452 0.4341698715176344 -0.35397422674721624 0.36071767324048054 -0.5072475160805074 0.3050223804954064 -0.22438079600833546
12.3 0.2674624786366859 0.0582822654640065 -0.12009619721698285 -0.5371223371486362 -0.5805624023355631 -0.24419190432138185 -0.11607285532395216 -0.30965647876566416
12.4 -0.014723722142949218 -0.28820843037879185 -0.5478255222029427 -0.01613825432497226 -0.17023984029283729 0.5827690778442375 -0.31895262789913625 -0.014296783464434361
12.5 -0.3047120452341805 0.07229575989493392 -0.15132687448256305 0.5153443576274277 0.592693892240096 0.09892894355133346 -0.1260126222244917 0.31750146453044886
