!Created with skrf (http://scikit-rf.org).
# GHz S RI R 50.0 
!freq ReS11 ImS11 ReS21 ImS21 ReS12 ImS12 ReS22 ImS22
0.5 -0.06025324383263556 -0.15184761406428063 0.04243342903748301 -0.791472461568337 -0.34432056621279417 -0.7254628166008861 0.004722064983440673 0.15058762938414996
0.6 -0.055022306325048044 -0.1743695070694005 -0.15512488964098028 -0.7350748511014598 -0.5790806506952735 -0.47089183232746806 0.12068466015276634 0.15632253094732515
0.7 -0.0444788986985697 -0.16617152915980818 -0.4541131760743321 -0.6432129589239731 -0.7381653037964035 -0.1684165689206365 0.20013267759927222 0.10915870817561028
0.8 -0.08319496605188502 -0.2109726494933149 -0.7389479911313103 -0.3790642726609495 -0.7862302829897165 0.23235504271056243 0.19422130519433714 -0.005603808193235977
0.9 -0.061613462899234604 -0.18783409311829485 -0.903797608516232 0.07262892977422919 -0.5943052941952527 0.6454626238111578 0.11796031125764443 -0.14650752012562518
1.0 -0.08432862175621997 -0.15427286738525914 -0.7546279210150041 0.5713160620390051 -0.09390922224789579 0.9148225008578011 0.013085472478039236 -0.1340574223179982
1.1 -0.023452740535549053 -0.09249340707008193 -0.42134661666879847 0.8688927984624882 0.4086759978172297 0.8363634187634912 -0.010524648077802382 -0.1275806410077049
1.2 0.04968520290742484 -0.07010001709902883 -0.00027140333451510716 0.9955660413582906 0.7956622158637001 0.5026697645989219 0.007714513355093158 -0.12699681877241834
1.3 0.04623355265592823 -0.10339121714349503 0.4474933422339947 0.8489012279208106 0.8991023079795744 0.061739465749637 0.006212194913925051 -0.06729781833444498
1.4 0.03480895143348617 -0.1366140017178116 0.8067810482578428 0.5552650620597355 0.7872814857711562 -0.430323219425744 0.016935358121874064 -0.002413653197450538
1.5 -0.06009691732350686 -0.04327455093572579 0.9181346250338825 0.10638882305367972 0.4454287844147404 -0.7011211794738867 -0.005571962737787736 -0.033635397655048194
1.6 -0.09478655490355829 -0.027086589221835006 0.8071393308973382 -0.2943132574747228 0.03292095359757807 -0.7602350781306874 -0.046637580170338026 -0.025121285170541355
1.7 -0.055653441663752655 0.07245155737651397 0.5230431054873992 -0.5575808623262415 -0.31254692377848287 -0.5923926382160547 -0.13271909437416082 -0.0006862660212432004
1.8 -0.024089389747912967 0.10307296282878087 0.24153331977465503 -0.6443325858608333 -0.5124500172479132 -0.33191135429739776 -0.09269166427928177 0.05024462683613137
1.9 0.007238268518166302 0.06146014772685382 -0.033804299642016575 -0.6548665986557412 -0.5573078926707862 -0.038236634086293936 0.029240013701637344 0.04218569429502875
2.0 0.03925955877038641 0.05248955579943336 -0.31155074715903003 -0.5272515573972367 -0.4849352196775135 0.19173791889324057 0.11158211728689135 0.014809687614086148
2.1 -0.010035569501009844 0.03642112311203814 -0.4570080228183852 -0.3357248903405309 -0.34049849704594065 0.35031855431958564 0.09699979095277636 -0.07150707630425132
2.2 0.01977901344671423 0.03822651036540442 -0.5359274176966723 -0.10582236341292724 -0.11771448281491646 0.48039375136466406 0.10706090578986092 -0.11275450285760379
2.3 0.0022204199131245833 -0.024310971704065886 -0.4892188992534899 0.13568506421855886 0.11046013296218356 0.4344818874714605 -0.0946881440136175 -0.13902028560374874
2.4 -0.06591335788214826 -0.046940997300714486 -0.3258169649294353 0.4823059788995474 0.45014542553063863 0.3112620515849153 -0.10341977903885567 -0.005126082672664074
2.5 -0.11316251429772407 -0.02734398514885315 -0.6958007132385093 -0.13917426665023577 -0.7478355092147525 0.18997291841130953 0.13977510389831937 0.0438959559143942
2.6 -0.1743104115255744 0.2033128591726576 -0.593738410572254 0.8495959826425679 0.48643954747865237 0.5301016841563437 0.014101109308714001 -0.1014385045614996
2.7 0.22584972509815582 0.050280895042698684 0.9485830445776682 0.43963894123682046 0.6525520546470487 -0.647674504705565 -0.16382276865807668 -0.12492692901936696
2.8 0.13906615227936994 -0.35394926392414017 0.8819055185816148 -0.8046543999054901 -0.9576958107844636 -0.17837769278145646 -0.018782885506439247 0.18786198200733098
2.9 -0.3762141491871842 0.022196369181542403 -0.9106815287580279 -0.8218040737496525 0.17054019259506764 0.897064845653297 0.2503096900897485 -0.021517759910586923
3.0 -0.03643120634583802 0.45454596359115995 -1.0737419774554091 0.4532816022222413 0.880276764222867 -0.47360963902368947 -0.0918862239024826 -0.2843477193495541
3.1 0.5136922491507715 -0.06429027830027668 0.4139071716138832 1.2887939656480814 -0.8659614449826663 -0.6431681247765662 -0.310409548363537 0.22892741114427215
3.2 -0.032514055955812846 -0.4709706741308715 1.0299938861059497 -0.05196035059351604 -0.34945012018917915 0.8188109460388785 0.214461758995478 0.22413563476391363
3.3 -0.48170547355946175 0.06366860545824862 0.1955203990939154 -1.2878997881089354 1.0355130472524001 0.3012080535054068 0.20317642642806671 -0.2703758621310601
3.4 0.02415671550305411 0.3603938163295803 -1.0435036803539322 -0.38533045347772976 -0.047610603594269565 -1.0100867161180678 -0.25619732358550545 -0.07720447485669797
3.5 0.3480295594843768 0.006268185131525584 -0.8357230765995487 1.1854993677721042 -1.0669119319650922 0.33236315340611455 -0.05783674665499122 0.2199585259134159
3.6 0.0006304289569361134 -0.2632114831600498 0.7575305958151164 0.8892380305648909 0.7552991967097468 0.9342273573647579 0.2431891441020154 0.0474333769981356
3.7 -0.25867036035614727 -0.05870964244056045 1.2507047100598345 -0.4573358091862133 0.5809530973069261 -0.9048450466709995 0.03375050289951598 -0.18001585794790767
3.8 -0.08699399943369888 0.2958691723892195 -0.19800510051432865 -1.2226312353317235 -1.0280792770571359 -0.5011859890334168 -0.17631801314037787 -0.07516138158522061
3.9 0.3980408428564327 0.06851550299401878 -1.2313489808276348 -0.15659747832738505 -0.03634337790189902 1.1864753976696676 -0.03400093090420803 0.2994594186117762
4.0 0.045942858546260394 -0.38236525646218744 -0.386590635009795 1.1274657813585136 1.0259991558822075 -0.1158331493486085 0.32409482118864913 0.014175841040403727
4.1 -0.36114170946378366 -0.1874797012442233 0.9624315848578483 0.7983080469734913 -0.28796819927583245 -1.1989236811196593 0.0020998865882744773 -0.3479675713392206
4.2 -0.14501363208412346 0.43712512674050197 0.9850693764982745 -0.8156484310699997 -0.9905881958468921 0.6924842185481433 -0.33612852953939226 -0.014949504275634379
4.3 0.37287824706300327 0.14409439352038633 -0.2969193651151611 -1.1182172309374272 0.7712850332713839 0.8453654240440571 -0.047448057740329806 0.3065632288234853
4.4 0.10975144725290699 -0.33733648409405365 -1.2344952315236857 0.1813915332425934 0.5244116039762845 -1.2060431898474275 0.30083092496997776 -0.04522278385358121
4.5 -0.3069214450461011 -0.1689768898017944 -0.21060636551225392 1.1902235311570677 -1.235475183223743 -0.012189373241051123 -0.05910240502168791 -0.2713649819516755
4.6 -0.20380039877029282 0.3190108126126356 1.1736576536045942 0.45553849821339465 -0.08039949517818006 1.2513229656909681 -0.3020131887186405 0.04126235817473822
4.7 0.25849542811169945 0.2489352102402876 0.7879107521175063 -0.8064742508303092 1.3377984987183618 -0.21791306867318277 0.09128474338791721 0.3231397478551514
4.8 0.2526194749890381 -0.3244516107813201 -0.669665240374552 -1.0673958883560197 -0.4626473695984506 -1.111273077817484 0.3323798385667568 -0.05809777521911461
4.9 -0.30033576762956277 -0.22636295540391385 -1.066101318638787 0.31601359257232525 -0.9944933402582128 0.8047655036590884 -0.11076578636938882 -0.3861380262410621
5.0 -0.26676556397560264 0.26418810153901834 -0.055882596944865075 1.2032337978385494 1.075484751982809 0.7364661977895037 -0.36920666734081453 0.20536889902342
5.1 0.15964174703363868 0.280359024926875 1.059523069851183 0.34192560954363854 0.570003296715996 -1.1660495784734353 0.16713690535621603 0.3009757421328981
5.2 0.4048860207850215 -0.08654670935350486 0.7352546034346362 -0.9921109999170322 -1.3324155564421323 -0.4123461568838725 0.3225849309150292 -0.14080217359309363
5.3 -0.1319526290496646 -0.3534474521109939 -0.8262682722836249 -0.7681380911550245 -0.11935614767415736 1.2494618888135767 -0.18931524629785149 -0.3324805305868451
5.4 -0.3653003976655214 0.09845076549950432 -1.1210216178050185 0.40671114062119534 1.2502459371880599 -0.13272120406841334 -0.3783568749893791 0.19836688297782556
5.5 0.08845355133717515 0.3717426170877522 0.1746081660529746 1.1170665293536186 -0.5908967543992322 -1.2067579094593472 0.25706474332689855 0.36597575068819793
5.6 0.4365308570825357 -0.0675420172551061 1.0610976603196147 0.27130029709404185 -0.9147899230219301 0.7475277056024894 0.3694402580051921 -0.2524135227211843
5.7 -0.11860437072038986 -0.4106956013102975 0.5082222619569611 -0.9868571928174437 0.8299053643610925 0.845596132323799 -0.2568061952793947 -0.4330827522456429
5.8 -0.3484198907437157 0.0507745118168679 -0.7404046809885441 -0.7818408234032006 0.656841288000162 -1.0401948884471097 -0.3941694077894518 0.30852078218739853
5.9 -0.019162346978510145 0.38524254821164794 -0.9920067848011308 0.6231989624765494 -1.0774737160254568 -0.43313745607886306 0.31667151976728014 0.3776436679956973
6.0 0.32217398885573173 0.07889422021937978 0.2050843256066987 1.0139288130841624 -0.250351954103852 1.1927364877447557 0.3640943197637519 -0.28391036434897327
6.1 0.1692685330990543 -0.3183423924756 1.0535339466670557 0.23739380932805454 1.100416060597098 -0.0010911080746020545 -0.26053252152500195 -0.3510303226664707
6.2 -0.27698881448092927 -0.21148233116417342 0.5034211857725718 -0.8759926863003905 -0.08695859864327664 -1.0978789073975987 -0.3758251818998316 0.2042047091392953
6.3 -0.18394581860502587 0.31686558063428477 -0.7753125008660682 -0.7335090894881003 -1.0947339684236386 0.4247387753865064 0.221725089275807 0.39868515999013554
6.4 0.2707233990910174 0.15836052142901266 -0.8194926248961326 0.5948336464390404 0.7525283843463199 0.8314188353503011 0.2913681953937678 -0.30313988457724445
6.5 0.23110181945118446 -0.21697886505411107 0.2877807323401186 1.0516473855748645 0.7234610963872699 -0.8418544110599114 -0.27531843872519957 -0.292497080654742
6.6 -0.179079147317712 -0.2837078281021394 1.02226334405948 0.16651070118707004 -0.9404239218707889 -0.6486036652009217 -0.3087923474293921 0.15731747379459543
6.7 -0.3374233032857785 0.12249782261165618 0.6385504674464807 -0.8594663661520932 -0.5310473993262248 0.910740301444576 0.03622333601406886 0.31942935942564393
6.8 0.18680614008186744 0.3808453897161474 -0.6935402781019504 -0.7350323360983512 1.0807785727856785 0.272561303239846 0.41804852036707574 -0.025236296002578852
6.9 0.4043255147937396 -0.17899582128895788 -0.9229426691324745 0.4402304574319957 -0.2220065727405165 -1.0486674810929775 -0.12300423941990367 -0.4261916721362555
7.0 -0.18741034406380944 -0.4037723017914548 0.1991101679747449 0.9606040498563723 -0.9309594718159794 0.35038826754523295 -0.45957577723196424 0.11491593709937085
7.1 -0.44227244902155444 0.06885070493086708 0.9449075108032389 0.2397886625445737 0.5583698464982381 0.8965277867783766 0.1383583776303417 0.4969963373850139
7.2 0.03849817862654277 0.4719431882756111 0.5063840199108568 -0.8585943587600015 0.7343959641063539 -0.6263316048198644 0.47701421887711315 -0.09741977142564044
7.3 0.4498840221303177 0.014446366970260154 -0.5981128639199714 -0.7027406143841611 -0.6589827349873171 -0.6717782555872388 -0.04476551685484587 -0.480902221356659
7.4 0.020467302326907997 -0.4366511328542893 -0.874228681926968 0.40926775627314166 -0.47786829452311685 0.8873196653794763 -0.480266104361096 0.12024456573408769
7.5 -0.43730516653204204 -0.042346083602970444 0.11427557980344234 0.9258189563330865 0.9119462570248682 0.2247702056315836 0.12149958151315629 0.45171679595085956
7.6 -0.03369182850849576 0.48660171192114965 0.9627474628489874 0.11648364447966703 0.06514185780181897 -0.9450928442711576 0.49318960646413507 -0.08156041592395535
7.7 0.42357930060729737 0.059432276620166286 0.33102802215357463 -0.8086124756850042 -0.9157893682829787 0.16247086426799573 -0.1351227261219341 -0.49730585443661013
7.8 0.10578925942556985 -0.4346642620252819 -0.6597984968899019 -0.6381210959174487 0.3157511947477082 0.7677219077914963 -0.4817815753769053 0.10546771427254503
7.9 -0.3377691744528427 -0.20967515371168105 -0.7715953865392267 0.32781844929902826 0.7719397289424265 -0.4183421035652888 0.11301207985226398 0.5196231790113667
8.0 -0.27204068498958245 0.25262704050487184 0.0355836585466513 0.8967475802221051 -0.4959882321935599 -0.7135428287712022 0.4804035177544099 -0.15555099347917578
8.1 0.16611892303790526 0.2602312404240729 0.8547657788825024 0.1877481026644338 -0.597938333542829 0.59724603166473 -0.17945451261361778 -0.4270896864964177
8.2 0.2879982360595782 -0.11033173817836447 0.43325436810529583 -0.7812610349220998 0.7436887665968094 0.453122294153668 -0.39773211390038876 0.19845534539190893
8.3 -0.10743489970037111 -0.3058226291902671 -0.5849388754467093 -0.6282076149401009 0.19892453539763807 -0.7957974651092384 0.1699262383691674 0.35351159950166305
8.4 -0.34716278023629726 0.040219205526665774 -0.8084494523494606 0.22156664647563357 -0.820938588877203 -0.09428455675372042 0.3934234378395554 -0.10970613933387795
8.5 0.03058943686265856 0.4007060864237061 0.04290125502424019 0.838136538319318 0.07556368177055417 0.8210349044995628 -0.08334602237387603 -0.3723789847032212
8.6 0.4241522268690374 0.011408067889186675 0.7358721631578762 0.16060454968482268 0.7180822092626462 -0.18674712388038647 -0.344611672220598 0.03575774661513041
8.7 0.011070208630600913 -0.4497567757677194 0.32665312610645764 -0.6907746248544688 -0.33517726862720176 -0.6756902411529023 0.02295626105196657 0.37637919666927944
8.8 -0.43367477758369904 -0.09046468109764884 -0.5029697704917832 -0.5271074369987543 -0.5124929778666061 0.5317602639316623 0.378874990687583 -0.07781837291192409
8.9 -0.1360162442062118 0.4419771622136217 -0.6920094122523857 0.3522469383133002 0.5895087205985065 0.3832278286273749 -0.04467874379318543 -0.3177846388236879
9.0 0.4044801220785911 0.17583330535853312 0.07745894061509516 0.6896607786678233 0.3144925842237373 -0.6573197068735336 -0.33136643839921404 -0.023900379868147904
9.1 0.18896134946028142 -0.42393604839239446 0.7048523672350946 0.20493100912161027 -0.6810262082762272 -0.16276450131662545 -0.06775992123104907 0.37088235841410355
9.2 -0.3909193890397883 -0.18321555642326678 0.32785376538505484 -0.6384087138730442 -0.04993070677862622 0.7096095662449509 0.39884107323092055 0.05796818699001059
9.3 -0.24499739620100464 0.3870793656111431 -0.5479541686479708 -0.4350960255178003 0.7124899180072669 -0.14255869058334958 -0.0028967328490026555 -0.4273478543613255
9.4 0.3583492539124362 0.29589281072414597 -0.5499913273799651 0.35583697309471846 -0.2909870699449697 -0.5892948286224221 -0.4447699439467799 0.053525085666481294
9.5 0.3377420990436171 -0.28733578352122396 0.11546825479024014 0.6775263055465867 -0.5744194348379857 0.36336741465276556 0.05924441013393217 0.4313901301220222
9.6 -0.26340914072279564 -0.33485836978239275 0.6775382293261119 0.06740535915216216 0.4816364851495939 0.4987726230566585 0.41241382504079227 -0.04895182134066125
9.7 -0.336318930726378 0.2500995513285688 0.2785964299922662 -0.583103151821507 0.36692012310493205 -0.5454970405011265 -0.021594722572239818 -0.40537507980775866
9.8 0.16636275739931136 0.3525920936492012 -0.49207925187484935 -0.434254585396162 -0.639889834084156 -0.2512948689179265 -0.4009189479481848 0.09911996139710082
9.9 0.3498315320938236 -0.003412163051103661 -0.5700551445811742 0.3239857032363168 -0.14811483702221978 0.6574265654272269 0.1538769874337397 0.3382094446942551
10.0 0.06685143350012948 -0.35617255333842446 0.16541168511261284 0.63803225725049 0.6475292511016355 0.1812224846304596 0.3296396552406576 -0.04905376539164602
10.1 -0.3590726447761031 -0.07664668824924835 0.6006853554791998 0.1459075230580967 -0.31110064841757473 -0.6451645855566439 -0.12364087420966899 -0.35184883032224695
10.2 -0.10256959650380568 0.3365906339209501 0.3388705987652124 -0.5646386922734644 -0.5269216282666043 0.38423061271810305 -0.3445231668884507 0.12448739170419096
10.3 0.3179045930932217 0.1690268407151053 -0.4028932169463051 -0.4694063515773398 0.4417675671139461 0.48261740201240017 0.11265927874054142 0.3596016950623426
10.4 0.29488160631638194 -0.28211345645764413 -0.559074411755628 0.25963734198356553 0.43836178499886325 -0.5120216005150121 0.356396901577948 -0.15054070429800628
10.5 -0.24756294005536106 -0.36437295346992554 0.115509385414489 0.5588656957114297 -0.49446967327473035 -0.3674894687220256 -0.16489304814741643 -0.33668894429937385
10.6 -0.4168822712851505 0.22985466426940457 0.5924254043829587 0.05920700376358449 -0.2916358125062349 0.530443173327518 -0.3730893429671082 0.1722202904570062
10.7 0.17641651443254766 0.4096315296381562 0.21645053240832354 -0.5095215854117279 0.5888751735014295 0.11980141271559328 0.22542684542439304 0.33088046972618484
10.8 0.431075065930555 -0.06896939910489269 -0.36503919809779783 -0.451953974531657 -0.03762264699604595 -0.6053024140451043 0.2858239238297475 -0.2029463260439677
10.9 -0.002968995774826821 -0.4106595189640801 -0.5760461905975148 0.2071933690583849 -0.6333722620525362 0.22410253298506685 -0.20508186073189372 -0.25069337406434367
11.0 -0.3979355953120808 -0.04114094325237085 0.015262940286069985 0.6275803493306346 0.3943123815638314 0.5295556708640431 -0.2066446434411544 0.18022072335825062
11.1 -0.05306427325267899 0.38734686147928526 0.619221788143622 0.10920248683620352 0.44904975781850853 -0.46146502193138217 0.12141788343009231 0.1880757799208539
11.2 0.3785650762484027 0.11326292206724292 0.3156981141817307 -0.494647977628171 -0.5504128967689738 -0.3404400413042168 0.20122501969642786 -0.09650525482272014
11.3 0.17250038241179977 -0.42436081698474654 -0.3641096074192234 -0.47036028348631 -0.22168827706463187 0.5798504089117128 -0.07375585927267009 -0.23124387939857566
11.4 -0.4363936505904901 -0.2512223202745116 -0.5491465030807414 0.19151330535902278 0.638268934764889 0.1288100726203641 -0.2517787198641475 0.05322672987025186
11.5 -0.2665513155531782 0.4599848538943895 0.07064076085932659 0.5840356578087469 -0.016806104208694186 -0.6367452918920133 0.04330608620632221 0.27706981514253376
11.6 0.38708451108511155 0.3078676134435349 0.5370526107452703 0.1032780032842543 -0.5942212528663547 0.0693537901143458 0.2873884030606888 -0.020461060309467323
11.7 0.36952072979870126 -0.3547604841148003 0.2580657453944367 -0.5369972250595129 0.17548662682762564 0.6197765645729563 -0.049281654309336016 -0.2887834304913533
11.8 -0.30702731404712086 -0.35818913661314894 -0.44498135538633543 -0.3937497069642572 0.5498677594837256 -0.350114536023348 -0.2919706322223854 0.06114087305857733
11.9 -0.36469216903242746 0.236579190944941 -0.5282553169254223 0.2702795881131888 -0.39886231637450953 -0.4739046746974428 0.044523899999842076 0.29244428341875084
12.0 0.16750993893942803 0.35021466227491815 0.05257872047068947 0.5616690183376327 -0.42010488751976127 0.4658984058681469 0.31943916710672515 -0.03260531994483198
12.1 0.39952836124655394 -0.1274063286436309 0.5367263843205251 0.17969842652039508 0.5046187563000331 0.33150428163885065 -0.0027706709759702103 -0.33000892856072134
12.2 -0.047654885207036125 -0.3849279723588001 0.34898269383001007 -0.41765180806151114 0.2512022288505082 -0.5498361233606189 -0.3324218983296055 -0.0008232408695605142
12.3 -0.3834477323452342 -0.058159598050830257 -0.21146940639625267 -0.4810510395195739 -0.5887868010198302 -0.12223501577545165 0.021772499765992843 0.3414455980530803
12.4 -0.11783921520885393 0.3790729238007532 -0.5284590161996616 0.07435930665934257 -0.06772816847167447 0.587301943602185 0.3264826369364016 -0.025310880977113204
12.5 0.36844564968027654 0.15037466537083247 -0.07246177581206265 0.5430284452594235 0.6127369683306679 0.007982346389078618 -0.004812625878670178 -0.32327100673413994
