!Created with skrf (http://scikit-rf.org).
# GHz S RI R 50.0 
!freq ReS11 ImS11 ReS21 ImS21 ReS12 ImS12 ReS22 ImS22
0.5 -0.06672254714730208 -0.09723768341884396 0.03267089740441544 -0.7949497157040516 -0.3542900049008443 -0.723914205422325 -0.020678190339607855 0.10805321126111225
0.6 -0.04420231534019773 -0.10919164847661195 -0.17210656364747454 -0.7384939704948935 -0.5941913526533137 -0.4632269522024454 0.07177473952315426 0.11989185815596459
0.7 -0.0006481759654003665 -0.09778218132879525 -0.47351635948659626 -0.6367373690486338 -0.7478445348079933 -0.15153909342013766 0.12746187008226317 0.09907482945035934
0.8 -0.00344966158335387 -0.1588198192745304 -0.7544121325481364 -0.3626475292861649 -0.7862758181114063 0.25416839812248737 0.11987569916928699 0.031002314969042898
0.9 0.03716396539335415 -0.1731969832454764 -0.9083909569355119 0.09945372303997076 -0.580212502166574 0.6673458086240787 0.07593443319480295 -0.06377275382887067
1.0 0.005237269738216735 -0.18620234118230553 -0.7471696246446891 0.5922676854005645 -0.07446658343396147 0.923355761696985 0.03274582588412723 -0.04704364632753482
1.1 0.03404102614789299 -0.1480855786862403 -0.4125068323904758 0.8784693091222012 0.420925914394645 0.8354887293075524 0.04241446598893211 -0.07722677330160475
1.2 0.07121973661645693 -0.12068459278258246 0.003397203730855243 0.9948549939172584 0.7967564033782718 0.4998048552124939 0.05604528824656871 -0.1192181477866642
1.3 0.04523342413286912 -0.12134167005548678 0.4482191241142962 0.8469813202687634 0.8978536409013066 0.06076208359915459 0.021484392991971468 -0.07269242101511167
1.4 0.044486803434650446 -0.1155976426609799 0.806954883106585 0.5559393254042941 0.7881543819380452 -0.42963959498400256 0.006263461860552047 0.017349682890804043
1.5 -0.011255610980640023 -0.0019186586670265975 0.9189484336443046 0.10600162040657111 0.4457296812976065 -0.7015699193844614 -0.0030709697140433026 0.028881796544128504
1.6 0.002640384436467197 -0.001117323692644664 0.8158879535073655 -0.2930635011487476 0.037551507224579755 -0.7670429384853868 0.007025188688261082 0.05571938172536772
1.7 0.06662955859230221 0.053339412639526136 0.5358956504695577 -0.5710793036551325 -0.31963401867952185 -0.6071174743512721 -0.021314946591394747 0.0480493556711806
1.8 0.09939487656701192 0.02801312758195681 0.26461980800820184 -0.662063710227172 -0.5231530767083343 -0.3557824408246401 0.045664636316413855 0.03422572021091836
1.9 0.10190315904224756 -0.06214841483794463 -0.00025810270670823 -0.6596591426870784 -0.5578071745106395 -0.06741427343280719 0.16166629089311446 -0.05293014993898355
2.0 0.0797065196265756 -0.10898567170185741 -0.29150500548047215 -0.5243612579877214 -0.4800488148142126 0.17488795978334998 0.1578068640833824 -0.14530586801102538
2.1 -0.0073630156914587545 -0.11805186889823586 -0.43189998910525584 -0.37198194692981795 -0.3686901233481292 0.32436839432038994 0.07581536322879108 -0.21282752487338769
2.2 -0.03658890019848336 -0.10428781758726428 -0.5507013903034693 -0.1378232910852733 -0.14758857658545554 0.492335506359306 0.003844398651831476 -0.21142498390491224
2.3 -0.12868989051433682 -0.07268730279764868 -0.5409461303792413 0.17596763730127912 0.1446779160325846 0.4810235038647415 -0.17455492197488467 -0.12987357000248062
2.4 -0.1661209953057846 -0.057476823176244196 -0.3150947107761074 0.49651522310000246 0.4634346046598352 0.30150619763071973 -0.19368993885955152 0.04973124496166943
2.5 -0.09647616656203944 -0.127950815895286 -0.6993105263062688 -0.12162214399850461 -0.7427873002708293 0.209243122844672 0.11667439103063723 -0.05166428380656766
2.6 -0.24600160513094907 0.19278327126527292 -0.5835436307586346 0.8470997804442395 0.48647191350449875 0.5226633090281506 -0.03126953235138114 -0.08847966428179108
2.7 0.23151460307334362 0.038178495008602306 0.9510159461411578 0.4309297308308859 0.6458653188705883 -0.6523323728675906 -0.1736701210059053 -0.13015060155982716
2.8 0.023898801595506124 -0.3301888228636961 0.8738568778900703 -0.8182355711475175 -0.9625984960537696 -0.16679733162316407 -0.09739036068872838 0.2194480663031136
2.9 -0.21987708497460162 0.18850008158770212 -0.901866847952401 -0.8253634083271709 0.16351412233027265 0.8953139594977191 0.2918973831165627 0.12406605065513236
3.0 0.17474299930222567 0.22368859140020297 -1.1095180416008008 0.44543928192012494 0.9113786343052324 -0.4698008340490717 0.1551871167354887 -0.3015909983758122
3.1 0.09594419806761413 -0.23214927642850605 0.37175471488266254 1.3675774528615652 -0.8755668164326729 -0.7136740119614933 -0.3292451681420391 -0.13144620999296489
3.2 -0.1274009219691111 -0.05210186814212346 1.1299639370025072 0.014503685021187 -0.4386928831316076 0.8712595850441013 -0.11647700241325802 0.18763869343661949
3.3 0.09179576520956541 0.09958649209455804 0.2833267378009978 -1.3895382890899002 1.1094612990235997 0.3843005788049159 0.037881968457240026 0.15457191961170058
3.4 -0.04908065478571941 -0.16723605266850444 -1.1105770128669301 -0.4466872592720866 -0.019737542651658353 -1.0879743286094858 0.12080590033450764 0.1058792511744109
3.5 -0.2565848405754905 0.23086741930301757 -0.8813930749001476 1.2113144368488076 -1.1069436794887526 0.32689511466474835 0.23679987792449944 -0.1437662549536721
3.6 0.28295555302610714 0.1330186876207729 0.7709859022676822 0.9156136998894496 0.7685545395785299 0.9618063202557057 -0.06690360163955987 -0.28142585043588014
3.7 0.08293043144716436 -0.3884836716009918 1.2602906031966523 -0.44199983694304246 0.5943686221577998 -0.8998794832207824 -0.2516941776028476 -0.000424580991570587
3.8 -0.381308767237432 0.12816659675580194 -0.18380223988559313 -1.2248335804358979 -1.0222516274554798 -0.513271532433564 -0.1231370348217342 0.1882876652901582
3.9 0.3243572068486955 0.26174037292734337 -1.2413560466567841 -0.15560823337458682 -0.03464397385634358 1.1959117913514354 0.1337012878762024 0.26877673735696184
4.0 0.09331774347537768 -0.37367984405886284 -0.3794953428377408 1.1298682224665209 1.0253753468957465 -0.12220195980787571 0.3302042630211492 -0.03077418261591624
4.1 -0.3942171969013032 -0.08761515425202314 0.9641986203461664 0.7935290684278049 -0.2922245881174799 -1.1962098807104782 0.09338377260336107 -0.3409266869060268
4.2 0.12338425971904439 0.42425210066263214 0.9767237365435462 -0.8252211895660219 -0.9834822528452359 0.7026774627551222 -0.2704232125058412 -0.23790050927320597
4.3 0.30363501968502865 -0.2470842411920964 -0.3176440844418211 -1.1094514203602175 0.7858097843110415 0.8282951820725876 -0.3001171757468211 0.08718636081664531
4.4 -0.3697176768296501 -0.05868851517066644 -1.2133012550212514 0.21189432883352108 0.48497057370597224 -1.2040991955979217 -0.051744752886225646 0.331356795163063
4.5 0.0638642054486105 0.3495964203339729 -0.20270368399384622 1.1664214663068047 -1.2103605887129454 -0.00797542342514076 0.34636928750728857 0.14403656242066268
4.6 0.3571623434329868 -0.14020244057322304 1.1620701747987077 0.44846174861021154 -0.07695335813492245 1.238009343769883 0.3102583564974782 -0.25730475095643474
4.7 -0.18632801954821993 -0.29037606648116604 0.7701934322563492 -0.8075632828336867 1.3215205777568426 -0.23185397016146417 -0.1189624205719521 -0.4056655665510702
4.8 -0.18442763652618496 0.29972551195522573 -0.6873590563349974 -1.0535754083639417 -0.4816664150898628 -1.1007742790456325 -0.3592560835855078 -0.05122253912206335
4.9 0.2952261920550843 -0.005922583548517214 -1.0623529368808111 0.368853977463973 -0.9667363976612829 0.8596505191682607 -0.25693528120255743 0.29837801284394916
5.0 -0.0794762869286738 -0.2970359899854199 0.03249464777810165 1.1854522452419414 1.1094970637142638 0.6449776382678724 0.24188325942305028 0.3616457023597486
5.1 -0.26558680034442217 0.1969239416562772 1.027081835087194 0.29176119088045804 0.5060970124776398 -1.1370391798097552 0.41069904647786837 -0.11307962151208827
5.2 0.3422870751565769 0.24315940585623114 0.7227675928756283 -0.9736746652274255 -1.3082010436964577 -0.4055384828685082 0.07065140742663527 -0.3875903306377685
5.3 0.006336029396136238 -0.3635483838141457 -0.8311498894542529 -0.7593304730743569 -0.10803926345481896 1.2480574921672445 -0.31581415704485855 -0.243499778628346
5.4 -0.36419557572293265 0.1374141986167677 -1.1178557709046721 0.41128916684604044 1.2480689046050109 -0.1385603173653075 -0.40153257901887557 0.1679342421900244
5.5 0.29366344228671276 0.29300384419134423 0.186499828153299 1.117453592210852 -0.6050521329339097 -1.2030211406193416 0.021005342949922817 0.43574171489400854
5.6 0.27039747444427537 -0.41895992257490877 1.0673040394677917 0.24848855598465913 -0.898589702292676 0.768055156232625 0.38153662814654477 0.1346351726827536
5.7 -0.5460378971923333 -0.05847043390796476 0.4781632855127467 -1.0062350151902937 0.8598161635188974 0.8213158887856463 0.25746150926779743 -0.24645014713401955
5.8 0.11940866475322175 0.5106402793915423 -0.7747913016257358 -0.7353673017375592 0.5955078857685182 -1.0656312600653046 -0.030137636199490878 -0.3021911184917274
5.9 0.4420178425403527 -0.27996380702086004 -0.9509809024725138 0.6845055823911383 -1.1028787062211496 -0.3640676394559798 -0.27138334181672724 -0.13820866544737193
6.0 -0.3524642257139917 -0.2891896912880252 0.2641816919402382 0.9878779075566838 -0.1739007439327403 1.1920209568192919 -0.37407127336695817 0.1758090677456719
6.1 -0.13683038086355248 0.40419854273106404 1.0686648431462396 0.16887627818138407 1.1001371972859952 -0.07308500021109049 -0.058602273796925744 0.46460548294226345
6.2 0.414435988758638 -0.015449405450094255 0.4666791089477016 -0.9162449238436419 -0.14503847200829761 -1.1115438225806593 0.4203511152117044 0.30336539442645594
6.3 -0.17675727693545132 -0.36638169400750237 -0.8438798657736041 -0.6945147809422015 -1.088107563791901 0.5118266562834188 0.4702519159164868 -0.3435133980997898
6.4 -0.240140091493136 0.2926968482785788 -0.7572568234607358 0.6483177570145451 0.804402713693424 0.7564450520516361 -0.28166495266673147 -0.5365629993365211
6.5 0.33822909375678784 0.1730284130843521 0.33945398942791344 1.0019024879195553 0.651613039873844 -0.8572681442164617 -0.5528004989784817 0.07546046739852226
6.6 0.04502971610292844 -0.3475491700995726 1.0108230729919987 0.14015542745775553 -0.9416074545857706 -0.6166327806804567 -0.17483686361221812 0.3868280687186176
6.7 -0.3525681897752286 0.07657543077178727 0.6292108786314592 -0.8620840406388497 -0.5214102452493308 0.9124369751052797 0.0906967383181429 0.32309824777747564
6.8 0.3077232606082794 0.2971087612160685 -0.6938174049411053 -0.7320011525067197 1.0792609200705883 0.26944495797387114 0.4132758090179756 0.1280238888251369
6.9 0.17376519052497888 -0.4233519995684351 -0.9260295648622707 0.4332397903275009 -0.21446832787646775 -1.0500845328145565 0.22577485234892067 -0.3960038108504198
7.0 -0.48560796814840457 -0.0021145212789863916 0.19827737908457863 0.9690289576545752 -0.9397368902207046 0.35125802346275076 -0.2885826984466353 -0.3455634305128232
7.1 0.10687232148022208 0.44401265987534644 0.9785286364063072 0.21203238039863256 0.6059454398990324 0.9001421154829263 -0.4049919051161372 0.10673588758422956
7.2 0.3472102706781452 -0.2531824310227108 0.45864620935574774 -0.9176807839448853 0.7090739534948187 -0.6957129682161566 -0.11343381445297215 0.34556905893069667
7.3 -0.31971261517001326 -0.24049755801057093 -0.6847890261586556 -0.6663819412796288 -0.7447598092329062 -0.6285494484948186 0.20182389902686873 0.27098487812470057
7.4 -0.15358688099048082 0.413210676475968 -0.833204061608899 0.497085445064893 -0.3885369272866996 0.9355948326091793 0.36195897048013387 -0.08939960541215834
7.5 0.37941626207003387 0.050389654026799784 0.17605531169620034 0.9229404929060141 0.9317273988653326 0.16563589134275894 0.07784170421602121 -0.3380090083238238
7.6 -0.10067857997696895 -0.3099706685741199 1.0131519266665223 0.10951327768520291 0.05533636762783574 -0.994000707028473 -0.23505388446165246 -0.28205069593615656
7.7 -0.1814029737817441 0.1998748516412416 0.3221101182985707 -0.8748058640251543 -0.9704153289051136 0.20863172642792993 -0.40309679470348786 0.09334650483064405
7.8 0.29258809847384787 0.022339933515088055 -0.7251987908954578 -0.6424680074698996 0.36850117654026227 0.7950208914991577 -0.14292894523680955 0.4250805649904782
7.9 -0.061045234764007535 -0.31934124538991 -0.7848343185044055 0.3580292442866071 0.7825409951140097 -0.45158682972842096 0.39297120269868424 0.36436620289549815
8.0 -0.3164848152913888 0.1281047650754502 0.04868276226422056 0.9012583791553854 -0.5094417798946496 -0.7102775853455985 0.44805234399133625 -0.28899340795481504
8.1 0.21536813513181127 0.23137523722346065 0.8534253447790183 0.18667202535699048 -0.5961020310980409 0.596995981224789 -0.1272227884275075 -0.43853897787567325
8.2 0.12175874812256159 -0.30470699593713674 0.42733744911831806 -0.7880339868612458 0.750823915849047 0.44745880377105174 -0.36376676035215716 -0.03798797658573607
8.3 -0.3709767493738614 0.03919326580825832 -0.5983618994262042 -0.6102158559116583 0.1770781417637212 -0.7973082362885225 -0.18359248715642693 0.21767850015537651
8.4 0.11238793438464122 0.3878748047851541 -0.8022407461407661 0.2421187775884098 -0.8227584971145436 -0.07290012322306176 0.03846405880881358 0.2856796358765357
8.5 0.3634818856238694 -0.21877264743378072 0.06463248337782605 0.8435126642913131 0.09719398824285115 0.8256965124065475 0.3225713618112604 0.14084660158642032
8.6 -0.2463946777190464 -0.2796397012791602 0.778900178944255 0.15190775372758736 0.7520429030994612 -0.21398325180002478 0.2557195983507401 -0.27211470012241745
8.7 -0.16450785451316868 0.34449329378952676 0.32299885211629 -0.7883210754363191 -0.41338119600180745 -0.7326952189792165 -0.18070940053418919 -0.33543587439267475
8.8 0.3372300441921432 -0.059014003918655834 -0.631000537890753 -0.5347480950437474 -0.514625102960808 0.6621084653611528 -0.367378631813102 0.006013876186866035
8.9 -0.20929593451872122 -0.3106556237864574 -0.7225230043224755 0.43297063382905066 0.6671877599859037 0.3705104884083106 -0.14567450373910681 0.3453940281859566
9.0 -0.19671794170949522 0.2844161565792139 0.10589400817956866 0.7611302682044064 0.32873854553467247 -0.7370399368997973 0.20672627720751272 0.27255875066403884
9.1 0.3389994466158624 0.08174506855893147 0.7882096504259124 0.20690958350040453 -0.7609525463711154 -0.1605951499389766 0.2819360016786813 0.03576186424951165
9.2 -0.0676508974989719 -0.36041668334787347 0.3400302495876407 -0.6726405886332064 -0.047504893456637394 0.7457171319776703 0.23247461675895445 -0.24389596328010213
9.3 -0.36473994567879575 0.2173048614651963 -0.5557591098774177 -0.45554186995266727 0.734097341493286 -0.13526402104935842 -0.17180113547356793 -0.3500359150218301
9.4 0.33812705246588726 0.31094346462330025 -0.5507217629263613 0.3564695577649878 -0.291779003944497 -0.5899850993594689 -0.44357562029433595 0.07959077236270742
9.5 0.24808887385960735 -0.3937198736135528 0.10928335734050522 0.6628335902720724 -0.5632440637000504 0.3523784978648085 -0.07292003525870608 0.4429488187517089
9.6 -0.445017849266359 -0.09524371464727147 0.6644377202371589 0.07475055161397653 0.46690407242037085 0.4957441273425951 0.3439791978902404 0.2330040166740712
9.7 0.04641421037185786 0.44646433227676907 0.28395736953717154 -0.5766992209600964 0.3711098749407235 -0.5385085408029864 0.32515417286727444 -0.18979552739971808
9.8 0.4038954306015775 -0.17349672928052137 -0.5012476579171072 -0.451985332138853 -0.6554461083247911 -0.265279969882996 -0.06423227721984262 -0.3267641074892123
9.9 -0.2222854920319634 -0.3517766922739826 -0.5778269005180334 0.3512911179301269 -0.1322643830020022 0.6824997912090253 -0.3254248678272664 -0.05861009054494972
10.0 -0.2394657493315996 0.3074495014615764 0.18445415686110866 0.6565095989457979 0.6737744881710256 0.173682150796296 -0.2851247667962114 0.2389331168364633
10.1 0.33764722687691157 0.16640785540066008 0.6517780980962883 0.1603699493168231 -0.3366786905115835 -0.7014947934313251 0.26150441604290264 0.27845442376447077
10.2 0.03931580546271113 -0.4066929003341167 0.3728538275629396 -0.6273060295998206 -0.5818599375002758 0.429038459548865 0.29958540709496295 -0.061402753094125004
10.3 -0.33431353825445637 0.09274509532549033 -0.4331306460988151 -0.5270397247227028 0.47638789456759645 0.5422418348945973 0.12740130507535669 -0.2485076163867409
10.4 0.2151829101220499 0.28782157092898636 -0.6374096001430506 0.24417257931216685 0.5229743308649679 -0.5327910164819804 -0.15459468192314493 -0.24866073938179756
10.5 0.16742426525971596 -0.3596755872125108 0.09263289408678389 0.6268581468879906 -0.5250296995837522 -0.43844457024940947 -0.32621754017264687 -0.01631291151552499
10.6 -0.4518038446413331 -0.03547000483468491 0.6314568385286647 0.07781822376737135 -0.32432694190819766 0.5595411897054741 -0.21044948056417884 0.33099939593728595
10.7 0.08217759227102868 0.4346373617460418 0.22332520011702797 -0.515859641194357 0.5970504719472071 0.1255181745323125 0.2968856810781146 0.28245021473836546
10.8 0.4096885229166152 -0.13118853807179875 -0.36501097738558214 -0.44445624256299426 -0.0423584627620442 -0.5988060313433089 0.31526473451882475 -0.1568947065117889
10.9 -0.21813601846058606 -0.3029658150997857 -0.5629285092357058 0.22510719688737613 -0.6190813082195219 0.2441725854218275 -0.004262267090345253 -0.31681459360600533
11.0 -0.17076065161636034 0.2932717520517247 0.04993909396623934 0.6173395369293929 0.4180305572637581 0.49955253967967395 -0.26277984917382574 -0.16616555889494414
11.1 0.31625330077106106 0.0047275315116311525 0.6106581776002066 0.08164209586497735 0.42049162500337034 -0.4702999057097885 -0.3433307389134583 0.13405583580832373
11.2 -0.05844745024068677 -0.27338364114553343 0.33189915532448333 -0.48892475761070175 -0.5445323884264868 -0.3582351187017147 -0.04008768331727586 0.45207920975982413
11.3 -0.21181442352163113 0.11970843006508876 -0.3357347724671789 -0.5365879716942338 -0.296018216435922 0.5907243547720998 0.42520251437455325 0.22760465371495023
11.4 0.1921154995972329 0.09555142080295646 -0.636178352032315 0.11326124387988432 0.677949233632852 0.25360005298526406 0.4016529934528857 -0.31325172257915634
11.5 -0.05558442812764092 -0.25349886634573926 -0.030670993531605694 0.675268183131085 0.10159811641810222 -0.7250905248037773 -0.1750437744370922 -0.41825869700681667
11.6 -0.25803867635808453 0.1872696635419201 0.5827871426167578 0.1765076645073691 -0.6662956890016869 0.008230156805101725 -0.32589950140274193 -0.006344558149671367
11.7 0.30318445711350567 0.26449800222140213 0.330830601744896 -0.5151700123629437 0.10114622747793872 0.6543129771444928 -0.1529142687680698 0.2535616211955919
11.8 0.21197296047075406 -0.3550545185154395 -0.3818402914603203 -0.45538179918037275 0.595591497608914 -0.2651425802866086 0.1230029991801689 0.19678991135623988
11.9 -0.38225424171524064 -0.14407358474323986 -0.5581891396150678 0.20566906328407603 -0.34050286476811426 -0.5192352896714887 0.20475321960997106 0.052682666605360605
12.0 -0.023571387265865086 0.3799702339428259 0.016525592342413385 0.5613904531110387 -0.4468866383362049 0.43646106754662173 0.22563100999639826 -0.1561856064380548
12.1 0.3999305631440973 -0.11506698240545031 0.5332735491594983 0.18039399968279937 0.5010149674239114 0.3310877952150148 -0.015144071539066129 -0.3334177449627307
12.2 -0.18627933334774358 -0.32228379269277474 0.3359046747096663 -0.42860271830899854 0.23370097566043416 -0.5580703228657737 -0.34985422050413884 -0.1352161661127393
12.3 -0.2601007225259575 0.20716940095708677 -0.2332035406352805 -0.4900964779961056 -0.6117583018285899 -0.10778031204268615 -0.25633084908499887 0.2941839763163547
12.4 0.23945796984817194 0.14024996264794576 -0.5661470411494105 0.09755534147845113 -0.05334934241012206 0.6341832619950221 0.11754900349062006 0.3388006171477819
12.5 -0.02141642892561649 -0.23168520621505428 -0.06420345522946196 0.5796477000441164 0.6524837095973495 -0.006271389947307026 0.335689213834569 0.11382786127237968
