!Created with skrf (http://scikit-rf.org).
# GHz S RI R 50.0 
!freq ReS11 ImS11 ReS21 ImS21 ReS12 ImS12 ReS22 ImS22
0.5 -0.06201221946772562 -0.15129298765788143 0.042216415390027934 -0.791347793226302 -0.3442641851079261 -0.7253692967838591 0.003048585762102373 0.15076394557079598
0.6 -0.057335924843342836 -0.1734036629794646 -0.15531736499439514 -0.7348231041421716 -0.5789319116595852 -0.47078430075594296 0.1190129926924123 0.1578891173207812
0.7 -0.04746162003721722 -0.1643571078540591 -0.4539233642590425 -0.6428486935551085 -0.7377577460612362 -0.16861394870841148 0.1997634460514126 0.11236713005412216
0.8 -0.08658192437688268 -0.20743375300944203 -0.7387842099713793 -0.3783637889505246 -0.7858037843458737 0.23237879419046154 0.19698817810041985 -0.0022945742919371183
0.9 -0.06509248542331596 -0.18256357261999323 -0.9034435950663497 0.0729078319594933 -0.5941829175630668 0.6451665564711805 0.12389601465905319 -0.14658927081639156
1.0 -0.08685312671309182 -0.14656000461430543 -0.7539440215439948 0.5713616231311195 -0.09380777557700919 0.9144088528366473 0.017660346105511312 -0.13999405988946295
1.1 -0.02469325000914822 -0.08258490984118937 -0.4203808604471114 0.8681795130612007 0.4084112832721416 0.8353780446797372 -0.01198747302631265 -0.13665061238213957
1.2 0.050057014275356276 -0.05797148267028126 0.0011069257097132547 0.9947021562744222 0.7952274454310873 0.5016888876193359 -0.0018586777414210782 -0.13295467421130344
1.3 0.049108540800361665 -0.08976125044180339 0.4487655336550022 0.8487374574439305 0.899598518438205 0.06126867297551341 -0.006137224765878131 -0.06464992081554033
1.4 0.04160999846980209 -0.12201258324029074 0.8062517323194885 0.5560673650511582 0.7880341208717174 -0.4289701602117922 0.009147119614759123 0.010799954196793747
1.5 -0.0500834279262389 -0.029245262843997297 0.9183297606645329 0.1057430215937269 0.4455311662176995 -0.7011836722695669 -0.0010269329268208938 -0.017774449231340965
1.6 -0.08129224240840209 -0.01475756349999064 0.8083170333593118 -0.2957754138446117 0.032840654259351384 -0.7617356307128701 -0.03165521120774811 -0.016809341600267515
1.7 -0.04062481897020431 0.08210135473744697 0.5241189671951716 -0.559644595427828 -0.3133566646505484 -0.5943174456060836 -0.11622369103215797 -0.005995655357836216
1.8 -0.007012488629170123 0.11024375168150628 0.24213794958647217 -0.6450834274761839 -0.5126493101793248 -0.33310043088157654 -0.08403297790505822 0.03494303027010507
1.9 0.025679401992312445 0.06585427804256884 -0.033441722822045224 -0.6541498807249326 -0.5565805657074915 -0.038942674693773535 0.024696010378550088 0.023562558464156273
2.0 0.058852713011608895 0.05529180968930422 -0.3118297065735425 -0.5266630132021016 -0.48474345006771147 0.19158349732851027 0.09453620163519616 0.0052532335546867795
2.1 0.011351278955787398 0.037082717465158635 -0.45827407314705343 -0.33573145592808923 -0.3410454462685811 0.35111033101661127 0.07692469500150755 -0.0670347487519797
2.2 0.04341755971009985 0.03504629533801807 -0.5367782429042235 -0.10637600498498131 -0.11872791511036997 0.4810187358459206 0.09584138189608711 -0.09141122548003187
2.3 0.00766343091422496 -0.04222454381594226 -0.49578647696497685 0.13403110148335387 0.10847574841760325 0.4403693485019462 -0.07789487704773096 -0.12142926298812516
2.4 -0.048831565067243766 -0.05798732943628229 -0.3262273681189617 0.4844159142695661 0.4519128856971178 0.31203610206970817 -0.07754782684380702 -0.001989469790063909
2.5 -0.10144873958100668 0.006981010843527524 -0.6954213452342745 -0.14197558967403207 -0.7486416566168121 0.1873398112117828 0.13092260729164074 0.0764617036832868
2.6 -0.11737901142374099 0.1987241201156832 -0.5951642637734084 0.8545209960427931 0.4897203370642426 0.531743423006464 0.04993375644042763 -0.10345265615272692
2.7 0.20223360822061107 -0.00971811884372617 0.9448167695264975 0.4395892164346812 0.6510608085516237 -0.6444464872886843 -0.16257412883619166 -0.17364636582721663
2.8 0.061752555956502926 -0.33891287122833225 0.8803168736699363 -0.8107202525350211 -0.9608863396780284 -0.17458164157396563 -0.07221710241142841 0.20825538071082184
2.9 -0.335286586056104 0.10022299086011989 -0.9079165360032656 -0.8201652619529395 0.16945179813756173 0.8946789809386145 0.2799850650492243 0.026921501635290182
3.0 0.04935593224463473 0.4268789592445404 -1.074069142779419 0.4572221744327789 0.8801861591539133 -0.4770225723763778 -0.036723250741535624 -0.32101192076730295
3.1 0.4668327580220392 -0.16168922182709353 0.41485068180117024 1.2891862395266427 -0.8670662402368148 -0.6428528698163655 -0.3668829007341531 0.17343525311878075
3.2 -0.12129701923918898 -0.43731162847688354 1.0310711274083473 -0.05566572898076328 -0.3468001444051671 0.8210961049070283 0.1722057020043993 0.27302993433628375
3.3 -0.44578901660160625 0.17840559504074985 0.19005120558455624 -1.287869864101283 1.0360527659732213 0.2966277320355751 0.2687792796153092 -0.21143785292681785
3.4 0.1324782044425983 0.33155735118954477 -1.0459440253232468 -0.3821426072450247 -0.05098951105117307 -1.010916954915987 -0.2107283714436477 -0.1491468167191364
3.5 0.31114718789760076 -0.137010670569278 -0.8302931611602885 1.1897530834714218 -1.0655225723170472 0.3375597590807556 -0.1460915068835639 0.16464245336706582
3.6 -0.12176315153132988 -0.2270214225632046 0.7584582394798502 0.8860981031661352 0.7563776985220112 0.9310234240661932 0.19059020009928854 0.15136841179142788
3.7 -0.22576805973045116 0.0917767081905036 1.2490115984804764 -0.4570422241486026 0.579673632196563 -0.904125976890676 0.13323818221090342 -0.13368369707954078
3.8 0.06024153662613479 0.25642423716260637 -0.19961398665577698 -1.224516911797605 -1.0302784967262357 -0.5007953373388682 -0.11216883769286522 -0.17891846336777398
3.9 0.37244492673423857 -0.09232199431729494 -1.2327441038960405 -0.15575140309366955 -0.03551117316939603 1.187803618508266 -0.15881593234508892 0.2588373915965437
4.0 -0.1072681989059987 -0.3710422685974188 -0.39022493991265705 1.1260610023130162 1.0263447801589514 -0.11242475416790397 0.28700821977178625 0.13667683404379014
4.1 -0.39261710877737244 -0.01594454805969865 0.9632518744070139 0.8002730459076944 -0.28750368435932816 -1.2009688486769488 0.15176460698069552 -0.3055386592206799
4.2 0.039401914936888854 0.4479721673040818 0.9824034946226583 -0.81824331478924 -0.9883389681051733 0.6953417952747196 -0.30280501209357547 -0.17290179814435405
4.3 0.40304693893715027 -0.034200325482709654 -0.29951869620355576 -1.1138766929100483 0.771764350856257 0.8404428600172933 -0.18933831044505303 0.2464585362386486
4.4 -0.09144448890419775 -0.3487650378834396 -1.2317493408979816 0.18621842747739764 0.5182938660183121 -1.206209529639178 0.2632905128786781 0.1382641061468432
4.5 -0.34311107132952245 0.031402836390882094 -0.20793343514995208 1.1877300843822216 -1.23258990148826 -0.009793706904341127 0.12420400136427473 -0.2707106997366521
4.6 -0.001278679620451344 0.38947714391800226 1.168677297334876 0.45341287032105165 -0.07961650911890392 1.2458987016562288 -0.28214299363375994 -0.15727940390705322
4.7 0.36830068144951555 0.07616929876568074 0.7856210088810544 -0.8044711266360901 1.3343576446152532 -0.2175929799453174 -0.1286008238605202 0.3129758193882894
4.8 0.05025545948621369 -0.4400879322038135 -0.6692485389245016 -1.0591470882153284 -0.46358508861312175 -1.103221540152243 0.31319899693243164 0.14809389220864344
4.9 -0.4050455145856113 -0.03856529833692924 -1.0614049129138752 0.3177729953426463 -0.988261374644943 0.8047109277744157 0.11647733303557477 -0.36540734270350983
5.0 -0.0842890356475676 0.4241011985999848 -0.054214843095577815 1.2027701738154764 1.0760485112658216 0.7346971994261342 -0.3869033074649741 -0.0353953237942135
5.1 0.32718294288632943 0.1144760115788103 1.0647091087865566 0.33695562227587006 0.5646872348344117 -1.1728535416877155 -0.0797095758139222 0.307965254979674
5.2 0.2558848178856278 -0.31384420843385763 0.7215967839417148 -1.002401000878425 -1.3385449127532383 -0.3936060882211057 0.34092359067835015 0.13352876426790153
5.3 -0.3396974877409011 -0.2160600471925296 -0.8254715442120153 -0.7632330445443364 -0.11541231773654151 1.245449110286211 0.0702386863500238 -0.37114988043748837
5.4 -0.260385121347854 0.3482713175693654 -1.1191657301084628 0.40685307242722046 1.2484096407904812 -0.13317659763013714 -0.3939070691606187 -0.07543388187868752
5.5 0.3303019154746906 0.25526463112855363 0.18213611999049417 1.1196930647535321 -0.6006401342777811 -1.207137129234087 -0.040383704097401385 0.41632357734499037
5.6 0.36037804245095345 -0.3282215686604186 1.0652713946523054 0.2616521305440478 -0.9087796250937512 0.7577249404501397 0.4124603863574747 0.015532964437633525
5.7 -0.3888064282029117 -0.32770938912566705 0.5018541287967929 -0.9900570665990794 0.8352245616567592 0.8401111608056172 0.02536051141547086 -0.43557634796367845
5.8 -0.3059084753574929 0.32657344457629345 -0.7432182203891516 -0.7790440089256561 0.652926393065961 -1.0426564671891645 -0.4080799835682283 0.002256696605718723
5.9 0.29286019556215065 0.35679825307518725 -0.9932509876727504 0.6335967515265041 -1.08661015971356 -0.42787109219154673 0.017992484610755182 0.40531275876205053
6.0 0.33021785252788977 -0.21054322927776437 0.2138834688282139 1.0170624072315975 -0.2420428933998429 1.2002765244947882 0.37272020062972333 0.03550992485215415
6.1 -0.13001969507727956 -0.36588404905561867 1.066011801712641 0.22558233449153073 1.110000145113055 -0.016048510200139785 0.04588107610204475 -0.3347474241652016
6.2 -0.35165085812542096 0.07289462400000868 0.5008183083560599 -0.8844555732536131 -0.09446742440485027 -1.103828247842836 -0.3196489474139623 -0.10344913796416502
6.3 0.12808393013734418 0.3866183284181529 -0.7786935214677325 -0.7287376290449562 -1.0916586022850847 0.43079776760851474 -0.11490326141597076 0.34350576678002426
6.4 0.3297869258100666 -0.15158673990508859 -0.8252301066123926 0.6004395620705352 0.7596304814996708 0.8371008391814918 0.28539845300592975 0.030439030466149743
6.5 -0.08234758171737569 -0.34541953106029744 0.2862795434238081 1.062399500536839 0.7330526997733021 -0.8468805317447329 0.07410377760725986 -0.27303357887384944
6.6 -0.3660584233070896 -0.0022558242586019728 1.0231687592576775 0.16999394764539297 -0.9394094130743004 -0.6522213989687099 -0.24412541899209342 -0.1959781256470339
6.7 -0.09291192079386028 0.37568315596808566 0.6439567868757463 -0.8527320550398139 -0.5368779040257546 0.9048932682342828 -0.28587659015810746 0.19408745962932702
6.8 0.411361358072213 0.11320588028516619 -0.6913557581390175 -0.7375243341002147 1.0804205032080958 0.2759851240504966 0.28664453744337925 0.3175614934437601
6.9 0.15254029734433733 -0.42968063309471194 -0.9312801400497671 0.42878173818334214 -0.2084886924215299 -1.0543283437835467 0.2437900168500762 -0.3717030218111089
7.0 -0.4484561760933971 -0.170276934153628 0.18331422427564334 0.9681668161011077 -0.9411340030707643 0.3358077689292879 -0.3959979962007196 -0.2324203475962678
7.1 -0.2621468280774892 0.38449332834277117 0.9569358235282504 0.2524975636321599 0.5584174128950142 0.9156854376450662 -0.23255554769806502 0.41533421078258137
7.2 0.3738239539558951 0.3021764989779536 0.5176762431290175 -0.8723450430654367 0.748878546142118 -0.6354814610796604 0.37159460431458 0.2469496968455216
7.3 0.33758906892515333 -0.3271579744165808 -0.6044635863490333 -0.7110600529671203 -0.6663241754431718 -0.6797912571774899 0.280777171044317 -0.3402614598841558
7.4 -0.3595635147865238 -0.3555724744864632 -0.8754002827817999 0.4123286677133423 -0.4769388361505666 0.8906681524185581 -0.380221149297996 -0.24822107101492538
7.5 -0.3982650079044533 0.34107960841826546 0.11652129586226556 0.9189301171543593 0.9064321889663952 0.22000819327221682 -0.22965960989700895 0.37448853420244155
7.6 0.36273749161589763 0.4524192487844476 0.9480639601969076 0.12544340661141645 0.07450848317611732 -0.9313492401436161 0.3857696353033748 0.2819715892919478
7.7 0.431714274082088 -0.30547595513900766 0.3391110808724993 -0.789951175745683 -0.9035850410201093 0.1447089592511117 0.23764596603018384 -0.41806211156042494
7.8 -0.27978414742847824 -0.4779464626770122 -0.6433041868283741 -0.6452209809315315 0.29955957069471945 0.7675893995122547 -0.38266256353410805 -0.23444541296550575
7.9 -0.46402662324729527 0.14099054921677812 -0.7745854350295908 0.3220670247089501 0.7754389567153311 -0.4127908645193541 -0.2396908340968249 0.39757852015568973
8.0 0.07041291479497765 0.4776400530731722 0.03709543145745147 0.8984070260796955 -0.49836420326445036 -0.7139886077972336 0.3556443491338853 0.19811229517662587
8.1 0.3953119338046273 -0.08090327425278075 0.8662828957077865 0.18518533405329118 -0.6017009224365757 0.6082260772737625 0.1631619388541862 -0.28055242194218927
8.2 -0.05396874193127859 -0.3636749279611617 0.42495405927163604 -0.7959621081284698 0.7584716812760651 0.44544489675755694 -0.24434078337718507 -0.16332306898575433
8.3 -0.3681214556908839 0.026760967903986247 -0.5957321795925247 -0.6171180977038928 0.18418360447729318 -0.7986952175776942 -0.17225661951173457 0.21550799809786114
8.4 -0.08765255968612841 0.36087613995520523 -0.8048165868951886 0.22374298697694556 -0.8182121228018636 -0.09082962360074222 0.20109219079570062 0.2237327255126452
8.5 0.36987363670048173 0.16377639456628704 0.035410658188687154 0.829939729251693 0.06786981977762777 0.8134492372782187 0.2683862741751094 -0.1915819536387112
8.6 0.25222392183840653 -0.3222860406250584 0.7222070377893671 0.17306418039483074 0.7114568077153122 -0.1697716163430801 -0.18412350816967066 -0.2908520768807571
8.7 -0.3365556322532928 -0.29530572478617717 0.34608569006304685 -0.6662833282041964 -0.3042972895746949 -0.6759581939075993 -0.32481907101892893 0.21280117933401738
8.8 -0.3241585880695207 0.26725324916268095 -0.4880436714873025 -0.5528481016875371 -0.5388962722763077 0.5180106904386674 0.250761503840504 0.2900145561589625
8.9 0.2726939153588898 0.34333942434768605 -0.7039066036125872 0.35271764279618767 0.5953313983374866 0.39222568572654815 0.2964202484438703 -0.19517502220680916
9.0 0.35651158227756957 -0.2108326378954709 0.08767691089234346 0.6841463511842275 0.302388370846695 -0.6581410560147978 -0.1754004848011126 -0.35644281846512343
9.1 -0.22432457152188406 -0.4243420315703093 0.6890664412850311 0.1940491139821947 -0.6654676566578525 -0.15300896097750993 -0.3792805940931816 0.1982557015577219
9.2 -0.39496602850895607 0.23099805555344993 0.3167669569673252 -0.631763310350783 -0.042446027453303704 0.6993629521099104 0.21415202908728068 0.37767788251526746
9.3 0.16889043262570913 0.4379393893241842 -0.5457758244140191 -0.41777192040674777 0.6973272733242221 -0.15247962857262878 0.3532763993706783 -0.3047673668515305
9.4 0.47315540239378956 -0.0741596005677481 -0.5317873180594453 0.35237487186387745 -0.2897680748428918 -0.57076996695047 -0.3670193833975046 -0.28874945728748924
9.5 -0.011142568398956413 -0.48575539606190293 0.09908991269517856 0.6663789435677632 -0.5704123021395306 0.3442104263252471 -0.30134605082397453 0.3026803055692932
9.6 -0.45720223978844354 0.028668998103891227 0.6714090083914924 0.08159376687839305 0.467794487875018 0.5056149211464026 0.24774996651463257 0.3089082493573753
9.7 0.008577763869516666 0.44897278323142836 0.2875155949854487 -0.5744201728271563 0.37452029375682344 -0.5355365585257355 0.30461723162025983 -0.21465628204523682
9.8 0.4321527906177221 0.03324014566727544 -0.4815188546591764 -0.4472425190797826 -0.6342285183278137 -0.26771615389855874 -0.23702498078376721 -0.26459247280751397
9.9 0.14204255431228952 -0.370122154353923 -0.57112764884256 0.3223888668942146 -0.1497498662868123 0.657156302849032 -0.23088112612577802 0.2525399551172562
10.0 -0.331944443304626 -0.1745109313649706 0.1789308251029528 0.6271042345578561 0.6447850371798325 0.16367885400072257 0.17236619688572513 0.3056302669002343
10.1 -0.22080865595774943 0.32207495520880186 0.578566830413761 0.12792153711788 -0.31132522467097296 -0.6119083771846889 0.27365435993405635 -0.3147785216944594
10.2 0.3275086883461929 0.2339083240514425 0.31897247473566925 -0.5431724666468207 -0.5002847070512125 0.3726147518607201 -0.2963362574786587 -0.2509630280794749
10.3 0.2947404337647487 -0.25347739910493977 -0.3912060723829158 -0.45642163813322084 0.42917297888022016 0.46905806796104754 -0.2712387351278722 0.29404321425253993
10.4 -0.1299295142192613 -0.37033256181813634 -0.5459607892085694 0.2594132610664842 0.4254860374928386 -0.5059885171976761 0.3354734666477498 0.2533730155693755
10.5 -0.39271145373041294 0.012356025217109831 0.11298277164941693 0.5566677015748355 -0.49086685607095026 -0.3674250656386572 0.21697250905715787 -0.31216184057286267
10.6 -0.038125089563133395 0.42881602873941843 0.5945936475293968 0.05676486739944628 -0.2901185583135584 0.5334424869498475 -0.3316820443742611 -0.20865560797433855
10.7 0.3921866595574071 0.05626428297974369 0.21565968108422934 -0.5202115873189392 0.6000396773124652 0.11649109079963578 -0.1542521339077107 0.3168189888536734
10.8 0.08919925245091069 -0.3614186737237432 -0.3850267539264144 -0.4519189405480454 -0.05472719178899617 -0.6173911564525723 0.2535564157143417 0.1755200168755589
10.9 -0.32722673408440456 -0.07117066553695818 -0.5747821839552434 0.23135906336022724 -0.6323083843476905 0.2508411082717946 0.2238522438767785 -0.21674525109423917
11.0 -0.07990683550352666 0.3182293761010125 0.04098080553227657 0.624867175464672 0.41502691161750216 0.511567319800314 -0.20242619452670846 -0.24812524182266252
11.1 0.31111207312858147 0.06649371059804841 0.6100049429857005 0.08070785808989187 0.41949829032996183 -0.47013574238280326 -0.2924495688617566 0.16933828737499454
11.2 0.136858958051109 -0.26699305608892476 0.30026496351084303 -0.49129713682583664 -0.5465715051408175 -0.32337050848963217 0.16175898186191046 0.33062664134922465
11.3 -0.2372922787053801 -0.2180871892807906 -0.3677665990118886 -0.46708691193193635 -0.21660223449466853 0.5813774110960189 0.3476077919515459 -0.16394719058503415
11.4 -0.27886895659033406 0.18032457638681798 -0.5584334412249874 0.19541466395090998 0.6497225304492834 0.13000797678180065 -0.15852538597060792 -0.3906699580795516
11.5 0.17586732836641886 0.3138692776188616 0.07086532965462594 0.5999774506948522 -0.015508875034146963 -0.6539758032053311 -0.4062572029623417 0.19925819682046136
11.6 0.313333362606833 -0.13716747505715587 0.5579163254564569 0.09644233528742462 -0.6137535171335412 0.08346169239497658 0.19591346338948942 0.3930962144025883
11.7 -0.12576351186189938 -0.3354645853932041 0.2524754813358582 -0.5695993730196568 0.20354619746641964 0.6420971845893406 0.4086894064142802 -0.20481932745199743
11.8 -0.3247799872402554 0.1398207843560689 -0.47141138383989584 -0.37339781350559653 0.5363671059581464 -0.38423771777657734 -0.2611623685546524 -0.40232292033845946
11.9 0.1197834571833878 0.3406410812060691 -0.5125742801249038 0.28590960800048704 -0.41125274282619506 -0.45407555945990474 -0.39144116701784837 0.2280951381736376
12.0 0.32539062619086173 -0.09072310712537107 0.06040835232703899 0.5592289166041823 -0.4120189917349839 0.47057402567232337 0.1926143030616707 0.4101859293639916
12.1 -0.020095395057687364 -0.3519566195651683 0.5407074939631257 0.18668534663872138 0.5069843130459899 0.339479274691216 0.4105746738029461 -0.147006353161569
12.2 -0.30754157692815215 -0.011331660700476517 0.36853503099589163 -0.4220698915608032 0.27080839557243147 -0.5604319683275836 -0.09449920132782008 -0.4059742970661732
12.3 -0.06902217437888396 0.2731075219622963 -0.21279433097406325 -0.516356661872532 -0.6225551759321445 -0.14433575895167344 -0.3753466675014265 0.08936889319889309
12.4 0.2480050657881994 0.0763765304076989 -0.5726935403554716 0.08526572527470655 -0.06850595594391344 0.6377282056527891 0.04075737292877484 0.3442503316881067
12.5 0.06498510918146823 -0.23787542274604045 -0.05472092668666718 0.5825804597927801 0.6544772176287839 -0.017035253922757267 0.339622080399039 0.014715012099109553
