!Created with skrf (http://scikit-rf.org).
# GHz S RI R 50.0 
!freq ReS11 ImS11 ReS21 ImS21 ReS12 ImS12 ReS22 ImS22
0.5 -0.027854135837442288 -0.14011666295946731 0.038083636567570564 -0.7932820070824089 -0.34919078162597295 -0.7248564605830526 0.027967926739966918 0.12813235767574682
0.6 -0.01422282408456579 -0.15588020017858797 -0.16580461130458468 -0.7365927871990369 -0.5883486796964045 -0.46548042789734406 0.12229247131779161 0.11239976821391119
0.7 0.01363000151191176 -0.14242560986981936 -0.4710376836008583 -0.6388952024134994 -0.7474356338904405 -0.15425907743519104 0.15770505233720847 0.06846983414573704
0.8 -0.002533103335585193 -0.1867557055677405 -0.7512066441044571 -0.3659651302167933 -0.7860099626282981 0.25027981938777055 0.1211667306566162 0.009408582509606323
0.9 0.0406756360038501 -0.16594673471935512 -0.9062891524610585 0.09990935464067398 -0.5779679930859914 0.666588315337403 0.08396955057962892 -0.054618779696713624
1.0 0.04177139110459845 -0.14261599762600685 -0.7411951507449511 0.6007457466628646 -0.06400234373102108 0.9247623282080495 0.08782451103024519 -0.044265553669905686
1.1 0.12383171619753577 -0.08926834631501855 -0.39470187395502154 0.8812458888567608 0.4341445951387469 0.8233795153988419 0.12028212217724664 -0.13886858186554293
1.2 0.21288585617839584 -0.07530495264335411 0.03060398812493748 0.971422841961857 0.79209610468261 0.4655746295848383 0.07569214786298084 -0.25569301124765714
1.3 0.21264678977413687 -0.11522964544344555 0.4596072479822592 0.8195837624828862 0.881685867135101 0.03725238947690979 -0.05633292548652599 -0.20837490244675136
1.4 0.2083637341077143 -0.15991189355904586 0.787590635252069 0.5529429578914532 0.777273565368763 -0.41586030337946833 -0.14501887134080266 -0.04321724626349887
1.5 0.10735090966291119 -0.07541872914793273 0.9115362095486481 0.1187903614328003 0.45242991375325825 -0.6910305413564619 -0.1330437643027303 0.07160280909539168
1.6 0.06421330295585116 -0.07083990761168045 0.8181299968484749 -0.27460028282534416 0.0524301938870042 -0.762582192062156 -0.042479636814340464 0.12876873905513192
1.7 0.07757992686685 0.026634887172740315 0.5385546508347657 -0.5707225699403145 -0.31934646807615846 -0.6087777980046558 -0.01871225878053886 0.07595453034961346
1.8 0.09346200608919807 0.060134538691548216 0.26141158437882955 -0.6584184532072539 -0.5210887214833501 -0.35158065246504194 0.022498968181461215 0.013950884216342973
1.9 0.10537685141297894 0.02226891422195922 -0.0151336183755686 -0.6568219002278786 -0.556955311385738 -0.0538532764379992 0.07375618044843926 -0.060940197255787344
2.0 0.12696057833107094 0.02157051690743721 -0.30652378962391974 -0.5284381797089823 -0.4851928471938514 0.18766777206700141 0.0617176604975199 -0.06007709955871038
2.1 0.06491080451229442 0.012784016233698643 -0.4586104854691888 -0.3396969931881182 -0.3437815253880329 0.35145333070511486 0.0237997185155758 -0.07998183255975755
2.2 0.08556746960961938 0.015136777107611162 -0.5337040404252682 -0.10626711446372188 -0.11778238174517348 0.4783833313625961 0.0727031959329743 -0.06545313452140566
2.3 -0.016968992283552344 -0.027098709796670256 -0.5330409332359278 0.15044610306908263 0.12292327101370887 0.47332146712508305 -0.06407998499932942 -0.07658033168547575
2.4 -0.052224449830125266 -0.05182859065779272 -0.3253473378458457 0.4864989355562354 0.45423063783928547 0.3105794924437456 -0.0820828286105791 -0.0052751239320079565
2.5 -0.11592445391698318 -0.029921969905242995 -0.6961490601012529 -0.13711763767668633 -0.7472009866816441 0.19209120824621825 0.14140922289438634 0.041103508513751046
2.6 -0.2219088180753731 0.19460849704176905 -0.5919194695710336 0.8457500342921661 0.48403550942534906 0.5283362459576497 -0.014320679068180962 -0.09145928145678385
2.7 0.22062088973761868 0.15109290384616886 0.951277607497926 0.4436222486474623 0.6567412038874096 -0.6487061417762878 -0.13362165355809663 -0.05649129052618239
2.8 0.30134075058940724 -0.28883005350526725 0.8952248091548377 -0.7835593629789074 -0.9505716637117679 -0.1973657737790541 0.0556582308775058 0.09050340851867197
2.9 -0.31980344395136895 -0.21998175487837787 -0.9000617519163899 -0.8553520468554866 0.14916697204653973 0.9122552682771352 0.10452970760213628 -0.06780796318480159
3.0 -0.3070991381394551 0.3062622587076509 -1.1202956899014243 0.41228389539347626 0.9232392286401345 -0.44241042928422936 -0.1278441326635393 -0.08126919481618679
3.1 0.3166082328440507 0.30359718518617157 0.3601796650727293 1.3666957132073339 -0.8671632967114214 -0.7185945198809506 -0.03771370927942979 0.1807561106238846
3.2 0.281224962370808 -0.2206734286813121 1.110995024342146 0.026684288138319925 -0.4411633580425925 0.8518763026526649 0.12701729844813264 -0.009182198624192906
3.3 -0.07970472358478572 -0.2588567051113184 0.2911856236628802 -1.3726621361175864 1.094470955533327 0.3889804802119792 -0.12533586068995609 -0.10239425960368355
3.4 -0.20555775846806218 -0.0722088580379026 -1.0982397681002156 -0.4481835433970698 -0.014472317438534785 -1.0781898432920383 0.0029806222416863797 0.18903507316591828
3.5 -0.2652488450966413 0.21470265748735656 -0.8863926243222079 1.2098836056436348 -1.1093896459497972 0.32352576634730207 0.22322608873975675 -0.14926366608795635
3.6 0.12506917936668127 0.28439326676655724 0.7721972883157888 0.9209890488616569 0.7694562545749779 0.967348312111696 -0.2304862151773706 -0.1603190935253032
3.7 0.40802408047291105 -0.06410757450928786 1.2672158765950707 -0.4248751121858482 0.607434227728896 -0.8919424818161342 -0.08588663570001061 0.2783677212115211
3.8 -0.04014540603147908 -0.345017498776549 -0.1555946768942811 -1.2473187440346158 -1.024259916265068 -0.5466846788031842 0.3228420334997761 0.05405170813163137
3.9 -0.23572453838843707 -0.13412784201708347 -1.309859795195022 -0.18340317288813793 -0.05455759076667513 1.263339745171312 -0.11190154134821877 -0.23392227668882556
4.0 -0.25688734027201376 0.13860124347048938 -0.3974202930391555 1.2004219695750022 1.0871750762402252 -0.13435542882110452 -0.1377828675518226 0.16255250762109896
4.1 0.024651092262098967 0.3012743214840667 1.0039377363722055 0.8069651598490671 -0.3156584462203516 -1.230248486107722 0.24086578319422935 0.141768588954471
4.2 0.32811331075800476 0.07378722327129576 0.9872360958968497 -0.8590586468946928 -0.996270924218503 0.7332380179748401 0.06961279214283711 -0.33070662147171137
4.3 0.1629309491586073 -0.32836134617218193 -0.32706218855941316 -1.115018288266627 0.7963324886355474 0.8289954546098608 -0.29112922941208275 -0.049642183936140984
4.4 -0.3421416514220592 -0.14484004809766302 -1.220435602979847 0.2029957255526979 0.4974238905507847 -1.2052569116061427 0.026825648972343054 0.31395084571203447
4.5 -0.2493606558882053 0.23941351129209099 -0.2062452596801139 1.1810047514568773 -1.2255370559189596 -0.009304756275058817 0.2907686802679354 -0.1515966692779593
4.6 0.13755097176752357 0.371602512035246 1.1662909503224055 0.4523267648966151 -0.07953411889445354 1.2433501074079023 -0.20989759634832908 -0.26513283631354434
4.7 0.3786688765748842 0.038103676195048654 0.7853288282127935 -0.8046540696310455 1.334207687205924 -0.2181012350718554 -0.16657963317194785 0.2951622849396884
4.8 0.10778272946599442 -0.4251926288280795 -0.669628474866453 -1.0615392481960642 -0.46347121431488414 -1.1057884188831864 0.32812535272219967 0.09774106883124178
4.9 -0.34862351391524243 -0.17379934975788286 -1.0647898735763734 0.3157092898390541 -0.9931824833055822 0.8038744600026242 -0.03517345228806599 -0.3930663839221852
5.0 -0.27741827403602737 0.24849473824683546 -0.05479072440088111 1.2033024755591677 1.0761675420292693 0.735562714662864 -0.3592111060512599 0.22242683637777436
5.1 0.054656926432614855 0.3133114886297883 1.0537324492173994 0.33684018273256205 0.5631423277716261 -1.1601082621836165 0.2680340231720397 0.24044489459093465
5.2 0.3948902544572573 0.1402673736327027 0.7336667073585078 -0.9791877270566771 -1.3178328072638723 -0.4157584262865292 0.17570170014939887 -0.32045699921769777
5.3 0.15852234365115667 -0.3079158642898257 -0.8323598520664153 -0.756181352902022 -0.10470687571686423 1.247105555954546 -0.3843246381708355 -0.08292163073582774
5.4 -0.18462920627684873 -0.25883973949441247 -1.097182872717015 0.4308263675104892 1.2319947257235346 -0.16349102462839185 -0.03447250123941486 0.43819054624095166
5.5 -0.3069072916422974 0.12172994013981832 0.177933124720777 1.0864159575738943 -0.5840260342910357 -1.171043539170488 0.4559636230774591 -0.13031804003181757
5.6 0.030109436521918078 0.29128675241898344 1.065887263564123 0.2598126760179561 -0.9078605150399046 0.7590785304203607 -0.16977737685280606 -0.40357887973466033
5.7 0.24378022637520866 0.09620778384214315 0.475169184552532 -1.025490373226321 0.8798805960435773 0.8250974715670064 -0.4373051878657978 0.19379971894749795
5.8 0.2651345004539407 -0.17586991922059725 -0.7865804975258843 -0.7184847311118697 0.5736383425728737 -1.073618342779475 0.35571741677366037 0.3687741825938823
5.9 -0.14119704666328048 -0.3732217263373995 -0.943178580255265 0.674656771978769 -1.0904533722660665 -0.36378055313594787 0.25271345745436596 -0.387089790958586
6.0 -0.4074784480502402 0.008408280676045283 0.256388432004028 0.9859027751985743 -0.1818280349257238 1.186177495498069 -0.4613490716385212 -0.16097915585253994
6.1 -0.10009043274668082 0.4123804183876954 1.0689735710691937 0.173558354124629 1.1015331275356126 -0.06797783719633231 -0.10324624211193363 0.45594506452533895
6.2 0.36552408640952955 0.21751059183529847 0.46751079625012704 -0.9238156312635175 -0.14870546744628804 -1.1187706473380468 0.4413648661817058 0.04366609139479253
6.3 0.3434424436352709 -0.3330163611338218 -0.8528163122951624 -0.6871878115371045 -1.0850793984843004 0.5237017767072226 -0.09604378551348729 -0.4317359598696937
6.4 -0.30931165780756287 -0.3819860700201733 -0.7563152901592264 0.6741505722008861 0.832401924927071 0.752522561937121 -0.36965971837584444 0.18999966802213164
6.5 -0.47512487782317003 0.16001804493546165 0.3668248803726146 1.0011845913283717 0.6358422623864386 -0.8796974584806225 0.2601781160865933 0.3098078637092111
6.6 -0.08243217783080613 0.4493605188815355 0.994675759089227 0.11652942838070558 -0.9365559667669239 -0.5857924493492348 0.26611808635504747 -0.3497247316482636
6.7 0.3515288432710664 0.28798496855579975 0.6074334611134744 -0.8481156445245912 -0.5018294062427254 0.8965173231115989 -0.37564152800667316 -0.2169994991987616
6.8 0.36028325538367273 -0.23002022774263975 -0.702571165534355 -0.726651071750788 1.0842346241903713 0.2593960263589124 -0.03931580255484845 0.43872189147513296
6.9 -0.09112337391562463 -0.4494606553430541 -0.9325465121005813 0.4393558430179361 -0.21866172133256886 -1.0581873510035933 0.3956119552007939 -0.18819331362128483
7.0 -0.4847710768267019 -0.04595168205519846 0.189913098635962 0.9723062528341747 -0.9443257942127966 0.3430943152620371 -0.3104163228316047 -0.3156152783941017
7.1 -0.24998835616448417 0.3966681262698565 0.9585748259400755 0.2519460220307401 0.5599792193147003 0.9163284363695567 -0.24318791356048397 0.4031015127998468
7.2 0.30735284861050294 0.37618916089609683 0.5187061834925415 -0.866803702284773 0.7481703106823718 -0.6300246807437411 0.4248319071482607 0.17245442271614614
7.3 0.4404420441497102 -0.15598941312556716 -0.5961323677165075 -0.7089441534517762 -0.6575097082110836 -0.6782977011506511 0.1243155836551718 -0.4502994345366554
7.4 -0.05421449455101431 -0.45228626516811854 -0.8755349981108046 0.4070780489577577 -0.4804459123014676 0.8863067108005688 -0.48605283287396894 0.043424794563015505
7.5 -0.42757136621765623 -0.07100231156303533 0.11550124241775125 0.9265325555261013 0.9130589410903072 0.2239205891162994 0.14872821771898181 0.44075970102690903
7.6 -0.15581023827422752 0.41676284299926936 0.9723375209556524 0.1129468456084844 0.06126001019090891 -0.9545228431160112 0.4449291344829824 -0.20629160145990572
7.7 0.2699286741479499 0.22343873268179007 0.3261197300595237 -0.8328051138594207 -0.9348800612186976 0.1807167222080421 -0.3347444868448855 -0.37063444915788724
7.8 0.29577871444388737 -0.1615508974049462 -0.7021568043603615 -0.6405088338390074 0.34987598811474074 0.7852365804053824 -0.30342010914378276 0.35951482535386525
7.9 0.05008395205583365 -0.30676308843422784 -0.7950526654554255 0.3712447400778636 0.7919508450661266 -0.46598753168648255 0.43717528083036017 0.2549192690372154
8.0 -0.207146037643805 -0.2549913566632943 0.10208955405735302 0.9359164793804222 -0.570857462316295 -0.7107441191686427 0.09894971185210855 -0.5037031355858731
8.1 -0.3841891605089161 0.10729226478999332 0.8765642667338722 0.1068145776436071 -0.5436073012396182 0.657242787187049 -0.5208611335029366 0.03861710916165734
8.2 -0.010053407980345801 0.47068450553965535 0.37188702457874406 -0.8008278803715212 0.765319973538516 0.3940518698865767 0.17435275125209018 0.5104086936892192
8.3 0.46485884975742353 0.12565443323505773 -0.6268171870514613 -0.6067332483823458 0.1600190266816349 -0.8178944677654201 0.40677602300048654 -0.264036531401118
8.4 0.2851527515429541 -0.3801955931428027 -0.8245121951370153 0.2957656155937806 -0.8629465413814833 -0.032235889601490875 -0.28870804555155843 -0.3677709968325493
8.5 -0.2716793799866717 -0.35317801247645914 0.11132104507914964 0.8853311310899089 0.1444760352697132 0.8647380980409127 -0.21531710481826616 0.3827515408664139
8.6 -0.3523886671241821 0.09221279031092988 0.8273270969863855 0.13306352143355452 0.7864875227773857 -0.2517007967383544 0.3695052030031043 0.05044992857102185
8.7 -0.05746124531520036 0.37088754246580863 0.3210234614404449 -0.8077460112826372 -0.4293714161669574 -0.7432054831007554 -0.08606809743815767 -0.35336156361403703
8.8 0.30965859576010757 0.1483342799680836 -0.6058092635468882 -0.5573504826395932 -0.53869275906333 0.6373491796644593 -0.3022479811245375 0.17354852219322958
8.9 0.2756236542318579 -0.24943927396879936 -0.7321684474490399 0.41172037520220756 0.6548244865713694 0.38804530237101775 0.255551585513278 0.2808219778000142
9.0 -0.07305619485462485 -0.3354463647331556 0.110982176808246 0.728809458073914 0.3064584397115849 -0.7108835684032799 0.24156332788062013 -0.34957937465760824
9.1 -0.4286960068397378 -0.0999218897868985 0.7297631388213622 0.18873570581125607 -0.7039756508527265 -0.1461463207159438 -0.39798577215607345 -0.11834019280169271
9.2 -0.17331544717066755 0.40770244708911313 0.3180284316632156 -0.6514462406083709 -0.03596401839989388 0.7178834475101107 -0.03060537776942852 0.4106517852191179
9.3 0.3115241177271083 0.32947138781334545 -0.5535983805268411 -0.42693739501256855 0.7098412581623269 -0.1523831470981472 0.4270851711286138 -0.15204238887324834
9.4 0.4505111978203958 -0.14829857948744465 -0.5373483586796917 0.3558364165386623 -0.2924915787269914 -0.5767782742891009 -0.3118314779702703 -0.3345993683913831
9.5 0.0015120664184533426 -0.48893080803511646 0.09935978380905484 0.6659609055129435 -0.5700450814690886 0.3441731694850671 -0.2921840585578902 0.31032629411243035
9.6 -0.45217522689908385 -0.07995350186893951 0.6674524615243803 0.07897607289333701 0.4663664857154531 0.5010143066403707 0.32313784779599203 0.24165018970439295
9.7 -0.17998413767509758 0.40832095704981897 0.28090057849290107 -0.570066795534493 0.3672447322629974 -0.5320995954700901 0.18295251426541384 -0.34672855696880595
9.8 0.2930065347933712 0.2873554694799883 -0.4818374039762861 -0.43619471304882484 -0.6306037989672635 -0.25682134949964 -0.39423444492264753 -0.04185432486642026
9.9 0.3533068615436741 -0.05887338380336482 -0.5689047103180013 0.32278820420660737 -0.14828346447413213 0.6557417900592141 0.10300351558816892 0.35260774088585073
10.0 0.10257239789476459 -0.35051118112855273 0.1652003037115031 0.6404246050101605 0.6496522047482961 0.18277677004133175 0.3203889944378206 -0.07909504305928593
10.1 -0.3074695848736304 -0.19349469650693263 0.6169660151444696 0.15501178193665918 -0.3149798465603963 -0.6665048235669897 -0.21496055514292786 -0.27836927983566034
10.2 -0.2815064788485864 0.1975041820559619 0.3583212639482191 -0.5913975583548526 -0.5548393008918412 0.4012653689002297 -0.20950933130875635 0.2619273558005648
10.3 0.06501935263022196 0.3382830079929757 -0.4210830597807668 -0.4995143351793518 0.46210681179941665 0.5136345356999839 0.2858210811689921 0.150877380246078
10.4 0.37073552596755655 0.11517047814180426 -0.6142715772687009 0.2522819583567199 0.4967286288604186 -0.5297427069625129 0.04535596466106357 -0.3078076360434248
10.5 0.2096609667151467 -0.3302389748652786 0.09088034274104637 0.6371795323891317 -0.5308761399529481 -0.4483905070969224 -0.3070784310738505 0.02509516512932232
10.6 -0.25157153278600375 -0.2876495930308805 0.6931985716597174 0.10461053613138989 -0.3744050145761055 0.6069036374406436 0.06567620367221909 0.30903362811290036
10.7 -0.3214418075379162 0.1248075575970487 0.2899983193771511 -0.5872814689819488 0.6876312205852121 0.18139329322358724 0.27536063802112576 -0.17663476336641462
10.8 -0.060899815571122576 0.36281644195144447 -0.3805309443883758 -0.5482127002715445 0.007504993059416807 -0.6970078509130053 -0.2618870268010333 -0.20628662296143221
10.9 0.3273945061921005 0.21434663129612966 -0.6528260898170305 0.16720199598625896 -0.717677876894428 0.17988906310487704 -0.11949325656144989 0.39918548112692004
11.0 0.33408283851059123 -0.20690910514460575 -0.09550369280743885 0.6673945303676164 0.32348644672740967 0.6313194870501408 0.444082318412826 -0.022505099682910173
11.1 -0.10287834645886752 -0.3730386469135708 0.6238440891233775 0.23361870692208747 0.5571688294787658 -0.393944719830893 -0.14435755064488273 -0.44810401136984745
11.2 -0.3163147341568562 -0.040129969804840356 0.4257065831626784 -0.46146307275205467 -0.5154666005543068 -0.46248690510227564 -0.42436736506046785 0.25276432815108424
11.3 -0.12572564836862823 0.22140688684273013 -0.3090894255144036 -0.5684306000993281 -0.3390364681720757 0.5841564547897484 0.31517372514477554 0.3515267502297146
11.4 0.10508757748819081 0.17233720303805053 -0.6252350722454001 0.12853622367261128 0.6758481853450343 0.2327855060338428 0.3007117210994099 -0.401585980671597
11.5 0.21582799136219397 0.004492459145914046 0.021150805500049802 0.6475323818619809 0.043193144261878647 -0.7004369829641935 -0.48275700443168795 -0.1515304312950717
11.6 0.10727733491930658 -0.21853134952679548 0.577840553729087 0.12017030218098297 -0.6425653281113329 0.06535194839800643 -0.027205425972959493 0.46292069777723155
11.7 -0.20935293012595563 -0.21182171939025463 0.2690404847040128 -0.5724739925874588 0.19215709096733347 0.6564605454097003 0.4756179273938244 -0.06089124883062445
11.8 -0.28823000657102993 0.178668496043163 -0.46974353589832435 -0.378169037672094 0.5410394928495389 -0.3807869295724713 -0.21491394820577928 -0.4380827834012472
11.9 0.0898238135907812 0.36181717816102554 -0.5100478754607319 0.2895160487577635 -0.4141839639249178 -0.4507434333724513 -0.36421956348018514 0.2547736309720231
12.0 0.3596666398383492 0.02267130222361451 0.07543118786572503 0.5562930302236911 -0.39841034490082444 0.4806229397275167 0.2918874897469899 0.31908362193388795
12.1 0.18490424380597703 -0.35196904176505966 0.5434399259750523 0.15979442587839104 0.516908937576566 0.31294685359239316 0.26429119082324 -0.31045581850172504
12.2 -0.23959341226667086 -0.2797907391959362 0.3367349843318953 -0.43316554761569165 0.23349223256165005 -0.5629945516596258 -0.323623737269484 -0.19704250578620064
12.3 -0.36486869444261577 0.0745464630809581 -0.226384409502617 -0.4820809055060844 -0.5997050575924402 -0.10907092158920051 -0.0944876755511835 0.34623037054151773
12.4 -0.06927237064414553 0.38635722785415594 -0.5320270214549093 0.08165566301511748 -0.06075128166861113 0.5931424289588327 0.3274241508156665 0.01368853730116575
12.5 0.36010090082864027 0.1940689883306628 -0.07923915790029672 0.5384279570870375 0.6085525440334151 0.01595961971614037 -0.04022456733889543 -0.31841604166403725
