!Created with skrf (http://scikit-rf.org).
# GHz S RI R 50.0 
!freq ReS11 ImS11 ReS21 ImS21 ReS12 ImS12 ReS22 ImS22
0.5 0.10671531225714309 -0.05580310142779129 -0.9191677753358678 0.09786392245795122 -0.919515136959631 0.09634600785585938 0.18635260889084304 0.060082650950379304
0.6 0.09782389719901868 0.08986116288785796 -0.7970941346307714 -0.4473085581696037 -0.79710632501129 -0.44644078805342347 0.026071238478374045 0.17663460715212842
0.7 -0.04276590888318498 0.15157887241161486 -0.38798476822011574 -0.8184179990706621 -0.38872917821627356 -0.8175110095152458 -0.13345765702535378 0.05951721816658507
0.8 -0.1603446471407227 0.06287079909735373 0.1578493025744026 -0.8854665572622885 0.15905048577262285 -0.8862777236872356 -0.05197912898010587 -0.13860391066262806
0.9 -0.16138488162741083 -0.08845030326874942 0.6356005846100286 -0.6291793522362041 0.6395015945960214 -0.6275649156060747 0.17826850135919603 -0.13974518613451956
1.0 -0.03896913077998855 -0.16860086434729768 0.8753192449504602 -0.14456716917210877 0.8750977519443761 -0.14132742940291743 0.2745163673288515 0.0924696438874914
1.1 0.10231852814588523 -0.08770237940152216 0.7883469359685408 0.38652514513855546 0.7861713965971491 0.3829753895877306 0.0782845837220665 0.2859928701750406
1.2 0.11850191264446741 0.06960543693480359 0.4092710066635202 0.7668244531655013 0.4158677883914093 0.7601429513235516 -0.16250181932681643 0.18033124712113452
1.3 -0.02442983626202945 0.15467962353980358 -0.11160486049151574 0.8551303567249078 -0.10163347204994772 0.8611749191665516 -0.17333873640652742 -0.07444512452245648
1.4 -0.17211199946103747 0.053789832916885987 -0.5798657192217996 0.6284658397136447 -0.5835691842242265 0.6410684693286784 0.061261644629886786 -0.18776009884312939
1.5 -0.19154285743266294 -0.11861404976863527 -0.8343687335299099 0.17822814082837915 -0.8466316278697059 0.17388308672635194 0.23691087182775944 0.018275944947702252
1.6 -0.05812566791344403 -0.19828110544293337 -0.7826193461883975 -0.3342515476800967 -0.7787245364893253 -0.3490938373867874 0.07904534139059574 0.292141849878381
1.7 0.09117559496369564 -0.10524290463790006 -0.43956485270683576 -0.723521441786382 -0.4262557495943996 -0.7196101449129019 -0.24742831644151486 0.2444758705947287
1.8 0.06849727214034528 0.07874239422962104 0.0692587546191645 -0.8359565338151325 0.06033836485503291 -0.8190108419746038 -0.35090468591277546 -0.06618799395591621
1.9 -0.13164266516890016 0.15978846354087795 0.5378340453728673 -0.627447102768511 0.5126932863538194 -0.6319427077181892 -0.11988730617346287 -0.31388829568244303
2.0 -0.2933006364313371 0.03363026475548363 0.7889357252763862 -0.19420950329715925 0.7869777473995976 -0.21684935922771345 0.1965240234397041 -0.19498418106153306
2.1 -0.22678178414885342 -0.17932102769901806 0.7476738929740545 0.2901456001474508 0.770644982706424 0.2888402247465145 0.2069588065258721 0.14307241826841588
2.2 0.009315230973233106 -0.23803705449280393 0.4437187251977509 0.6554882586002599 0.449168973899039 0.6767026498298125 -0.11222492150960056 0.22213087833401524
2.3 0.182088684980806 -0.1566700288414344 -0.0806976062787396 0.7578563582674073 -0.09782206226633366 0.7612357319356868 -0.33190898334981844 -0.024827368775059894
2.4 0.10525750564470511 0.09739158826659619 -0.511891768048202 0.6153308843339572 -0.514868567232686 0.5985338897005665 -0.09896159345252736 -0.3360963761977161
2.5 -0.13008611833978437 0.1713852063316294 -0.7696621647933166 0.19860167850378668 -0.751250438604889 0.19748833569398577 0.27859685131293777 -0.29480488755328166
2.6 -0.33510923379936075 0.00655762626843482 -0.7286919920703178 -0.2909647636774429 -0.7246333569265336 -0.2708678506329762 0.4047103814455172 0.08553856367436245
2.7 -0.27977118892332703 -0.25235050969562095 -0.4139577869096396 -0.6591844644726536 -0.4302495331216061 -0.6561754427445737 0.1091997643969884 0.32836159555943417
2.8 -0.005777193211556592 -0.3658191998885332 0.04054409276784815 -0.767733840040428 0.04140865762584017 -0.7894455796185886 -0.1826296933259612 0.16070870091235695
2.9 0.23835711685062105 -0.21720829286177223 0.46338003775797865 -0.6025371867712663 0.48983308509932666 -0.6100021673771236 -0.11434970285449224 -0.14658811932410407
3.0 0.2415235904045956 0.07454553759096483 0.724689513547886 -0.23341068163048162 0.7419087848381456 -0.21494766193848655 0.1963999235697904 -0.16118145827061164
3.1 -0.015836698575223206 0.24686429470029778 0.7344370858885102 0.22516570747635628 0.7252560973065605 0.2394379060406742 0.31706924396936365 0.14616575457449998
3.2 -0.3009635288579087 0.10268553699003834 0.4649903530933266 0.625165746639947 0.4528082532327394 0.617176480243751 0.06888000033096375 0.38089165985965323
3.3 -0.31389746888861864 -0.23132419446779628 -0.006367095549544843 0.7811924691409267 -0.004048220978949593 0.7711894711321686 -0.26548295496518864 0.26618304923682146
3.4 0.005669310910100339 -0.3969881216006088 -0.4738611906396498 0.612102880512592 -0.46981580454044874 0.6132531429087881 -0.2843268319802462 -0.05511254145842513
3.5 0.3215161572632981 -0.20318445652287215 -0.7265929743367842 0.2138896441340348 -0.7285020432609894 0.21346145645518255 -0.009837219101763349 -0.15420408105237582
3.6 0.32301051373878503 0.16664277637592917 -0.7043069664134952 -0.2263556310700384 -0.70210568111282 -0.22861917250141653 0.16187935732506445 0.0807590910929005
3.7 0.038572011440890605 0.3843457290277236 -0.44949295151219004 -0.5721745276064891 -0.44768934657329895 -0.5705602047820871 -0.027639467368940067 0.30864463974737627
3.8 -0.2758781035797338 0.2647243563294571 -0.0452099684464629 -0.7345454702747695 -0.04638017269947256 -0.7396357007888485 -0.3292150234988751 0.21275634994807235
3.9 -0.34151040482675715 -0.05159470460608524 0.40452852229421055 -0.6439504705730139 0.41397836853460174 -0.660088713976783 -0.3748436856425655 -0.13786660348504445
4.0 -0.10212606503299888 -0.2969572350052172 0.7261183579604154 -0.2856572350461346 0.7500041712030212 -0.29116683505630464 -0.08109601530770535 -0.37152763030658936
4.1 0.23043699273343202 -0.21112619655449547 0.7612334673560468 0.2182766123689598 0.7664538052811087 0.22428001769747008 0.2525234045954619 -0.20322432168948476
4.2 0.3395777977466941 0.1164969226934004 0.46982755405890764 0.635766019123776 0.4543073503419375 0.6185874873291699 0.2095963045207101 0.10636357658022591
4.3 0.09140837653736245 0.37686198269586674 0.002475875325636978 0.7799395725360316 0.009259743796610181 0.741424976039873 -0.08407036187211882 0.15011652463723232
4.4 -0.265771542115517 0.3227053877552785 -0.43334025300901274 0.6305840955149212 -0.4031491225879284 0.6135347338360693 -0.22335070379518276 -0.10107776676407093
4.5 -0.43652914828971545 -0.004689784915410722 -0.6968800209059156 0.2800221853494951 -0.6887277907897916 0.28863988882638875 -0.042761680477618594 -0.35180312241684425
4.6 -0.2655925082795095 -0.3092475505237023 -0.734652876124833 -0.16229696124808052 -0.7563107772341008 -0.17336007961147964 0.2761692222677127 -0.2607048421169946
4.7 0.09117542847081328 -0.33807981663442527 -0.5073650150369846 -0.571649672361486 -0.5093493644640184 -0.6088282404437892 0.32933311003985777 0.07289697224139821
4.8 0.2795627759214697 -0.02041496878936186 -0.05949595431770466 -0.7828834639258326 -0.03860160445766142 -0.7883915777637719 0.042772419736948314 0.21633410076656373
4.9 0.09050948540004979 0.3038716546698963 0.44144159231166136 -0.6606831264169637 0.42373814922585906 -0.6340659716352053 -0.14948638087505345 0.0263896395201053
5.0 -0.29344164772461606 0.2930111540062578 0.7400131814145952 -0.2592227422249191 0.6899124167056542 -0.26385532910282883 -0.022068782531181122 -0.19848879640830627
5.1 -0.4796610207856317 -0.046598569384940336 0.7292358851849918 0.21607497533378545 0.7166721091538047 0.18304151631312687 0.24356319723340827 -0.14726204619851624
5.2 -0.32822832193452767 -0.38964297645282076 0.46057824811201764 0.5692162002170915 0.48837484023154387 0.5771962893208287 0.3184154332507148 0.17578731982432252
5.3 0.0020660747481354436 -0.45790143986871057 0.06395469985185992 0.7196812885088409 0.05846944092316708 0.7746712542060181 0.012201579836918108 0.40497910846861873
5.4 0.2775871693342467 -0.239264785205349 -0.35666885458852277 0.6396075021488654 -0.4073893235687772 0.6609961573527996 -0.318238896239767 0.2530633589762882
5.5 0.27941102765515535 0.09631286548006475 -0.6767331260573383 0.33756174817731516 -0.6925778412998085 0.3058798520929138 -0.31946720361874986 -0.061109738104595246
5.6 0.01990559301282709 0.26467208027731093 -0.7709123189656214 -0.13636559431251885 -0.7257494054006438 -0.14324705403527807 -0.09920898603771561 -0.19316180569432162
5.7 -0.2709897605180453 0.1191533728984123 -0.5388442155548766 -0.5868573901309977 -0.5090007166905088 -0.5362767502893461 0.06824744006932662 -0.04842840276854646
5.8 -0.2661109183906509 -0.22353380624428043 -0.07036746136213576 -0.7865992021827235 -0.09295416140983903 -0.7524695761835108 -0.0016378673691888335 0.13752125593146192
5.9 0.019596787409022265 -0.4335673825215407 0.3957819313555824 -0.647113548051173 0.3908161046039002 -0.6684250743156295 -0.25393844258093445 0.12000612341949146
6.0 0.34236922785603846 -0.3323175429241043 0.6649966241854155 -0.2855562576744388 0.7085103966421707 -0.3016668867966015 -0.3414794096330892 -0.14829243806313328
6.1 0.4652851444038121 -0.04678828744741367 0.6867356313464305 0.1332400875621435 0.7241532704162785 0.1544479337046893 -0.17236941263919456 -0.3626316585393502
6.2 0.3243160820350298 0.20977991568370796 0.4876077635993744 0.49909209688941825 0.48899171493225757 0.5120724890186952 0.0552801080446943 -0.3609315448316934
6.3 0.06704038667711265 0.25548667434671235 0.10785926134707394 0.7066542819352716 0.10635138511364484 0.6865061999520756 0.1658928056129184 -0.23564653516592152
6.4 -0.09306516771403377 0.10975726875255047 -0.3429039399183186 0.6532274009033275 -0.31732822282280326 0.634004356169345 0.13212678707050324 -0.14148626510974893
6.5 -0.04419018927129426 -0.07719752909055179 -0.6825648923013076 0.3249969362594045 -0.6613490119565132 0.3346243191212415 0.07313295974171759 -0.16012577875173312
6.6 0.14174723958419913 -0.12964596937746115 -0.741993760631577 -0.1366135258773366 -0.7513484292046221 -0.1279835017788996 0.12311694719237265 -0.24980123780734997
6.7 0.30554058077060425 0.0026679816453874516 -0.5018459667278679 -0.5291045370547681 -0.51614443766636 -0.543406640832112 0.290159239470724 -0.24433132351631237
6.8 0.31592085440898 0.2320699233728523 -0.07982504557875883 -0.6842055543841934 -0.07812264157331977 -0.6998048152050391 0.4334625149555875 -0.07537499707312906
6.9 0.15005690762922316 0.41312949810910343 0.3290593749781603 -0.5676285967907359 0.33090086785799366 -0.570148027939276 0.41997815651074955 0.14821263881738075
7.0 -0.09871619022117795 0.4328978489518916 0.5874660109216804 -0.25638027405501423 0.5803546159997255 -0.25951566263341636 0.31153542604987305 0.2949552919862855
7.1 -0.27942475221203134 0.25717515340364744 0.6442899627777818 0.1283080760886234 0.6388943948391089 0.11758354188049257 0.2047669763834728 0.33597062352244406
7.2 -0.24538776063021606 0.01564740994583523 0.4863341917261411 0.4893903532869354 0.48821611746070326 0.4830744196848511 0.14014948103694702 0.3445163496425076
7.3 -0.03778395652125758 -0.10035817563183333 0.12300028361691595 0.6978904643777684 0.12593955892007958 0.7006718675835412 0.0891869074046763 0.38192580557498773
7.4 0.153776157684821 0.04369106494272715 -0.32045140324873 0.6371891367843453 -0.32092505542414074 0.6425246662034989 -0.0019907928409405723 0.39122076820701335
7.5 0.10729031752952392 0.2849322731294676 -0.6332500618634919 0.30421929249830904 -0.6343842310447069 0.30533788631025854 -0.09151362417430928 0.3705198256062607
7.6 -0.13822201996070907 0.37052672157679145 -0.6723821457503139 -0.1327297618287797 -0.6737780680206483 -0.13645625717526208 -0.15867448913502963 0.34284778390439086
7.7 -0.3687808436974175 0.23132551363311665 -0.4513945023634498 -0.4853688743668668 -0.4541199884116005 -0.49515253824135963 -0.24633105531661217 0.3306133300212055
7.8 -0.42823503444528904 -0.04685977272441824 -0.08665649305434658 -0.6401779521235675 -0.08866271777181256 -0.6560259910288353 -0.3696853049749211 0.27713532485022074
7.9 -0.29147535612252734 -0.2965802112115813 0.2929368670950512 -0.5589290712554335 0.29504620156576 -0.5764462856087548 -0.49776119508152444 0.10757683982613099
8.0 -0.004480115261747075 -0.37267706222493263 0.5600140873502207 -0.29390309858951846 0.5633948552265305 -0.3067297451274994 -0.5024954179619824 -0.1090748510053047
8.1 0.22869733542098605 -0.20278126622005854 0.6493872586664914 0.07288269384077138 0.6483662144895214 0.06945860961825964 -0.37256649881758985 -0.26966865805343065
8.2 0.2271724311349811 0.16256158673526122 0.5080228417221664 0.4367445328373987 0.4979831451689353 0.4373950265845056 -0.29354908108342803 -0.28807806439091166
8.3 -0.13951636571308737 0.35068813296565177 0.14352062142629846 0.6600061512642947 0.13141228428211896 0.6551274617662622 -0.2664933346148191 -0.30381834559000753
8.4 -0.5291200409543203 0.09541078270471207 -0.30015561795343926 0.5794991795550639 -0.2969886557702248 0.5765695410556146 -0.24258705443126702 -0.3969557885705714
8.5 -0.49454090068613077 -0.4213627385897021 -0.5657145736441299 0.23313304666169557 -0.5570459477859252 0.25411968025662707 -0.12430343749037381 -0.5084215100535183
8.6 -0.059742334363041716 -0.6771809832931379 -0.5638690672522886 -0.15344153241712807 -0.5770245652000572 -0.1189557361869013 0.07011756098916272 -0.5050542537670419
8.7 0.4026370328163448 -0.4891523028867897 -0.3876383367171951 -0.4306611502928126 -0.41814753495355045 -0.4144822017302696 0.1446047305569072 -0.42396181054341986
8.8 0.5515104404492146 -0.03936178780184203 -0.11124085111417277 -0.5710181075476551 -0.12352575707080012 -0.5819865098719079 0.1541004799305321 -0.3935935272690107
8.9 0.30965394189094875 0.335703682468799 0.21810952219679258 -0.549618247105179 0.23804563619862507 -0.5522224254610097 0.23544537057813691 -0.41570608888223426
9.0 -0.11278397994728379 0.34873741309059775 0.5158003863283179 -0.32459120838472016 0.5311116892462281 -0.2974092855936873 0.4195999979911421 -0.34189580897898014
9.1 -0.3288643053505809 -0.005605339292990286 0.6257058138394304 0.06818422465102919 0.6100395883759456 0.09254514119962759 0.5594285773006331 -0.11319705994530715
9.2 -0.12639786627689528 -0.3701056769984705 0.4536225524764431 0.45329204693559677 0.43856915706276595 0.4457917911107203 0.5130191788914772 0.1674424042416832
9.3 0.3071505208280502 -0.365782605331207 0.0946015029116235 0.6349446008100498 0.10742945637092727 0.6272139191037704 0.32445751145173607 0.2844365671136002
9.4 0.5480382623589614 -0.006376654033812351 -0.2644856784179138 0.5638148055972881 -0.25444832408353835 0.5816705613420748 0.20478687969423554 0.22130494848641352
9.5 0.41268242402120053 0.41162194179080713 -0.5029289161351256 0.31289478607215576 -0.5190716118427753 0.3260630796602171 0.25369730029015447 0.1723981045242945
9.6 -0.013332237730998231 0.5692001366218435 -0.5646070282258987 -0.012454565365148385 -0.5759345388087627 -0.02753619518754785 0.34251733396249234 0.3213755543608369
9.7 -0.3926699266371439 0.30004894825115863 -0.45063122446437504 -0.33721465573846043 -0.43021458077881025 -0.35201112662420103 0.1994742497496801 0.5531209674031451
9.8 -0.36602901619302647 -0.17482712266442957 -0.1643444214875846 -0.5572615000788447 -0.137546231222455 -0.5415307866815381 -0.11962992146037602 0.6191442192096924
9.9 0.08905678228293296 -0.3691120386081206 0.22459189677444302 -0.5697654681953732 0.2207698498288195 -0.5454424197077543 -0.3691234612706292 0.43266413643030144
10.0 0.4805943198691615 -0.03751787993242864 0.5306669228703168 -0.31736151863892903 0.5168068503612304 -0.32130455577003963 -0.4042447264914676 0.19009001911315693
10.1 0.33225940702003964 0.4964732609355302 0.6069899348696632 0.06440403236906253 0.6182268004348881 0.05165432556579803 -0.26594473430202664 0.08515641893822433
10.2 -0.1909372064340674 0.6406286188146467 0.44312519385782245 0.39295294003963976 0.4630055467683485 0.40108812856643966 -0.21452649026086365 0.1318575594775797
10.3 -0.6103171168732349 0.3061310763226651 0.12962002754519816 0.5720344647807669 0.1304349263947011 0.588013347777274 -0.3162880467726124 0.111732766371712
10.4 -0.6041036792765324 -0.21262640055559429 -0.22214826325176387 0.5552073353109787 -0.23069312301268863 0.5566416391007031 -0.399346130692277 -0.07018335485825011
10.5 -0.20486204661962337 -0.52120762962295 -0.5124434161721865 0.34829913352451647 -0.5130343801884639 0.3409725922656483 -0.29948908464462687 -0.2767014673029363
10.6 0.2759289593120915 -0.41168780807513117 -0.6306268935817322 -0.010184914920067067 -0.6258083085747269 -0.010242662781864809 -0.08344043714280854 -0.34008027947174063
10.7 0.43471815989184265 0.010601383380249518 -0.5148653117611112 -0.3747300808754027 -0.5142684728550271 -0.37120800309245583 0.05014810174422289 -0.22105442709034567
10.8 0.19281207876547898 0.4137502028939215 -0.19148222289865685 -0.5949990675262253 -0.191792204972226 -0.5938547140367879 -0.025368941995228517 -0.1706633267776539
10.9 -0.27285634064689185 0.4342442919139192 0.18710322467371907 -0.5753149374851066 0.18958675447946854 -0.5726973858058847 -0.045058627887163465 -0.31684583910075004
11.0 -0.5502209780513516 0.062469896730864505 0.47528579553944095 -0.3396957845811158 0.4762773992656789 -0.33257064989737906 0.17752664480741753 -0.4404246094124738
11.1 -0.4128823407292852 -0.3661792275628984 0.5732308075446495 0.010254106727015766 0.5677054090131295 0.014752606343156616 0.49543779797818 -0.2904659385013879
11.2 0.009912537475314759 -0.486377705817726 0.4579490580764829 0.3588249629035358 0.4502799956733345 0.3556374520243648 0.5576358813250264 0.1038179511241474
11.3 0.3014753978824812 -0.2081897608671416 0.16245426428958926 0.5813041825675599 0.15661048356466858 0.572621062619569 0.2513033371048512 0.35399437103192394
11.4 0.18941054834196486 0.16485694127980777 -0.21226845576478529 0.5817673044764817 -0.21141643046845177 0.5733999734511941 -0.06844908611365554 0.17440077996508108
11.5 -0.14155759320019753 0.19464013231846522 -0.5134929097928724 0.3466793591774676 -0.5138289199955502 0.34431280649762236 -0.04662377069251696 -0.13990920785875333
11.6 -0.34119608236732485 -0.06122248151745498 -0.6014880840708872 -0.02156632521188992 -0.6084202689047653 -0.027321934363204514 0.31092272965974965 -0.1685413591851258
11.7 -0.22486097193234217 -0.3167269999117125 -0.4714349118143145 -0.3569478509145945 -0.4689734347424944 -0.3736846240603036 0.47333408086631956 0.2367889511509982
11.8 0.025233161316005698 -0.3693636412342419 -0.17643863271866111 -0.564821340489588 -0.1566800889716249 -0.5665557281272032 0.12392951059592658 0.6261897449895446
11.9 0.1519768714666331 -0.24712254826390184 0.1876669210428082 -0.5623055658893713 0.18951864427952322 -0.5369516142956385 -0.4522377124613979 0.5138632260714724
12.0 0.13630684483025657 -0.1107376641010033 0.48756508514197033 -0.3510830277543739 0.4537176670513221 -0.3372013657516853 -0.6493001442497972 -0.0009883548648118579
12.1 0.06308239386810871 -0.05515518803098632 0.6039363596817551 0.0059473089672211765 0.5742392268740809 -0.026641106073613807 -0.3624390620911738 -0.39554854708054044
12.2 0.00523446601672152 -0.0782608310932721 0.47923281690502495 0.35827381589357093 0.5005480484811832 0.32234225599280303 0.02649307408090916 -0.3435092112618203
12.3 -0.02229891507813976 -0.14083867118342036 0.17115196379021771 0.5601069543481636 0.20573186209301553 0.5763886084233718 0.06080160970105458 -0.005448541471302677
12.4 0.05173563766812414 -0.2379248329963919 -0.18605519565316944 0.5404968127182657 -0.20136089299968551 0.5716231963920015 -0.2863264285559689 0.0904193901017556
12.5 0.20729996520697777 -0.23764281819125352 -0.45783788604353687 0.31793364149281705 -0.4829370727415477 0.30325389858000945 -0.47493357104049766 -0.2743484169681556
