!Created with skrf (http://scikit-rf.org).
# GHz S RI R 50.0 
!freq ReS11 ImS11 ReS21 ImS21 ReS12 ImS12 ReS22 ImS22
0.5 0.13296110011836412 -0.02573583501470321 -0.9210482767007587 0.09777376955711414 -0.9213613787091814 0.09625022063617866 0.16827246979821694 0.0953283305586679
0.6 0.09283447525093684 0.144858068502096 -0.799653958229299 -0.44573791081782993 -0.7996331023484173 -0.4448483792224065 -0.01615912905950298 0.21097756041424787
0.7 -0.0982662837249564 0.19693904752974115 -0.39302281406886275 -0.8155261238951097 -0.3937474791180062 -0.8145716877714253 -0.20156552893170254 0.07881601029521679
0.8 -0.24649928416765757 0.05377017887243295 0.1492618462512325 -0.8848736549073638 0.1504428121760183 -0.8856341333759209 -0.1380594907099747 -0.14902257013845996
0.9 -0.22043733513032016 -0.16774605195157316 0.6293987559718167 -0.6310686764893312 0.6332562508073308 -0.6294427198579644 0.09257312244006416 -0.1909561496743445
1.0 -0.015716971096018217 -0.27914477822760264 0.872633455367912 -0.14771132313972743 0.8723867506139338 -0.14445899387538583 0.21134896669981165 -0.0011530431938741696
1.1 0.21199081718025864 -0.15247462933086928 0.7893969465305788 0.38725026524564365 0.7871763235771998 0.3837049465475915 0.05817248171749963 0.16211609684814832
1.2 0.25154682760784103 0.10918568586856336 0.4100314088008442 0.7689653324786151 0.4166174903090303 0.762287957123752 -0.1256617004807434 0.047973768925719036
1.3 0.04116408132869863 0.28651869968767213 -0.11036699686106535 0.8587604735927985 -0.10037539883456979 0.8647695059282531 -0.07775626446780678 -0.1886744713873501
1.4 -0.22617664510486185 0.19776716600010286 -0.5726049983229193 0.6345953624781037 -0.5761536984797346 0.6471772550001809 0.20061344809331003 -0.2577444667170158
1.5 -0.3354424539205451 -0.056992767151549634 -0.8202272699046049 0.18705903586917183 -0.8323674893747264 0.18292151662693723 0.39361116177874206 0.01173958061439731
1.6 -0.1987624711381163 -0.26065728857948495 -0.7662308942796194 -0.3227652631333079 -0.762449541471039 -0.3372757405793444 0.2203119779896006 0.34971757142697607
1.7 0.04402279132668985 -0.24842272581461466 -0.42524488554628337 -0.7125778398373759 -0.41219181605098565 -0.7086138686804839 -0.14891969531062427 0.35007539842419555
1.8 0.13773403781165067 -0.04780118928524589 0.08301408951805285 -0.82646588588481 0.07390730871107588 -0.8097783111391988 -0.30866900239524314 0.060923132015299725
1.9 -0.007640339893382871 0.12352204377911238 0.5531418929200377 -0.6191815846466168 0.5279787925667926 -0.6241618692490966 -0.13256211316224273 -0.19196631963951397
2.0 -0.19752711021071023 0.08914624098572231 0.8059637473228459 -0.18437253818075094 0.804358610208191 -0.20742691427012622 0.1475927771185187 -0.10240788454665346
2.1 -0.2090405086556728 -0.09558904267024904 0.7546729385613301 0.29903053731051066 0.777871123375308 0.2978589103686702 0.13956189261299984 0.1953632282928772
2.2 -0.03000057271726917 -0.18432607563521186 0.441272289982361 0.6665345942208085 0.4464905537802648 0.6878993318209745 -0.16454918124472534 0.24206534478785707
2.3 0.20024495907229395 -0.06349716291659421 0.0026051413462411244 0.7465697637432588 -0.013842591651750308 0.7516158526665062 -0.33960671125370845 -0.10075460920940246
2.4 0.11949547431275731 0.09954579612766744 -0.5134570562357147 0.6093121485253272 -0.516280901616674 0.5926139807893698 -0.09865010520715113 -0.3311035140829599
2.5 -0.1246097259731336 0.21274999462949218 -0.7709091313973706 0.20081711882109066 -0.7524046522703508 0.19965430398433973 0.2941015441168631 -0.26064855092952044
2.6 -0.3871048024455044 0.06312086025431077 -0.7284338670199972 -0.2832717058533407 -0.7241590669946796 -0.2632922120969368 0.40755297107401933 0.15679941487597085
2.7 -0.3887827746941144 -0.2529868821845579 -0.40894974556541924 -0.6473623775908258 -0.4249322705859967 -0.6443416054647453 0.06630258152582527 0.4281421146181533
2.8 -0.09902736132977635 -0.4714673269526054 0.050487039321861216 -0.7486872773743734 0.05166342433843374 -0.7698199554238931 -0.29433013375169276 0.2579967719621648
2.9 0.2552618627467888 -0.39152519291004395 0.47168627910265487 -0.5718428369977253 0.49773022740364625 -0.5781968503314778 -0.2915572334718979 -0.09398757705237731
3.0 0.4084545276520577 -0.05781563419688013 0.7239862224360322 -0.19918430582437083 0.7401361064239639 -0.18018716983116578 -0.017584277686655193 -0.18900734560686178
3.1 0.2310729788328039 0.2778241550219652 0.7302032208058902 0.24819961359216505 0.7204987799767575 0.26231955814669483 0.10358355830408372 0.02484946667457487
3.2 -0.1370612093314539 0.33269324884201507 0.46664921515911434 0.6341895402958062 0.4543014749524641 0.6260975391340162 -0.09762219823676144 0.16234616284836229
3.3 -0.38273746980343326 0.07190361197013537 0.0009380884402716005 0.7879578712056522 0.0031086700945260892 0.7778772989384033 -0.33092563521651264 -0.027183080497193784
3.4 -0.283433773732236 -0.23913030503685695 -0.47486570970376263 0.6154977883464636 -0.47081132698598344 0.6166283243312571 -0.2083135209073251 -0.3668681164878739
3.5 0.0017527979176507058 -0.31718641325233143 -0.7368034325086861 0.19245831360786808 -0.7386982776695481 0.19201547347409859 0.19993488597922776 -0.4105798723345458
3.6 0.18493413789912555 -0.1549416031439732 -0.6898201472624479 -0.28500947294926005 -0.6874464553277255 -0.2870441282859474 0.4590216199720229 -0.06873241248929934
3.7 0.1737940890407663 0.05297026357041855 -0.3914617363440377 -0.6342344090155073 -0.3898116914169345 -0.6323022612895043 0.30574959998846785 0.28939067300836885
3.8 0.05853194569109522 0.12822695837253897 0.044711563907247065 -0.753713532873719 0.04415254823240916 -0.7589765510622698 -0.011127833024628511 0.33181303955693675
3.9 -0.01774775022359759 0.09614417116739409 0.47078940408623643 -0.605130744834414 0.48188807278084034 -0.620296603232729 -0.1336293296651342 0.10421587509845545
4.0 0.005643179104217074 0.025494591184154862 0.7348444331127993 -0.23564485041001587 0.7587675096678219 -0.2395204087762615 0.029801492919151774 -0.06504363146892791
4.1 0.0788017569308718 0.058557270900346875 0.7302032543474922 0.23347788577274076 0.735072196913708 0.2394567641922256 0.22308403443505262 0.09008530495713836
4.2 0.07780913178452081 0.17606593330043396 0.45404850223261134 0.6129959955768164 0.439093426446735 0.5964351273396902 0.07922723216626953 0.32896843990458363
4.3 -0.09279071736268649 0.25081727914939117 0.015130305072184269 0.7574945804374449 0.02115020284299904 0.7199403062006973 -0.2616948977249 0.2812267776136869
4.4 -0.29583097172333817 0.14876640297574112 -0.413559686484244 0.6306515390317012 -0.3840952060508929 0.6131728915173214 -0.40068926885181405 -0.057800712453276906
4.5 -0.3612930764035198 -0.10956441122123531 -0.690345222782199 0.2894876388591111 -0.6820016173168038 0.29792964756742335 -0.17769822011535782 -0.37440208371261163
4.6 -0.1861527678622011 -0.3209733433862516 -0.7378162528222068 -0.15772084837308104 -0.7595373568800197 -0.1686698092552869 0.20729134958229983 -0.3093029767317172
4.7 0.11045543385769582 -0.32165984482218385 -0.5090634659600652 -0.5716602425484812 -0.5110844143253216 -0.6088783454950825 0.3181299189913185 0.049752555288765016
4.8 0.2757066173998863 -0.056287301104868986 -0.058616693644045925 -0.7830937323325555 -0.03772400394068532 -0.7885559120773349 0.04588179501891204 0.25156980766079706
4.9 0.16127132154727147 0.23314206080027688 0.44521879158752464 -0.6641016715362492 0.42734313722017214 -0.6373306085867572 -0.1840792772499958 0.11564164285455976
5.0 -0.13327659781333423 0.3061568548032756 0.7557294437127196 -0.2600678077188818 0.7046981696831229 -0.2650529545909233 -0.13059821632031673 -0.08737746731686541
5.1 -0.34878990209551913 0.12657032321115771 0.7478825692079545 0.23116891847893567 0.7353230777196664 0.1970487601924243 0.04278745690333089 -0.06410190349754732
5.2 -0.3726771510588856 -0.12554725988118928 0.45555129088427915 0.6002242025174082 0.4838749530356927 0.6093477847400213 0.03587604332006818 0.16714874487396358
5.3 -0.25812599826369237 -0.2779199240708763 0.012887127235484741 0.7227024073416102 0.0035336877414769777 0.7772096150921 -0.2931568028436858 0.23625025234990896
5.4 -0.08260026252359316 -0.30582879668140983 -0.40193578809899094 0.5864172711240899 -0.4527907034147328 0.6026483421437632 -0.5368489213795925 -0.07759608950000535
5.5 0.04871164392205342 -0.2487216335524027 -0.6702082374231133 0.24296268400572255 -0.6815378742149973 0.21177985101649077 -0.3781759556893797 -0.48701322541978853
5.6 0.1207738634273276 -0.17824780539109902 -0.6895091129094063 -0.1866125936177952 -0.6478907633859692 -0.18897691419430218 0.021640387534386296 -0.6220058163627533
5.7 0.15288417581568658 -0.11955305276845979 -0.4569409341454008 -0.5476224079370726 -0.43245725667758217 -0.5009611497874545 0.3496089172182674 -0.41781693269920483
5.8 0.20961887843145763 -0.06276530266990787 -0.06029238978138309 -0.6910961076395215 -0.08025813802307706 -0.661093275984629 0.4167967295866292 -0.11102571946645151
5.9 0.2287188028818097 0.03376786364712852 0.3359796102764532 -0.5959351807806766 0.3308018045503861 -0.614936869123199 0.2596996557601932 0.0567906032921829
6.0 0.15408611280198126 0.14619801093428414 0.6111428235031937 -0.30187448951581264 0.651253590795818 -0.3191738870785121 0.16160264797333812 0.02011458358101087
6.1 -0.004715279903862821 0.1569910987560569 0.6892419619530601 0.10358834404744144 0.727347313482219 0.12313543526989634 0.20012684629753363 -0.0020496592040275263
6.2 -0.14289339580181873 0.020756908453658622 0.5197124299105808 0.5045164090226595 0.5214939817510247 0.5178826558815076 0.23416744104084053 0.10004249855101696
6.3 -0.10453299256238424 -0.20300277723028096 0.12180964491138672 0.7395514291583898 0.12003055835209699 0.7183944283215997 0.14406061394376715 0.23298026336991706
6.4 0.12643122701164353 -0.29858401748774177 -0.34938294014822024 0.6683315413412697 -0.32317806105167285 0.6485760424483175 -0.06363597297201798 0.2567999646725683
6.5 0.3660449930927277 -0.17086976872586762 -0.6613821143073373 0.3237894194541033 -0.6405601373850989 0.33283864476353275 -0.24228803540967495 0.1031636794748357
6.6 0.43584755107205364 0.08009167800938849 -0.7025170730442538 -0.12026846088457865 -0.7111580629636756 -0.11216130498465793 -0.22532864210331222 -0.1496047094550561
6.7 0.33909547628735254 0.2952488294059552 -0.4831089006733116 -0.4978252704107352 -0.49672688147269245 -0.5114074513523085 -0.005056320178970293 -0.29121007453405723
6.8 0.17299517789998903 0.4015315531361743 -0.09003021768277597 -0.6741949348802421 -0.08846770414618832 -0.6896714110627464 0.2495363075180528 -0.21113860881459945
6.9 0.004531799307503553 0.42347069520746705 0.32297345563577695 -0.5861234475779031 0.32487549846861735 -0.5886742728364579 0.3543549154338399 0.005382156431528451
7.0 -0.15364745965803106 0.38261950286261265 0.5984494190613823 -0.27316061916528817 0.5910551805371994 -0.27619656043544444 0.31876091550320484 0.21062395694582137
7.1 -0.27798813415370466 0.24762184153223787 0.6477628473462174 0.12733957848480448 0.6422315193167789 0.11659106462846788 0.2119025382019773 0.3270630328404143
7.2 -0.28570768508824224 0.059749327936916466 0.46775965448655377 0.4868237650957023 0.46962164075621904 0.48067533963195574 0.08784118410964238 0.3883869588587366
7.3 -0.1763688530446717 -0.09976629068039886 0.10529154174355121 0.6774145923364381 0.10806577164182585 0.6801386450373341 -0.05092492687746583 0.42865060144356165
7.4 0.0050615992013885724 -0.12481240834988558 -0.3110235844259516 0.6212354945093064 -0.31140582396354866 0.6264252821825256 -0.22305154037310193 0.3777217503853991
7.5 0.1480265418612086 -0.02252662397993567 -0.6132053126224465 0.32546835653600414 -0.6141792665700836 0.32669019071615957 -0.34423284656497033 0.23764282454555727
7.6 0.17687866628141402 0.1551231273428707 -0.6797697214280654 -0.09253196415366688 -0.6813100017652121 -0.09604775139241178 -0.366349553920964 0.066907167380432
7.7 0.05431992162106329 0.3303908101161744 -0.48118024314125984 -0.4649163985367702 -0.484381497384909 -0.474507664022993 -0.32900618722227937 -0.060322740489053096
7.8 -0.1972142909613669 0.3634567628899239 -0.0990395416693288 -0.6456734113195329 -0.10121415558663116 -0.6615647169362636 -0.26991045856822765 -0.16685396560614307
7.9 -0.44544389643674664 0.17447965651886013 0.30545715844391763 -0.5560394239518182 0.30813942744031186 -0.5734004398463173 -0.1928241271784473 -0.29034236184227996
8.0 -0.4776423162603266 -0.14824229326141983 0.5694767544011254 -0.26768752951901653 0.5735642240065207 -0.2799695611938793 -0.02536450409998159 -0.3693046474995403
8.1 -0.29618145827974096 -0.39403189283913104 0.6196015839440661 0.0970801329223211 0.6187708239641476 0.09405214038911233 0.19909013147209734 -0.3198067424190928
8.2 -0.02431664735113647 -0.3891540227317317 0.4872286381597986 0.43611601402579303 0.47736064485008634 0.43670180456888763 0.2779390611459332 -0.10705833341713218
8.3 0.10003044876043324 -0.24082726333659377 0.17304887234968924 0.6453347614090574 0.16079807983897912 0.6411138247431273 0.18979457171597616 0.0998201196784726
8.4 0.06512793555260546 -0.11176548450790957 -0.23588506299887685 0.6329835497380624 -0.2330104209184103 0.6295466556316541 -0.007218403579433652 0.16992283136845213
8.5 0.005924543823187557 -0.12913053978897426 -0.5683601208593765 0.360100773946672 -0.5549945186485253 0.38106865243966986 -0.17838654761657827 0.09963409056129617
8.6 0.048213042351037225 -0.16284018861039842 -0.6636874279754088 -0.04596895158125863 -0.6706899696489189 -0.0047129616872862296 -0.23887353409317794 0.004899751224747416
8.7 0.14007681406631767 -0.08815989050622733 -0.5015414980104653 -0.4131278330234339 -0.5325929346870151 -0.390294416518705 -0.3073897314750884 -0.09573610679324644
8.8 0.11090222129578892 0.05094846047469979 -0.1571858635437225 -0.6167062156202825 -0.17111698444570497 -0.6279875438762657 -0.3211859468445443 -0.2805883846770741
8.9 -0.04377567591346683 0.08669644282180525 0.2522758711970826 -0.5775494626688087 0.2737150090035684 -0.5796273499875235 -0.16443197777163773 -0.49773430101867927
9.0 -0.1589660295623089 -0.049894021492593685 0.5594001346278604 -0.2952744994429599 0.5731134659581466 -0.26598024138717974 0.15637215555229708 -0.5558438044841142
9.1 -0.0956438270720301 -0.2586261094372388 0.6267712728044541 0.11894497595681638 0.6090446617152574 0.14220661360779852 0.4508825550349391 -0.3673234601934534
9.2 0.12854145416870383 -0.36129294018214 0.43722616755563 0.4720751762723837 0.4224790747921323 0.4638914469955523 0.5191820046794138 -0.05026357634349235
9.3 0.4082089284905359 -0.24161268093435034 0.09177944995051748 0.6317802400496397 0.10460738525223351 0.6240657478040259 0.38406646382610865 0.14334670001065924
9.4 0.5381286616586709 0.06452535572618012 -0.261030531681705 0.5620694967358756 -0.250947846291955 0.5797460917912168 0.256018372675074 0.16823991059419302
9.5 0.4195416583500277 0.4031616717643142 -0.5035427972959055 0.3130873675738538 -0.519675956221632 0.3262435395520004 0.24492654379613105 0.17877474447138636
9.6 0.07345233156867623 0.5746861848209317 -0.567874500473996 -0.015027592839246318 -0.5791684790709482 -0.030257002975826064 0.25481693210197637 0.3249834437672301
9.7 -0.28672690951166613 0.4255841745894495 -0.4518095913595973 -0.33987987611533405 -0.4312028522200312 -0.3546904047958052 0.056762179066772445 0.4874277107692918
9.8 -0.3968071873637044 0.07294743439460312 -0.16902636070437432 -0.5555746082052371 -0.14199371973949151 -0.5400782377031716 -0.2629950400337537 0.44458553758049657
9.9 -0.19493182080822322 -0.17793283871717822 0.21368363090583464 -0.5733804830130668 0.21050293589753485 -0.5489653836888191 -0.4456071938595171 0.1338131280954764
10.0 0.06877135946307136 -0.15185396020647043 0.531170867756721 -0.3448743925458995 0.5169946005870343 -0.34828164379033855 -0.3416996041327323 -0.19524693580210936
10.1 0.11531367034578019 0.049767942304007155 0.6456751538951762 0.032998091629795556 0.6569009509254391 0.018978863013013096 -0.005432771800354622 -0.3059826247161142
10.2 0.0015048901429569397 0.13012086155019173 0.5096958328950087 0.39432333948861936 0.5319625471821852 0.4017515571415159 0.23560788666920868 -0.1456030320712592
10.3 -0.0681920720974015 0.0724114258043374 0.19651594192156446 0.6075529716069108 0.19908106513805288 0.6247917651940126 0.250278459984468 0.046640245269326294
10.4 -0.02161028617323875 0.02823415124317935 -0.1894551476861649 0.6040534947226286 -0.19821372958127897 0.6062879846089372 0.17694380738027934 0.11279591071504724
10.5 0.03231861882726539 0.09521379187107187 -0.5123116958228282 0.358885484308642 -0.5128863760478224 0.35153156992691165 0.17268227143464945 0.15064651888820868
10.6 -0.026533504605223947 0.19900173388944614 -0.6201355748152273 -0.02618915132535618 -0.6153147312292739 -0.026125503771308664 0.1763112345994527 0.26397214073808767
10.7 -0.22618574462094929 0.20153073031016933 -0.46482227568801365 -0.3892980381769671 -0.46444577908181606 -0.3860112048954506 0.03297263876149903 0.4361687422467302
10.8 -0.38927425490727385 0.0629364537016289 -0.1388684583489293 -0.5893187089068904 -0.13923579480914364 -0.5882792907539254 -0.316204430094001 0.39363428650796894
10.9 -0.4090416235468678 -0.20413061545582228 0.22873587207400295 -0.5650778589774289 0.2309589151939096 -0.5623487192375738 -0.5252072082215112 0.05674724491545641
11.0 -0.20770409384449093 -0.4421395194450215 0.5127293963815407 -0.3426008355704764 0.5133958429591999 -0.33525659693438536 -0.38243644404379856 -0.3108212004446479
11.1 0.13854717579704662 -0.4606097830799515 0.6242503939667714 0.009387214241675934 0.6181991420884257 0.013967572020485292 -0.030508424439248838 -0.4045222680185679
11.2 0.4109678240891628 -0.17654942845314409 0.5078008575141861 0.36744572875238385 0.49952714276125665 0.36404616899376585 0.15758447005981505 -0.1993905103696699
11.3 0.333445217129 0.24261978410365523 0.20015700161769692 0.5885436535744019 0.19378145834736193 0.5797879463263472 0.027683778101088213 -0.042440194806561055
11.4 -0.083258818505098 0.43358222679638103 -0.18077948595244084 0.5704709072031767 -0.1802491268519995 0.5622784322424482 -0.11852986180994708 -0.20528012294257775
11.5 -0.4467059011816095 0.171641384998997 -0.4767919597708793 0.34192276908793384 -0.4771425351190254 0.3396563336019931 0.03941102296011794 -0.43175137716335665
11.6 -0.4719492031513478 -0.23689711508149294 -0.5702469860026214 -0.012449493453785404 -0.5768919405238058 -0.017805215937122615 0.45513217153918206 -0.3330401290304404
11.7 -0.20124320685819969 -0.4526963663214808 -0.45992481424255804 -0.3463635183451122 -0.4575626613201123 -0.3626583176873188 0.5984844262305771 0.18556182194340864
11.8 0.0697712784175438 -0.3982004403547401 -0.1752356929372436 -0.5621839924068672 -0.15558787969901203 -0.5638826963860989 0.1740232762302285 0.6314047335923627
11.9 0.11372557973828319 -0.2491346814338647 0.18579689152365048 -0.5614163801909047 0.1876821495522774 -0.5360896167246321 -0.481718484098826 0.4996305341197376
12.0 0.05287231902068643 -0.21181373272966045 0.4720335001919691 -0.3482237571781792 0.43914975904798215 -0.33422946851996305 -0.7154338319551251 -0.0887176603927933
12.1 0.09032385906710819 -0.270946980340544 0.5733495189528156 -0.004772087854271981 0.5446082187018546 -0.03520285022086023 -0.40427430099556144 -0.5782193443745407
12.2 0.2485751075667647 -0.2525705347064141 0.45903170234511426 0.31889848311847924 0.47781855915291055 0.28462202444584195 0.07715997371104028 -0.6071246665500624
12.3 0.33984607392166366 -0.0512513061917019 0.1847258002159591 0.5255156515968934 0.21835442579151865 0.5395732308880699 0.26937158454637794 -0.2964223619324974
12.4 0.24852618160667775 0.16197562113937114 -0.15560445019429317 0.5504676201968761 -0.16894759207537485 0.5824462995721967 0.09498270099220998 -0.12356804075361147
