!Created with skrf (http://scikit-rf.org).
# GHz S RI R 50.0 
!freq ReS11 ImS11 ReS21 ImS21 ReS12 ImS12 ReS22 ImS22
0.5 0.10945918269706083 -0.06973178725490306 -0.9188698068642491 0.09788839741088512 -0.9192361580701724 0.09635024279312557 0.1805154005411007 0.04740998515214579
0.6 0.11651975269794465 0.08207097235064266 -0.7968719008466593 -0.44772199581144606 -0.7969019336452082 -0.44689079420303546 0.022285651566099175 0.1572066164938011
0.7 -0.019946400469329557 0.1663490059947215 -0.38784394293616786 -0.8187991185053614 -0.3885690090359518 -0.8179109426629709 -0.13231853438910146 0.03257524042312052
0.8 -0.15913632166139802 0.09752577847646092 0.15646526748807021 -0.885530114722902 0.15770134563814947 -0.886351478974393 -0.042747997441591856 -0.1715815536387317
0.9 -0.19550862649962067 -0.06469183036572329 0.632576326031658 -0.6289492288904062 0.6365139920489696 -0.6273566007344971 0.19809893286032065 -0.1758289133646692
1.0 -0.08465825863874893 -0.1884732342417865 0.8702787975991019 -0.14483992165027543 0.8701096906726342 -0.14159258437906524 0.3085606552953243 0.057357280259940815
1.1 0.09349298109921758 -0.1470492012508502 0.782718167338492 0.386590490557782 0.7805822065015575 0.38311159802696226 0.12804602859159447 0.25622818587009477
1.2 0.17201768417267738 0.022554645559768466 0.4013143334397612 0.7668938328417845 0.40792583652517633 0.7603761081297212 -0.0966390022364361 0.16194617078108928
1.3 0.05540705225753321 0.17585291882658236 -0.1216435062904887 0.8543711895887691 -0.11177695224767203 0.8605436224543219 -0.09220061339368268 -0.07560827843019438
1.4 -0.14315039111556913 0.14221334822513432 -0.5858047624759902 0.6266692109274853 -0.5896323176273276 0.6392491312739521 0.15294135887830396 -0.16709490750997272
1.5 -0.2580111318471649 -0.03664854175841581 -0.8296934523935762 0.1787491978203941 -0.8419190178548579 0.17441631170313787 0.3313855693013502 0.06538584462448042
1.6 -0.1753311662713846 -0.21079851510780945 -0.7699903067461372 -0.32732657090580325 -0.7662054632768394 -0.34195936223827483 0.1675736999618249 0.3673130972145357
1.7 0.032490264501279786 -0.22439422997935743 -0.42631941878620844 -0.7131617203673747 -0.4132617666037292 -0.7092476937527767 -0.17427606537053128 0.34805551220990094
1.8 0.14507339514846682 -0.0508226582583902 0.08364060055625805 -0.826452040655834 0.07454721939962658 -0.8098542306920837 -0.301938453377311 0.06418657289452503
1.9 0.033505731097699554 0.14732556832575022 0.558814449520461 -0.6203417792466257 0.5336214418468647 -0.625521653140796 -0.10260965755434018 -0.15873064481228813
2.0 -0.18347945648897307 0.17340500505038006 0.8115077410219442 -0.18462302255907803 0.8100325786538891 -0.2078374461262267 0.1769283529709074 -0.018753950182818988
2.1 -0.28728225215818076 0.004961839577906163 0.7525221772652063 0.2943313174999478 0.7756912920340459 0.29312038758103826 0.13715327994635385 0.33420122954061715
2.2 -0.1745437157906588 -0.16636758606971644 0.40684703129001987 0.6389187278676213 0.4115465621006609 0.6592389626536962 -0.21904011434135154 0.42929996991105845
2.3 0.03214465158156907 -0.24212124049106104 -0.07115363454236656 0.7782491196777059 -0.08864612039230393 0.7824417255457955 -0.41894173963930675 0.08069698738128292
2.4 0.15220392116723705 -0.09727490462427252 -0.5202762020318326 0.5924223754152612 -0.522798621252306 0.5758324552121629 -0.2703225827192334 -0.26434678466273986
2.5 0.08035251960626413 0.09538673983776161 -0.7819176199850197 0.1785407962419217 -0.7633628041626388 0.17790161474609145 0.07342544577595726 -0.2631561495501548
2.6 -0.148297870820584 0.14926589724646963 -0.7477928434086656 -0.30805198315628907 -0.743835404493838 -0.2873679324419538 0.17733768596419894 0.066380882559
2.7 -0.3031684528951666 -0.006792467498656314 -0.420423572886783 -0.6699306304800339 -0.43694306544413775 -0.666935848075111 -0.12441897789240546 0.24739816011833843
2.8 -0.23361123935943695 -0.25074009749392 0.0546325807909439 -0.7624092634350181 0.05591493699231864 -0.7840260253759633 -0.40045194541492346 0.013997743113734362
2.9 0.010094684527299988 -0.35714226650743 0.48670448131012234 -0.5608364464883914 0.512952533077584 -0.5666351023993292 -0.2941050271977421 -0.35261507066986936
3.0 0.23483319176365663 -0.21682955846740765 0.7262775391292204 -0.1602253541142465 0.7413417481904714 -0.14069485958801342 0.07389917149910451 -0.41599228807003874
3.1 0.23336282391800273 0.056972855245383786 0.7106310993147988 0.2960918985405162 0.7001155653846812 0.30950263736477296 0.25596995259719574 -0.14179851884086403
3.2 0.002540623432024894 0.2053889209081262 0.4390637340219655 0.6605156943684202 0.427085781416301 0.6518365311169425 0.07246258692461217 0.07365189808930536
3.3 -0.2396789579272763 0.08988862223559531 -0.012367298025818735 0.7950508329260966 -0.009999606232678537 0.7849765746335906 -0.18780359007967523 -0.0432708788076675
3.4 -0.23480953866587803 -0.1589510210675107 -0.47274615607053655 0.6199363835378748 -0.4687107932062289 0.6210673252640879 -0.1228552906379656 -0.3406777926797831
3.5 -0.01047336121940081 -0.2834394208885227 -0.7349754576244829 0.19705223354573406 -0.7369336360827266 0.19663152016568486 0.22353514557424112 -0.38887844423823903
3.6 0.2100013169720493 -0.1668109192642594 -0.6888891989957853 -0.28968614625139044 -0.6865001062625578 -0.2917255164150713 0.4487869727276137 -0.09145544959204963
3.7 0.2547861733417176 0.09384124963694718 -0.3842008912359795 -0.6426026803436851 -0.38254059124657513 -0.6406785980772177 0.3040477662660868 0.20458561155844512
3.8 0.09247582645983354 0.2777995146282198 0.049916724481953556 -0.7542402531608684 0.049461318122549176 -0.7595460022111234 0.037876676191232306 0.1905095940179649
3.9 -0.14541520896261254 0.27027199765755083 0.46079497406386016 -0.6019275073633084 0.4717404916458232 -0.6170192593183568 0.0004454389102062223 -0.06478217841274816
4.0 -0.2672882096719864 0.05420884401974483 0.7159447194707413 -0.2474995186451966 0.7394051602647784 -0.25185993473056106 0.26597576701145187 -0.2086038953658279
4.1 -0.15926022788663066 -0.1601318641357791 0.7221468203197469 0.21566933285823003 0.7271507488200697 0.2214086777303288 0.5393799246926242 0.043651210526087336
4.2 0.09270248567487971 -0.19113939619038667 0.4491011819667273 0.6157157885285569 0.4343582522319101 0.5990414507131206 0.4171713338497022 0.4198394772343186
4.3 0.22630787466511684 0.0060060238397712795 -0.01800849692110912 0.7719127175279554 -0.010216387099773142 0.7339871960178677 0.04028908651074711 0.5063930486941925
4.4 0.11743779418290774 0.2410175148741369 -0.479448777987573 0.6064872893806627 -0.4478667812284475 0.5913324490831969 -0.17899854608813853 0.2829257103153692
4.5 -0.15912243205167015 0.2655258118246108 -0.7335409624970824 0.21930462044452587 -0.7260764468014802 0.2287418519041798 -0.08256538515937883 0.0468060009015386
4.6 -0.33250639583910707 0.07018837706562399 -0.713224749014386 -0.22519077064211163 -0.7336979524415854 -0.23812028290621573 0.13190942359900204 0.12041309902302377
4.7 -0.26374550393772844 -0.17848962052012898 -0.45484783456556904 -0.5823036272134665 -0.45456676548488884 -0.6183351898645678 0.08822135860789844 0.38980523122999033
4.8 -0.052698630123991924 -0.23382354220337112 -0.027605958941369746 -0.7449024165119869 -0.007703744403095708 -0.74940728941135 -0.26449771008336265 0.44556171439131076
4.9 0.09653258715404964 -0.09048939705943337 0.42906136950094836 -0.634865163930504 0.41172989037853686 -0.6093604991728726 -0.49324014638527935 0.17169461489347412
5.0 0.0407811565035517 0.09916778216367131 0.7375879737038704 -0.2607354516698853 0.6875529239966465 -0.26528785603383415 -0.3844187611177498 -0.13346127927183168
5.1 -0.15073669787714258 0.13045508754241544 0.7461843739092359 0.21980691689218262 0.7333020759598772 0.18604674063508422 -0.12234275033713013 -0.1634343376067892
5.2 -0.30137719497581905 -0.03377598341523223 0.4600308755214797 0.5979834495561689 0.4884428121911274 0.6069700517900692 -0.033503905469657855 0.07378721003705582
5.3 -0.2660571314175742 -0.24899593250664315 0.012120830135762484 0.7222616805070597 0.0026807028470799965 0.7768010280924673 -0.29885968787216854 0.20506271240459548
5.4 -0.03760241720305738 -0.33536535644671694 -0.4003036405127065 0.5904936148917342 -0.4513083218129949 0.6070666597299645 -0.5476668646045301 -0.02210659859461983
5.5 0.17783517706316737 -0.21059405296744854 -0.6746713116023719 0.26493657453633523 -0.6871121227968455 0.23349083191937942 -0.46066318256013306 -0.3681649220087093
5.6 0.21309203027854515 0.014437560686341708 -0.7211158939156357 -0.16541197705650545 -0.6781835749516374 -0.1696394372179985 -0.161954847889772 -0.4962179252269575
5.7 0.03667066397414509 0.1499845596202332 -0.5014857451479333 -0.5653486069144992 -0.474001132959608 -0.5168269973862084 0.06794664169347867 -0.3418628706754477
5.8 -0.14238405233646972 0.0460596954966648 -0.0614262656330148 -0.7572183576794311 -0.08340853890675567 -0.7245906743855188 0.06476695832700834 -0.14160739965958516
5.9 -0.14099321017796307 -0.20716161642247688 0.4089710793334314 -0.6339817114541301 0.404582813284603 -0.6553112217331204 -0.12161088251209518 -0.1279703348684725
6.0 0.0915204708584618 -0.34645697185967445 0.6873179972129771 -0.25476068477877223 0.7322313044172474 -0.26889257745593637 -0.15891128528448648 -0.3448193659944826
6.1 0.35021699784680227 -0.2360757037608008 0.6839876294785884 0.18254973122566323 0.7203714339349684 0.20651554277729878 0.03912570721091872 -0.4973839257461933
6.2 0.40092354567822763 0.02961900599903422 0.45097941942327247 0.5269791551083579 0.45155084907478565 0.5399029431076692 0.27195592152039805 -0.4254806017804574
6.3 0.23962736597022827 0.2191474694828605 0.07004168184169202 0.6875841621539114 0.06958341617781827 0.6680595188083924 0.3618999066771041 -0.234782631766581
6.4 0.022015319271030752 0.22355579699185 -0.34563885597901667 0.6113165335474302 -0.32075957922602977 0.5937983414822174 0.2947595370667916 -0.0980400407090914
6.5 -0.07867988900076277 0.06827982926486632 -0.6600285284983667 0.30152770643179094 -0.6398597178036493 0.3110555406092397 0.2060132660089641 -0.09144409172174513
6.6 0.015866224258420984 -0.0889257483541792 -0.7295184702836975 -0.14067735613221946 -0.7388415077559616 -0.13230103004130422 0.22629736782199475 -0.1654058965398374
6.7 0.22471699175021814 -0.06709752305517463 -0.5027938797013727 -0.5331701933529405 -0.5171776360258729 -0.5476417631928677 0.3549616324994906 -0.15887063550336494
6.8 0.3287091163457627 0.1558547419570097 -0.07881818676357771 -0.6883529804633803 -0.07709264865804838 -0.7040944651698173 0.4617548077746506 -0.004033156585941611
6.9 0.19511252047406158 0.3934917188600124 0.33089337891963805 -0.5639694171578156 0.3327802859934401 -0.5664791735657675 0.4239848988978948 0.19885407654752263
7.0 -0.07792431589319188 0.446281307532192 0.584392092566892 -0.25140007615612836 0.5773656842412442 -0.2545113358275991 0.30480053259504974 0.32187272738774153
7.1 -0.28000529051322165 0.260259364009233 0.6432576655106512 0.1287961657239392 0.6378673281131807 0.11814362004414691 0.20250021979462945 0.3393979487197937
7.2 -0.22921929151759218 0.0022088928619755574 0.4928493850125748 0.490202308690575 0.4946752638609686 0.4838995458101783 0.1553422035557594 0.3267452148849977
7.3 0.008977451574975308 -0.08557738861598616 0.128413748248208 0.7040462644403247 0.13132132637497818 0.7068933146273528 0.1295971235586301 0.3503407722149429
7.4 0.17033769817760094 0.12077991921107767 -0.3232064921626848 0.6397159895435723 -0.3238163377618912 0.6450793101166594 0.06748001779977025 0.35859329832298387
7.5 0.02732924429163905 0.35573711855325296 -0.635277997329467 0.29984714424537473 -0.6365418691910195 0.30089776258601597 0.007092219973321297 0.3532418060064181
7.6 -0.26190427616036305 0.33294075262310296 -0.6727325710033825 -0.130285943035456 -0.6741957339658514 -0.1341152535827355 -0.03186527459822561 0.3537151934992569
7.7 -0.41165965710107166 0.08942873016282486 -0.4655336442603544 -0.4788711465918997 -0.4684928400820699 -0.4887415308872484 -0.09782768580879153 0.38456626922429965
7.8 -0.32450611466583207 -0.1787581637764131 -0.11357534264359251 -0.6487687539710929 -0.11624929687655575 -0.6649090378281556 -0.21533918391524684 0.3855963363291325
7.9 -0.10232711806907835 -0.28645641921703263 0.2809261798833543 -0.5953186234477637 0.28239102577626096 -0.6136700063703705 -0.3651844378944108 0.27264012565252504
8.0 0.11034455592938776 -0.18599937166681937 0.5877066209414321 -0.32912881389335047 0.5910267890187119 -0.34278525716089203 -0.4054964208733053 0.10035506924096138
8.1 0.12021149239570722 0.032627838015373486 0.7008362651651633 0.07429787108343172 0.6997415242096614 0.07080927099496287 -0.3163850811426556 -0.01920475105669195
8.2 -0.0686506830081122 0.20441910991582068 0.5345035929148492 0.4719471864138007 0.5237248285048351 0.47269956856005074 -0.29353165325602476 -0.004368578581392474
8.3 -0.3438828874759101 0.09237907436791001 0.13852073660843622 0.6872460733657396 0.12593534705090825 0.6821168749333909 -0.34717250972739283 -0.005779295194594025
8.4 -0.4014283885569096 -0.21456309079593963 -0.2975312873913315 0.5979700589007839 -0.29438730850804307 0.5949995105866944 -0.414196845886232 -0.11474543408665468
8.5 -0.173034267911285 -0.46368742202753616 -0.5671748356634363 0.2780874496491732 -0.5569095374228454 0.2991672094749334 -0.38800854565008 -0.2662523870950455
8.6 0.14785885687359712 -0.43070704948653316 -0.6145034575160968 -0.09327585166251556 -0.6242507505000324 -0.05531814384364775 -0.28322846045072336 -0.3212359640536746
8.7 0.31997072436016716 -0.15870531433156854 -0.4654604010190745 -0.40770492953128146 -0.4957359851348825 -0.38690339389820994 -0.26263127676622633 -0.3075495348411854
8.8 0.19690587445274357 0.09942208717345465 -0.15301088345821845 -0.6027405616984206 -0.16660207162979154 -0.6138666525140587 -0.26362042935870506 -0.36475232569079
8.9 -0.048659526185896 0.07931106456812952 0.25332300254734746 -0.5783132260412616 0.2748950309515731 -0.5803721222038715 -0.16868226001274275 -0.49215629668675726
9.0 -0.07722509099265923 -0.14313092871187832 0.5706029915749119 -0.29426933807266514 0.5843326664595453 -0.2643199726223734 0.04570452679526141 -0.5426260831380004
9.1 0.13731098655370855 -0.2402355777353719 0.6366638513804546 0.1205593751861859 0.6186870057399632 0.1443357742600229 0.24385509290368437 -0.4341441082308117
9.2 0.3190935020641022 -0.09374707092746846 0.46255853004303815 0.4588533725762026 0.447261272473894 0.4513893541923545 0.2553046012925578 -0.25060391548259675
9.3 0.3181444851219682 0.158660257246995 0.13645348351026365 0.6233802969860254 0.14854861679169923 0.6149167659795209 0.13399164104716374 -0.21105684490718962
9.4 0.11215898466819858 0.30304024308734606 -0.2402744815490185 0.5782798923023046 -0.22959590547953684 0.5957634274471391 0.12373544289671981 -0.31821728911711306
9.5 -0.10770216304487656 0.22398110748272287 -0.5362032878059199 0.33035707881830456 -0.5536372932114453 0.34422329972605115 0.3125963083067032 -0.3680124918744577
9.6 -0.16852605477781396 0.01241461067830962 -0.6423217201174539 -0.06038116517297982 -0.6541372979665936 -0.07850640224823568 0.5420428978418717 -0.16629634254892436
9.7 -0.0064753072507762535 -0.1536493325204848 -0.5050000588448064 -0.4421190441535141 -0.4794949730800508 -0.457827326721614 0.5288960485720355 0.13420051743199798
9.8 0.24350372308775636 -0.08283433085412666 -0.1594439682771835 -0.6683154242231624 -0.1288545922632945 -0.648090765996316 0.32208258401989703 0.2800636906101482
9.9 0.3289099626084383 0.22191624077162225 0.24493647277934916 -0.6291361553538404 0.2408969045725116 -0.6023712760533388 0.170688991070928 0.1844788833709807
10.0 0.10104898794366808 0.47682444393349227 0.5406612846888409 -0.355323155912752 0.5261648034000677 -0.3587596687335584 0.20168465181908268 0.06700832652597366
10.1 -0.2899976794696444 0.4504935147103236 0.6101855578007468 0.01738847791145756 0.6205193242299561 0.00399508799297895 0.3675763499202935 0.10867085801880202
10.2 -0.4891963134009224 0.0987722194993958 0.47420932256609516 0.36480216107377605 0.49488192846749324 0.3717362824365051 0.39320264864954874 0.3209539602349923
10.3 -0.31571732084049053 -0.2496583213444406 0.18127881562786013 0.5803777929452264 0.18357496262473288 0.5969184837444452 0.22692140222224197 0.45617815612115287
10.4 0.04850985686026049 -0.2718920094334283 -0.1993495026633717 0.5894592670031683 -0.20802546446589718 0.5915693869142132 0.04547411455294956 0.39794760943026053
10.5 0.21310445414859244 0.014156150647746377 -0.5182459016781253 0.34807579036299846 -0.5187875816229295 0.34079799305916814 0.022340081131468348 0.2884110487482823
10.6 0.04662546179563487 0.23921190043092588 -0.6208571344557902 -0.03261730455279721 -0.6161548902837155 -0.03256895086149013 0.09349543119293593 0.292985272167801
10.7 -0.23702763283375078 0.17012853466962724 -0.46577472754475757 -0.3866869046174245 -0.46539755391384496 -0.3835355803087633 0.06592885825513192 0.43471901514788125
10.8 -0.3062016857819772 -0.057747180193516934 -0.14514556248264887 -0.5877050268005095 -0.14538767211585266 -0.5868225297341311 -0.18360749103038806 0.454366574687114
10.9 -0.1463466947307089 -0.2333108961058773 0.2267114490551862 -0.5774130808715032 0.22915933554082363 -0.5747211989777048 -0.354660433146739 0.25095493670371005
11.0 0.07376646381833002 -0.1859796257628572 0.529140464255665 -0.3543011699474339 0.5299926917534133 -0.3467075710421848 -0.25578072293408166 0.031126542530074623
11.1 0.12424608074286607 0.02701472695473262 0.6471506914491076 0.017317950970165884 0.6408725185535163 0.022146110281686976 -0.032522952765713986 0.0575411890119404
11.2 -0.03585981302796052 0.18178618964115548 0.5143077545969736 0.3825760628602366 0.5058122215169747 0.3792184694033228 -0.03421510027241256 0.3059720808518631
11.3 -0.28529833837135626 0.12187552782818581 0.19162761472136378 0.5907444327031413 0.18520640367521818 0.5821106971736306 -0.3675144406117848 0.39605669306788116
11.4 -0.40413315009907613 -0.13795398637283385 -0.18068602648363918 0.5752279598413994 -0.1803814328429623 0.567096581095591 -0.6726398910162408 0.06252458205292061
11.5 -0.2189666149427293 -0.4512917147018497 -0.46464671065356244 0.35806347758490675 -0.4652321331982531 0.35591385619283394 -0.5932686596415113 -0.39510135528744517
11.6 0.1482066731548894 -0.47041941632556583 -0.598444515345066 0.029617487003854248 -0.6059305751956547 0.024642639790207865 -0.15431310694137762 -0.552834797265646
11.7 0.3773380611304207 -0.12860650207485655 -0.5185181726615428 -0.3329088557844706 -0.5174790756058791 -0.3503327252748737 0.1246039787467242 -0.24675572229488552
11.8 0.1876642688442106 0.23347385840448165 -0.22629772970118733 -0.5791571258848419 -0.20588574876680318 -0.5823814276368315 -0.08465009865268733 0.09250813727363627
11.9 -0.2537036210643035 0.19755861334387034 0.16182680513924994 -0.5772165591029883 0.1649178315767243 -0.5517021756863711 -0.5186937701269585 -0.012068517663518324
12.0 -0.43117971393137444 -0.18968369163774668 0.44299128787066927 -0.34999703945204724 0.4118680725937742 -0.3355182810458474 -0.5910265220876026 -0.48872773183773544
12.1 -0.17662087178637975 -0.5414817360191814 0.5383318580606651 -0.018634035197339555 0.5107091792477656 -0.0464765268538202 -0.19468827480793566 -0.8353108687948354
12.2 0.26548541015388966 -0.5293739971175856 0.44249154427564485 0.2904883998577847 0.4594983046981962 0.2576156206631253 0.29541029539135355 -0.7282670277970696
12.3 0.48280311278281984 -0.15165573418496342 0.19065036488401657 0.5094033463604554 0.2237785207147831 0.522534606760747 0.4330058102022961 -0.3136914697900758
12.4 0.30749985266692464 0.18261558997963898 -0.15094763343740442 0.5508086052711616 -0.16406995656575274 0.5828879242564045 0.152019121737971 -0.10429227098708935
12.5 -0.022321974213072734 0.1737069433966298 -0.462499382456884 0.36009473231133676 -0.4896153455059188 0.3462132563364785 -0.03851926742799014 -0.34097789068581225
