!Created with skrf (http://scikit-rf.org).
# GHz S RI R 50.0 
!freq ReS11 ImS11 ReS21 ImS21 ReS12 ImS12 ReS22 ImS22
0.5 0.1722396207841974 -0.059180910871814936 -0.9208140152326028 0.09873068990805134 -0.9210633252028169 0.0971806918864464 0.12239450416618297 0.07242531076281045
0.6 0.15990624105054463 0.1301188504061038 -0.7996461843416326 -0.44587721717314976 -0.7995766251127852 -0.4449845441928104 -0.04139224988122996 0.1475388914927612
0.7 -0.01605156813311549 0.21897321044163143 -0.39129833482062953 -0.8172204947927499 -0.39199838721579616 -0.8162529374349153 -0.17279709684940275 -0.001289102084878986
0.8 -0.1744597881427679 0.11964143160830715 0.1541762657925309 -0.885470645930427 0.15537809077550496 -0.8861943355963484 -0.05150573974372519 -0.1966635158816865
0.9 -0.1869259368821797 -0.06709269412359757 0.6334816169578648 -0.6297183946036824 0.6373257180399488 -0.6280329858416469 0.19696309771905682 -0.16581854300132048
1.0 -0.038283077553094805 -0.168257979027295 0.8758612000753547 -0.1455331453704054 0.8755157586376681 -0.14224178391180542 0.2732710750923567 0.09393193351769887
1.1 0.13604424571094154 -0.06385110809383483 0.7932945467345707 0.3858866696030627 0.7909677064217849 0.3823018561492385 0.0383523240597086 0.2757133841402199
1.2 0.14520526244505988 0.14972096878645874 0.4199854155831757 0.7676324519713154 0.426503001745421 0.7608118234285998 -0.21590607241324578 0.11591508134142627
1.3 -0.062030939808063554 0.2738712946508556 -0.09490846795490772 0.8598372135029918 -0.08481500286259586 0.8656403274461848 -0.18421655486010502 -0.19887404026501762
1.4 -0.2974317478593952 0.14790894894273626 -0.5590574763721277 0.6403834798258986 -0.5623596499589494 0.6529222166669257 0.13755266980358138 -0.3246906993608474
1.5 -0.36378865436933006 -0.11468784178022097 -0.8146484198355748 0.19397359809504866 -0.8267439960657227 0.18994422336945999 0.39313531160845255 -0.056270522685228114
1.6 -0.19695356686019083 -0.29824198014041486 -0.7658635770715088 -0.3193510915199886 -0.7621098304676774 -0.3338524889421093 0.24713645710287918 0.3220412194026093
1.7 0.04631228610390731 -0.25351619909269324 -0.4258512920966899 -0.7116487951959722 -0.4127631230317217 -0.7076650671338385 -0.14306359542321323 0.35125628606820053
1.8 0.10853065744337162 -0.033375049218755296 0.07910518328576059 -0.8261649185206528 0.07008751175921724 -0.8094044749145389 -0.3333195443246094 0.044205425847389734
1.9 -0.07931927613797582 0.12306770993699825 0.5442635010477452 -0.6228556368079166 0.5191486675489854 -0.6275122741344311 -0.1458197686078401 -0.26102826173268023
2.0 -0.2973654822070847 0.03291819677936697 0.7903239560724133 -0.1957050304526898 0.7883404786601863 -0.21837989197583954 0.2034785651174477 -0.20056151574374875
2.1 -0.2925261713151955 -0.22777244925036905 0.7403903228521171 0.2816975020032507 0.763013100049658 0.2802486006800543 0.2896686664070844 0.14497512302667362
2.2 -0.0494170882760718 -0.39158546698597385 0.4357212662380839 0.6424793230967857 0.44100278387008535 0.6632040303598463 0.024992724043805342 0.3195044143496642
2.3 0.17560436839357468 -0.2840536231586678 -0.09296837074995712 0.7534531158780465 -0.11002347756842867 0.7571212448272246 -0.2422914588451583 0.08433026226499221
2.4 0.28697230885025515 -0.013417265964523431 -0.5229194868137128 0.6056628688326424 -0.5255845794389581 0.5887664876293243 -0.17017662836540354 -0.143289312080316
2.5 0.1134410681682114 0.19295833587622235 -0.7873292523717863 0.1877252976833831 -0.7685068661089923 0.18685951409784624 0.08477559555700175 -0.16257504875157486
2.6 -0.15588342656960832 0.16647165793893617 -0.7484080076792138 -0.3070061221914455 -0.7443052713903725 -0.2862869698510762 0.16884580542096353 0.08291381054872674
2.7 -0.2385899768182287 -0.048614708837064605 -0.42208266808256545 -0.6742124649448916 -0.4386578120469001 -0.6711394840422097 -0.06108035849919019 0.20364444453663022
2.8 -0.06925903664662802 -0.22897463335266596 0.04093535461042214 -0.7774467028687206 0.04183997971335063 -0.7993503560201942 -0.23117427074806113 0.01248789949496536
2.9 0.17369107727238098 -0.17886846614073426 0.463968748733826 -0.6052308531650242 0.49049148424036537 -0.6127347984589816 -0.09036837869871449 -0.22067675222258734
3.0 0.2541800772686314 0.0767163358523355 0.7233903855827729 -0.23553275136150037 0.7405892448587499 -0.21708017818704065 0.18979638033274812 -0.15081016329633748
3.1 0.06444929711617922 0.3211489810424749 0.7371164996062495 0.21534132612962872 0.7280407710111364 0.22979317154788298 0.21624423903154993 0.16338013580698968
3.2 -0.26214080633028986 0.30132507059054064 0.47873344279476293 0.6159279214804614 0.46626544060903663 0.6081933357883771 -0.10197775404028939 0.2965626726116439
3.3 -0.4382642252403226 0.017336075617408325 0.00829162097925279 0.7827784109069043 0.010341949562522268 0.7726685831270231 -0.3875822305778208 0.028871833588730245
3.4 -0.28940965214935477 -0.2580566333824927 -0.4730414586512683 0.6153143303281452 -0.46897443185140575 0.6163817818309987 -0.22856871303131254 -0.36940659040156887
3.5 -0.012154996191162254 -0.27508229090287306 -0.7339705019606244 0.20013530435954763 -0.7358199241515743 0.19968703580268307 0.2315237076346287 -0.3852923127623677
3.6 0.10516939037277079 -0.07577651081431896 -0.694680280312996 -0.25886546192807486 -0.6923210184320137 -0.26094782388353044 0.4668849603572976 0.02984557128718584
3.7 0.0035025753634861587 0.10676570987263898 -0.4221295175083781 -0.6002467793978474 -0.4203583571057803 -0.5983984166193561 0.20801286932258112 0.41416682144175754
3.8 -0.18087035718289574 0.08278834754237781 -0.01523140156996794 -0.7425663517257513 -0.016181830056208157 -0.7476136585690709 -0.22952843120252428 0.3725980301804255
3.9 -0.2510699167458708 -0.09804084946771396 0.4164518604037688 -0.6406112897573001 0.4261625093922192 -0.656518542335099 -0.3817658153879836 -0.04233437660942144
4.0 -0.12497869100046269 -0.30124405449194175 0.7231071247114039 -0.28865224864216343 0.7468618660853542 -0.2941674351662443 -0.0721336234943776 -0.39162946916931185
4.1 0.1265760317881506 -0.32222144937180836 0.7587145885722089 0.2080168711304673 0.7638890541408446 0.21396150060497227 0.39154174929294555 -0.24624387600180428
4.2 0.31904990131955724 -0.1474514859069967 0.4647589711404729 0.6343069577037153 0.44932399551566 0.6171112701759003 0.4486197299897251 0.1987697559784084
4.3 0.287134576881547 0.08462193668876786 -0.02096554828079838 0.7804719528787708 -0.013028006814726378 0.742033725941615 0.10505086196311997 0.43670362182141476
4.4 0.11845264551243236 0.1899477149225784 -0.473913963062634 0.6067070976970019 -0.44250628816887083 0.5913463222353972 -0.22384645781751078 0.3019616225667552
4.5 -0.02570347173223682 0.11441648913558752 -0.7252834531568557 0.23488225225021006 -0.7175336489078755 0.2441005256499408 -0.27488173516855685 0.007788346568955034
4.6 -0.0066575106909041865 0.010735140505154134 -0.728990912226814 -0.20208240888775297 -0.7500366147985527 -0.2143926571179675 -0.10499012126220775 -0.10341485709754346
4.7 0.11455845329775037 0.01413498036669776 -0.4922646625848173 -0.5776718997388807 -0.49339234052767406 -0.6146146094525076 -0.009103623137280532 -0.012345132065261446
4.8 0.1405103145893223 0.18927290857528437 -0.055200231093289004 -0.7640444320783761 -0.03473095297329443 -0.7692892880333665 -0.11131102579334208 0.02764070630183166
4.9 -0.019956192413661367 0.3396807561863745 0.42985346862784035 -0.6520230517230055 0.41263683190936085 -0.625690147640295 -0.15464563023279823 -0.08635646233124131
5.0 -0.2628410387682807 0.30566753333013297 0.7428077043508114 -0.26251464709498273 0.6924461824311433 -0.2669236134385908 -0.031742023491851616 -0.16816234718907994
5.1 -0.38662988424154443 0.10561711445900385 0.7460439714334737 0.2274071742791906 0.7333798082391803 0.1935231386377556 0.0869010843219207 -0.05855357243269935
5.2 -0.3506227131619141 -0.08543921263671662 0.4583877537118436 0.5982514634939191 0.4866871818643338 0.6072384825085582 -0.00017999824931849706 0.1386597329152185
5.3 -0.25462531340326877 -0.145661035170545 0.018176278435719728 0.719897466350907 0.00919273454599806 0.774223334188208 -0.2975989804006022 0.10185728530456949
5.4 -0.17655939878980006 -0.11019123658446 -0.3900045841378197 0.5880255865902152 -0.4402834323402036 0.6048622003988324 -0.38949037686658294 -0.23169102209883807
5.5 -0.19203910205234345 -0.0772738238541115 -0.6653488150158201 0.2523082181823623 -0.677162227310446 0.22128940492675714 -0.09664155417693351 -0.5029294383056381
5.6 -0.24418673865137738 -0.1390431928707137 -0.7104435328194799 -0.18141834701612286 -0.6677595032874066 -0.18454939306400497 0.29721480455916865 -0.41858529968348834
5.7 -0.24096898610747658 -0.2874808464041392 -0.4915702467517558 -0.5714084329003323 -0.4648617599007552 -0.5225390943402979 0.4512721738526048 -0.02882706765669371
5.8 -0.0788068673023698 -0.432964867733015 -0.07567967441224421 -0.7525960854822552 -0.09689412034985181 -0.719579019064652 0.2215288946345951 0.3012558517564118
5.9 0.14047406386459954 -0.45643879672598187 0.3743853859431514 -0.6436623719728313 0.3690843829043474 -0.66435775100937 -0.2150246409369752 0.2459657056370334
6.0 0.3038674781377103 -0.3496747584453101 0.6708760682611389 -0.2800745867854799 0.714742910132587 -0.295775146501528 -0.3343657440499694 -0.19563335168314133
6.1 0.3694330612301164 -0.21852169018614676 0.6844163966278838 0.1775961981477657 0.720798126452723 0.20127664555894664 0.008939732148338236 -0.4999018600906975
6.2 0.360800508369299 -0.11874550647085678 0.4354687453603971 0.5419438029108847 0.43562192640345315 0.5547642223927378 0.4267018406075706 -0.3584898613184617
6.3 0.3614843700210863 -0.06824978018126274 0.03750768158314502 0.680912324902583 0.038048852022417035 0.6615367618440274 0.5408529546826409 0.04134411581106204
6.4 0.4068134645223214 0.01121380618440776 -0.3507109081233982 0.5671486889062585 -0.32629314671594917 0.5513938346299674 0.30291079971329504 0.3475415307931273
6.5 0.43840449672103493 0.15431099733904935 -0.5974436084794582 0.2700943085399493 -0.5791363030784674 0.27867120463517125 -0.05372299161315459 0.3552707329936764
6.6 0.37040124714092226 0.3186473818796666 -0.6474140149915238 -0.114391275710446 -0.6553554243411817 -0.10702028693204202 -0.24670401172535683 0.09726086945721273
6.7 0.2326365007473799 0.4133462962261189 -0.47068080465625506 -0.4763250592186646 -0.48386185488762895 -0.48934077250510233 -0.13320359962938155 -0.18389615221329234
6.8 0.11436412536348393 0.4249906826088121 -0.0973170158611138 -0.6705329949830362 -0.09586435857057815 -0.6859565316410147 0.1797111025942642 -0.22316912653957066
6.9 0.037930406361876376 0.4282785276975441 0.3212470208295503 -0.5813674006603702 0.3231561757012966 -0.5838856726104155 0.3799729570362263 0.028369430095819687
7.0 -0.056273066370286284 0.453634063632139 0.5801805141147902 -0.24941055705735132 0.5731499473641722 -0.2524596754752685 0.30434370016321166 0.3444286306612985
7.1 -0.19545559975510324 0.43057106430605513 0.5945698132378193 0.14608315064866795 0.5898831700769304 0.1359027394946473 0.030724260002466114 0.4756905016415517
7.2 -0.3108920696503237 0.348867418204425 0.4014978082462983 0.4669247625473655 0.40339310572179266 0.4614581004312101 -0.24116604935375202 0.3785430871108315
7.3 -0.39056984390151206 0.2227701267811741 0.07129412432995723 0.630880755566421 0.07353375900649686 0.6334979295689591 -0.363072806352838 0.15392245053115336
7.4 -0.4208449822619833 0.09907130013793351 -0.2993637536937194 0.586285597279522 -0.30007100214972743 0.5910786239946667 -0.3003285171447554 -0.10455725135967053
7.5 -0.40575426725492747 -0.029654441806466245 -0.586504272303426 0.33566843605681274 -0.5876288867959565 0.33665873044353434 -0.06385992219692473 -0.22823900729158786
7.6 -0.34182438456992265 -0.13764635628243455 -0.6804284641728753 -0.05137088798343212 -0.6822563851749451 -0.054982066349214764 0.19106156812344222 -0.10681494937826748
7.7 -0.2591694657540136 -0.18818596140781982 -0.5180894886188759 -0.4428434389734132 -0.5219764215402993 -0.45254709467160803 0.21422389765749403 0.20665926744370955
7.8 -0.2093843780594344 -0.2262031244363239 -0.13788242418028782 -0.6546970802033273 -0.1411267786595903 -0.6708996450750345 -0.07139763754717943 0.4020458595167035
7.9 -0.1783770863192516 -0.30271577707716313 0.2860233476160079 -0.5794383616932043 0.28778685138325294 -0.5973756648552512 -0.43800192629462653 0.2239961442536097
8.0 -0.05539314578910113 -0.40076227347480486 0.5533648995715319 -0.28380156866736955 0.5568257855563419 -0.29631906526809293 -0.5046012232468308 -0.1736762734388788
8.1 0.13349666585277653 -0.4114328221988837 0.6048410633936427 0.0790806148208168 0.6038897477031544 0.07591606475528717 -0.2281300047100277 -0.46268903030894604
8.2 0.3123044788073659 -0.22971401019692805 0.470287815216507 0.4044609742136235 0.46093160729967414 0.4050327027818861 0.07483521431971256 -0.4321289239542246
8.3 0.2859092104211153 -0.007159195553420372 0.17542587892452768 0.6176706354204581 0.16354726620548776 0.6137207864342604 0.23793812728928393 -0.1988740182182575
8.4 0.1065773371067681 0.08803487867036394 -0.22308991577626006 0.6270287566964647 -0.22039865066154316 0.6235261553650067 0.1597419711554024 0.0437293054054724
8.5 -0.01897779622047736 -0.03987628419276758 -0.5653056246295375 0.3696821918628109 -0.5516496477944056 0.3904556497932215 -0.07930071961448161 0.1184789834374682
8.6 0.06424497123502666 -0.17673281953374906 -0.6600840076541834 -0.043038476745970784 -0.6668786914812534 -0.0020354350492866324 -0.2582615742415614 -0.004064443493148426
8.7 0.2623191002083279 -0.12153751878466054 -0.4821006638321146 -0.4038733093022552 -0.512340175928673 -0.3819853065033345 -0.3087222357638946 -0.23320013881279839
8.8 0.33189573135542466 0.10876473010006116 -0.14559760274946673 -0.5834668512217434 -0.15876550986314988 -0.594141069862021 -0.1517784199114307 -0.450877355992241
8.9 0.19551273418418333 0.3305388062918065 0.21822180591623255 -0.5516876501114553 0.23826222251389698 -0.5542823391717374 0.15727120682826154 -0.5005220182547283
9.0 -0.047214814064658356 0.3979730560053439 0.5055642183074839 -0.33297796930574225 0.521301525302015 -0.30624041773725186 0.4402738047026175 -0.28126390132740264
9.1 -0.24742224776761249 0.2902341850048972 0.6245917456522372 0.010156546815772466 0.6112809183434873 0.03580053463941474 0.4711121819102234 0.10090794378409355
9.2 -0.3123920246951918 0.08622723854610458 0.5137228049190654 0.3792430289189658 0.4975868071999472 0.3742881921044833 0.17495523558814713 0.37467314973786114
9.3 -0.21367236476100127 -0.06934678053718879 0.1803215957364287 0.6242577004603742 0.19175584435421422 0.6148604717120849 -0.2247491615281077 0.25134363174122176
9.4 -0.08734513070709683 -0.09532327803242947 -0.2493585267862143 0.6030208972092841 -0.2383665837818376 0.6210888102400111 -0.3006382733301926 -0.17541005250595523
9.5 -0.049440648172920015 -0.0294430394207578 -0.5648928763736044 0.3272483031653006 -0.5833384607210748 0.34102965574101846 0.07613772150507772 -0.44117607344955345
9.6 -0.14814021253800685 0.0016634463768619642 -0.6432686349782253 -0.06363896813609976 -0.6549422471841375 -0.08186866949834193 0.5361006223264386 -0.18748245001358033
9.7 -0.23066906775712542 -0.13735996220570462 -0.48632631425559625 -0.40455452433389755 -0.4626481826560036 -0.4199291663900549 0.5557098920885227 0.33457124649954034
9.8 -0.10648310637457 -0.3422152790962729 -0.1582958226486071 -0.5977792389960273 -0.1303142982466199 -0.5802261038063636 0.15245415042383015 0.6421599962844284
9.9 0.20720698659216952 -0.3518435684939617 0.23021756880992944 -0.573643089314978 0.22622397020175405 -0.5491336369856741 -0.28621630065106973 0.5047701313938089
10.0 0.4177818414355783 -0.1012978852704538 0.5280732509091076 -0.31990047135902433 0.5142996022882665 -0.32371949666723077 -0.44131455572467365 0.11584404730748965
10.1 0.31319417416215967 0.20259125287929436 0.6308651881114112 0.05145941610846236 0.6422437365775481 0.03803985806913329 -0.2112019157036986 -0.19008676209776737
10.2 0.05671010013681668 0.24336598728262532 0.502220858270249 0.39713193340931896 0.5242289138701941 0.40476333004401827 0.11586061523273979 -0.17713879980616823
10.3 -0.06731997379851512 0.06904594216618735 0.19919417995237715 0.6044240573636345 0.20183703661094476 0.6216376523971806 0.25727072543974266 0.0422403589469016
10.4 0.04032950359475614 -0.08178551531332441 -0.18689801092575592 0.6002593519755354 -0.19560291291980947 0.6025663233825805 0.17136911938881508 0.23783281697536413
10.5 0.24141039221619304 -0.020828240856520422 -0.5154126085846633 0.34860691188024395 -0.515887361002314 0.34137172618213635 -0.012023230404843682 0.31260071334324596
10.6 0.32350661039417156 0.2131556771154099 -0.6237637933741962 -0.03980886157186064 -0.6189702776702599 -0.03950627185198091 -0.17983994495419256 0.24926567192234306
10.7 0.15534790710109794 0.4502807755268627 -0.4828739212230859 -0.40458739610099903 -0.4825110070032918 -0.40103911977181755 -0.28104864678041186 0.12146855210411557
10.8 -0.11861549302728004 0.5382124271998382 -0.16729250250269467 -0.5940553822356385 -0.167581692848426 -0.5929146203223853 -0.3195743179419571 -0.11790286568558529
10.9 -0.3836535855556251 0.4035720726064256 0.1863675231402156 -0.5692155676470617 0.18886161246054434 -0.5665738591477397 -0.14281988214048266 -0.36744444326373543
11.0 -0.48919713362915 0.13626151123412172 0.47423750796872033 -0.34391865416391365 0.47529292549144414 -0.33673393433362253 0.23348845294823709 -0.3716010729688778
11.1 -0.4089872504820168 -0.08078746279036217 0.5859392058489559 0.011847645083244818 0.5802493704947593 0.01645772020062708 0.49065261316111075 -0.011676418748766515
11.2 -0.268447068007448 -0.11456723148358457 0.4753983881715248 0.37118345266131986 0.46738456505544274 0.36793910809052044 0.2814587642877703 0.4553784538521837
11.3 -0.2832996508755238 -0.023335542393594505 0.17989995125343053 0.5861864108463528 0.17361491479440183 0.5775787865216309 -0.30491147325562884 0.5085947229362837
11.4 -0.4599714339408308 -0.04211752670828126 -0.1730569574211266 0.5694617684070438 -0.17282024724107392 0.5613769661645506 -0.6798947735349709 -0.035413234482862155
11.5 -0.5252741048980589 -0.33506293433280576 -0.4351745988799604 0.34591020881996015 -0.43571066109412215 0.3438159758345433 -0.4324731404473519 -0.6502610163280615
11.6 -0.32105730382634695 -0.6235123660598033 -0.5361347974006994 0.020615745443882116 -0.5427267876988071 0.015980645349530503 0.28885673841608805 -0.7466023101635949
11.7 0.06258552823541891 -0.6647550485282556 -0.44907847802165385 -0.31716295808574996 -0.4473047023819956 -0.33278074578572847 0.7369793129034881 -0.1424547490884662
11.8 0.31928559979746424 -0.44116770258116095 -0.1736016500177281 -0.5506765704531451 -0.15435028254476665 -0.5524162660810288 0.4058972242039258 0.5391107040011378
11.9 0.2512380469091613 -0.2073568650921151 0.1909339089309432 -0.5643876864687177 0.1927114927004126 -0.5388698766318696 -0.36144218391616983 0.5531279188201585
12.0 0.06568556269857996 -0.19871659560743937 0.4719136908236226 -0.34761165839913594 0.4391185633672368 -0.3336326339339336 -0.7137997424708531 -0.07063868083481253
12.1 0.05370152481561291 -0.3688922478722369 0.5575201307300148 -0.011236663315477707 0.5292750025223235 -0.04042511426710267 -0.3892393851255971 -0.6664990600731685
12.2 0.2786088191739992 -0.46747835813270533 0.44479614331995293 0.29129814564720563 0.4617664311480242 0.2582639277068858 0.23143514455168415 -0.7245892541730136
12.3 0.5441123517921366 -0.30482993022056115 0.19832722379792944 0.4952766273255283 0.2310842071757992 0.5073623392201156 0.5782646532998694 -0.2679746662736212
12.4 0.6536610074108826 0.005842228628988505 -0.11950192084641839 0.5435677404962705 -0.13064351611489702 0.5753893866376888 0.38168533516152997 0.19861701556253203
12.5 0.5310626968258428 0.31512438561386674 -0.4300067630417582 0.3927327330394229 -0.4579096682019402 0.38106663004367963 -0.008480251470863035 0.21593212219330585
