!Created with skrf (http://scikit-rf.org).
# GHz S RI R 50.0 
!freq ReS11 ImS11 ReS21 ImS21 ReS12 ImS12 ReS22 ImS22
0.5 0.1585991476635918 -0.03098264787218913 -0.9214406607652115 0.09827462179230101 -0.9217495023610048 0.09672940989290296 0.14236084355802897 0.09639416452274543
0.6 0.12676700289696174 0.15877336749190696 -0.8006712239665608 -0.44503314405172867 -0.8006651112898989 -0.44417871847508655 -0.04650901310421074 0.19087281596222608
0.7 -0.07086203252478325 0.23703993210592447 -0.39476375680516224 -0.8150366113974045 -0.39545455478807034 -0.8140686511332675 -0.21892839223902785 0.033714931541151946
0.8 -0.24503446739908327 0.11452349300349297 0.1462606379616318 -0.8842301420982518 0.1474644892109898 -0.8849961336306791 -0.1235615106135872 -0.20781482368136153
0.9 -0.25979895209760806 -0.10733847684785942 0.6252268070211551 -0.6300031598854112 0.6291100450016525 -0.6283989551451497 0.14802772201392578 -0.23608244996163452
1.0 -0.09511779100118999 -0.2483501536654562 0.8661337966926941 -0.14656346066227877 0.865891076492547 -0.14331609335906337 0.2959725099565296 -0.002514489101548792
1.1 0.1152548111252653 -0.17703775586203113 0.7811383657691311 0.3864348435977827 0.7789171287056184 0.38291157242322416 0.1379749539757003 0.22105183581187726
1.2 0.1770209663076015 0.021940462178556115 0.4011357176375782 0.7667033357390737 0.40770549613386736 0.7600958837929668 -0.09292373884339418 0.15868199518275294
1.3 0.028124737396612226 0.1569089145447749 -0.1189618857015905 0.8541054051693109 -0.10908355011255066 0.8601681552524273 -0.12302631242935091 -0.06354090318531695
1.4 -0.15644270334091703 0.06921659910688016 -0.5825405771041346 0.6273380974362753 -0.5862789536359777 0.639868197264692 0.07773605657717299 -0.17322714230254033
1.5 -0.19291319978843052 -0.13216507432966776 -0.8337983218205718 0.17939010848907272 -0.8460372140840213 0.17501112315717574 0.23163047908417406 0.005604592700563141
1.6 -0.02522409628905785 -0.24027211809061177 -0.7851960800870461 -0.3330992467183212 -0.7812809047241891 -0.34801198624071045 0.08616727369657443 0.23967577344095092
1.7 0.18550512539409042 -0.12096611872191577 -0.4448421069506381 -0.7288752743860716 -0.43134006781152484 -0.7249546436286731 -0.19212508472566336 0.16987704372106988
1.8 0.1840514124985304 0.1529158077950339 0.06974472601242669 -0.849453785023539 0.06075409265038634 -0.832184476716362 -0.23033827381023544 -0.1216196576220451
1.9 -0.08602221473438545 0.3289799343910393 0.5430699295164516 -0.6416071014484822 0.5175281762852877 -0.6459849295343111 0.05165871469816094 -0.30338426247309
2.0 -0.3818050661893262 0.21581318841822383 0.7939257360578978 -0.20002333289360286 0.7918525719010258 -0.22278015881107255 0.3725824390570036 -0.08421515879724105
2.1 -0.4440533094103835 -0.09316844939106633 0.7392728076524787 0.2840069787010211 0.7619050582850533 0.28266022177989 0.3207387748515593 0.35367614185112317
2.2 -0.24332029015721812 -0.317841832819368 0.4221194111586273 0.6446151551191737 0.4270528009895529 0.6652753122427407 -0.11071983063412077 0.4904564843071365
2.3 0.026565630501871274 -0.2519354693980326 -0.0732291563282356 0.7163545828684265 -0.08960918024566378 0.7199899943149454 -0.3514452248853179 0.1799243380795429
2.4 0.17011841644026582 -0.09048211518919466 -0.5273271274441403 0.5861421706631844 -0.5295935542763994 0.5694835223926702 -0.26319142388426153 -0.2473299419881227
2.5 0.04048692603929077 0.07354283323359259 -0.7795185908759461 0.17451210092283403 -0.7609438464018348 0.1739396956618084 0.09751554239234729 -0.3000870815009127
2.6 -0.17245901569505231 0.03970558742768607 -0.7393705854728629 -0.3106128544200637 -0.7355381105617077 -0.2900559473358697 0.2684146272804858 0.004090022764357909
2.7 -0.20822575655140887 -0.15233210985477189 -0.4198926118563648 -0.6724893714782304 -0.4364133293019008 -0.6694597719912837 0.04826281716416654 0.22016093823059812
2.8 -0.014771436521107406 -0.2938940042323171 0.03921680927320298 -0.7748009976934691 0.04009557183690943 -0.796631380617676 -0.18234422536795744 0.08542795728547577
2.9 0.22591974606924298 -0.2056915654788885 0.4630510518947129 -0.6048905552783487 0.48957133731829766 -0.6123913899214921 -0.10501071787765562 -0.1598447131542541
3.0 0.28702074448961823 0.07404393299374357 0.7231260989757876 -0.2342773733815588 0.7403348473101898 -0.21579470029836267 0.16087752939050176 -0.1352401750195124
3.1 0.06827495142217364 0.32116058431955324 0.736992109672697 0.21677974795322896 0.7279119068953006 0.23123797985466277 0.2128482062522581 0.1603546568379634
3.2 -0.28129063120413605 0.28100404460292955 0.47829530911958895 0.6152959311707507 0.4658657203649897 0.6076049997170633 -0.08655122366227803 0.31943063212714573
3.3 -0.4578384413985941 -0.04104888180357598 0.008898181433983632 0.7800886100437119 0.010927322922574034 0.7700468548076153 -0.40455388797390324 0.08745873731986811
3.4 -0.2763346191470349 -0.3547091599931902 -0.4748216861445703 0.6107587668956374 -0.470813817196057 0.6118808168826201 -0.3153816023548264 -0.3325837454240584
3.5 0.06080047115155893 -0.3884140225286642 -0.7385353817094957 0.1834158413669707 -0.7404331934686064 0.1829100018468896 0.11954836080179916 -0.4438344020157437
3.6 0.24850945223420298 -0.17295640899851555 -0.6878640654845998 -0.29421427548061774 -0.685404735636922 -0.2962453579541817 0.43052488594031546 -0.12241382700720749
3.7 0.20939465914199518 0.06473396774847293 -0.3880880515712176 -0.6378113968896096 -0.38641019600856047 -0.6358699457716707 0.3118043226399376 0.2548306397213537
3.8 0.06325944700126171 0.13439812556633893 0.04475803094252684 -0.7535293154326503 0.04423511141689589 -0.7587524624921846 -0.0048788202563876115 0.3271518054909117
3.9 -0.018548401106873842 0.07191926233175223 0.46794932808915735 -0.6077375539808384 0.4789846436667019 -0.6229205420998588 -0.15551446470859223 0.11018171190880459
4.0 0.036396579599074275 -0.023544361683929316 0.7362085627177324 -0.24171635258878993 0.7601718057959043 -0.2457212715343473 -0.021178269451144437 -0.08535397544258122
4.1 0.16236127365157227 0.022653577684462994 0.7401857753446812 0.2312023548095583 0.745134641780038 0.23726172569781911 0.17822076575776527 0.016438167900867218
4.2 0.19777217271457403 0.2000601514347053 0.4630152316406698 0.6221707294081812 0.44768989919613233 0.6053860522278522 0.09015289603714713 0.21199478253026682
4.3 0.013796638900129693 0.35990013232446355 0.01035531498418224 0.7720710865881398 0.01662701005368028 0.733856740368277 -0.16256139626125654 0.16755457454214026
4.4 -0.26116541660458875 0.32811246014704226 -0.43323975785367497 0.6311533124291356 -0.40309238429922445 0.6140102664297991 -0.21622016582722636 -0.10217503286952465
4.5 -0.4434381651261773 0.08838896527468587 -0.7054133932760269 0.2680028762104169 -0.6973647687123701 0.2766971202671283 0.036065188442160806 -0.2863317733721068
4.6 -0.3955549335927635 -0.1818344145081663 -0.724830616766933 -0.1868039981243543 -0.7459277363901892 -0.1986344815895854 0.3404689633087389 -0.07234457367228819
4.7 -0.18021067100660526 -0.3267280070974794 -0.47361588959012746 -0.5775127929749071 -0.4741262438755365 -0.6139023015829593 0.26421071109018235 0.34857307738371657
4.8 0.009712526098859739 -0.25178651346667774 -0.03249156709256834 -0.7524258213307583 -0.012363539749441599 -0.7569897634899979 -0.20164118517619278 0.46572849394344185
4.9 0.04956289784115828 -0.11136034267644296 0.4239560679337855 -0.628124027463045 0.4067755744520573 -0.6028247086777547 -0.5310590549741135 0.14160935728380072
5.0 -0.014731440079052902 -0.06254875716881923 0.7074365859881828 -0.25976339441321294 0.6590799637083617 -0.2635566911248517 -0.452009285406616 -0.2780435508774428
5.1 -0.023412921680582795 -0.12297676119421246 0.7148709989132174 0.18109837742556475 0.7013636708273187 0.1494953500484502 -0.1262532445792164 -0.43274023886537744
5.2 0.061212144187016516 -0.15106042447795223 0.48259912701390806 0.5360701077770378 0.5103238299992588 0.5424178020372756 0.1241084116353153 -0.26310557319105915
5.3 0.1373788712305054 -0.03799754153438054 0.09093244193162986 0.7082845504075534 0.08754351068230862 0.7627528801640747 0.06275195983462786 -0.055130897079414744
5.4 0.11819381288744128 0.13595728434037302 -0.3394248130377856 0.6370970424576533 -0.38908558878372046 0.659068650527414 -0.06867841938226985 -0.07915406392993855
5.5 -0.04354100044229532 0.24672104549636004 -0.6714073195307293 0.3251341529951141 -0.6866913017168313 0.2936334433616413 -0.005544387227958386 -0.20120009834952393
5.6 -0.24686318496519344 0.17659056004099682 -0.7639319533478338 -0.14896749083709826 -0.7188760852577543 -0.15508394069577516 0.16170836579407577 -0.17073066902141837
5.7 -0.3541627622152715 -0.04128668708544469 -0.5320098661046108 -0.5883837971455373 -0.5025932304404181 -0.5378009502157155 0.2095341183169491 0.04468886844161474
5.8 -0.2455982251794964 -0.28633509888328806 -0.07208944650713642 -0.7839171488403582 -0.09442270735988739 -0.7497951380396448 0.026917001423572208 0.19571534017827374
5.9 -0.02375548311150419 -0.4072289841994431 0.40198951210334155 -0.6468791699576842 0.397188497537371 -0.6682233488316713 -0.25661788214853654 0.06681496722956357
6.0 0.18631458892423772 -0.3671818367826561 0.6838717095097224 -0.2633593455234206 0.7284962490600243 -0.27800007806007815 -0.2519699985762205 -0.3004284030974476
6.1 0.31481628917380117 -0.2539428375973524 0.6835874188136296 0.1877918802131563 0.7197499303665438 0.2120199266622398 0.08216501237779938 -0.500407542389447
6.2 0.353285398738614 -0.1294357488257441 0.4348853663034515 0.5437217018559485 0.4350336177371825 0.5565601783895359 0.4345138330092815 -0.3461984328710297
6.3 0.3664683142424692 -0.02936313257175699 0.03674899937494397 0.6796597390402513 0.03731800441081623 0.6603091548173052 0.5391528732886113 0.003682097880117391
6.4 0.3793385474446546 0.0986094821948009 -0.3508583871304127 0.5587724067832647 -0.3265866696642532 0.5433308840392052 0.3615660529042993 0.28729221219712153
6.5 0.34353900580460284 0.2617532907531779 -0.5881446592795055 0.2556629735112844 -0.5703519137138344 0.264321811353321 0.07699712677125028 0.3533556926663519
6.6 0.19570670991453998 0.40224068631948895 -0.6260589111486731 -0.12057530544815145 -0.6338824718671151 -0.11350577182488605 -0.11721798551950728 0.22945927943535493
6.7 -0.012473394517169778 0.43007524072739445 -0.45756182429489306 -0.46614089002738807 -0.47038444523890666 -0.47887125648502815 -0.15136197572402288 0.06370377999354208
6.8 -0.1699240051168996 0.33462036384755645 -0.11520747837282416 -0.6739461497703316 -0.11410931211974729 -0.6895301809516865 -0.07555554754551488 -0.040067281786550904
6.9 -0.22084515832083737 0.2029715308677678 0.30624022087864766 -0.6418696515458344 0.30813903374675977 -0.6446523417767552 0.024764362358092287 -0.0655313955336897
7.0 -0.2055517299907248 0.11418187737667923 0.6356583282718721 -0.3469589930495097 0.6273055174157685 -0.34967448612813057 0.13536454387706318 -0.02588414913684655
7.1 -0.18407287436843783 0.03358111211698762 0.7196408669899041 0.0870037543648991 0.7126960351379931 0.07569634973723115 0.21230081119757813 0.06261794690533606
7.2 -0.11590288313340608 -0.044832374968435215 0.5288497122108129 0.4922368247608731 0.5304231079285143 0.48558367924565116 0.21858518597940252 0.2058670189883327
7.3 -0.014486462812429546 -0.09176483046248715 0.12784408304718836 0.7005097942774621 0.13073160581872173 0.7032408847189097 0.11517763423951201 0.37013874965772786
7.4 0.10106849337639226 -0.048086717702962016 -0.313850200523796 0.6315543500039622 -0.31427904373403626 0.6367944315379124 -0.10285664116755634 0.41101011840878976
7.5 0.16921535624309328 0.05252646303363556 -0.6174694526044855 0.3217051823341013 -0.6184582149376957 0.3228698661507465 -0.2989244137374919 0.29512938467844757
7.6 0.1681916512238838 0.18010005846467617 -0.6785698772007602 -0.0939438467944744 -0.6800925247469031 -0.09749036640651496 -0.36743029755160844 0.09200175761359164
7.7 0.0777650447991941 0.3149502879916468 -0.48585194776613194 -0.4597669514782602 -0.4891188852745017 -0.46934713134800643 -0.32000506349862606 -0.07968258742003181
7.8 -0.116976433819766 0.3678998432365594 -0.11361765927167713 -0.6479871088884956 -0.11607712881534016 -0.6639323548158483 -0.20828637046963286 -0.19238857463558112
7.9 -0.34959162823510176 0.25820147326795984 0.2980703601731707 -0.5773513467740464 0.30042700933552713 -0.595118316786089 -0.08554039794407634 -0.26109032475891525
8.0 -0.44018573774084413 0.01800744177093827 0.5895030529556413 -0.2923173214557961 0.5935339287227661 -0.30510138786387453 0.07450204385515746 -0.24590520735435498
8.1 -0.37395277675550576 -0.19547627686562463 0.6621196388237129 0.09566420844702464 0.6611618608157442 0.0925957464033334 0.2153270480472157 -0.11401443976046424
8.2 -0.23553804780493384 -0.22482978738782627 0.5179951900426473 0.46602820831347413 0.5073921762926741 0.4666905945422474 0.13859703040767177 0.1197967211859831
8.3 -0.21413486899297415 -0.20163134869567564 0.1580457015801385 0.6792056622786247 0.1453555573927179 0.674405486830369 -0.11373814644348763 0.21830008481405688
8.4 -0.2555066517827541 -0.2678671357350725 -0.2789782529066569 0.6142124412116284 -0.27588126057096096 0.6109921575513437 -0.3680370930135141 0.050166088227062845
8.5 -0.17529583571987412 -0.4616110323338083 -0.5661239144321808 0.28022087068315904 -0.5556839375384457 0.3012066244756586 -0.39436777254882804 -0.2657190281108265
8.6 0.09836424060593643 -0.5568569815831765 -0.5887923522517517 -0.1201444747321701 -0.5999670134948698 -0.08388159148375968 -0.176428364063345 -0.456453324281483
8.7 0.4196925475355006 -0.4000759275121284 -0.40450513042006786 -0.42092255436381654 -0.4346565301146383 -0.40359402373188613 0.0284643563798809 -0.4573540393860829
8.8 0.5580658828783472 -0.05587901599342852 -0.11099755117823473 -0.5704702393862369 -0.12321706275888009 -0.5813755143532552 0.17133829812804413 -0.38602784610575497
8.9 0.44266555935942886 0.27953996509731377 0.2164261201888893 -0.5511596292075629 0.2363959366651474 -0.5537388118838951 0.2951181207527288 -0.28869285996526095
9.0 0.1645633134460939 0.4422268282935589 0.5004991202544233 -0.35034502691214253 0.5170992898006876 -0.32374689149387753 0.3948015004628721 -0.09611665538326351
9.1 -0.11222858658902592 0.38112427049165454 0.6291207992626996 -0.008013829113665993 0.616422346109972 0.018213979208984155 0.3524057556747433 0.16886301227453684
9.2 -0.2606710592469202 0.16691845863783442 0.5211676962729737 0.3729198942824939 0.5048684173408253 0.36816642549466605 0.09551947398061367 0.3495360078540803
9.3 -0.2101682468824431 -0.04330989568154838 0.18161450044418123 0.6247876670389828 0.19302964992512814 0.6153213402204061 -0.23248541138702783 0.22691864602515086
9.4 -0.07283888165645637 -0.13479237551521348 -0.2521212663665566 0.6042542403555721 -0.24112256973638457 0.6223844517498267 -0.3129846947411126 -0.13632511040302137
9.5 0.03128315928228807 -0.10745822788279466 -0.5739191792973908 0.3248448589800801 -0.5926111722376379 0.33856960152596804 -0.02762737298916318 -0.4066550081529099
9.6 0.022024109311551236 -0.06563168328874625 -0.6629636117408683 -0.08048380858641563 -0.674541199551058 -0.09956622776047708 0.39153282471857676 -0.2817965691824829
9.7 0.017028168056784504 -0.1399480523236833 -0.5051840921397104 -0.4452803454547969 -0.4794585253931621 -0.4608680375310511 0.5229841089342576 0.10958927217599276
9.8 0.17416589347335415 -0.22366256988840855 -0.15688331217690957 -0.651937407119413 -0.126976338807959 -0.6321316970973101 0.32885273316948466 0.42546747675239344
9.9 0.4389819458701667 -0.07901790394932051 0.24718450684136722 -0.6069053928610735 0.2427270584220321 -0.5809247936309815 0.053268939236566226 0.46990349025906447
10.0 0.5067871419737886 0.2963859913821888 0.5358933502327292 -0.319653400953124 0.52186326610176 -0.32366427629499567 -0.132593774865398 0.3655320396425874
10.1 0.19793011966958662 0.6452025913743132 0.5925440544565086 0.0611178219352031 0.6034309344134021 0.048617735072591636 -0.16666938729893702 0.26048356860383254
10.2 -0.2578108394530928 0.6432081677378609 0.4358175075038142 0.38916095168884984 0.4553898573592944 0.3972019763626352 -0.21671420440604322 0.19712675932079787
10.3 -0.5514386019372198 0.3448316330557867 0.13271865535884955 0.5776299153068859 0.13356964612296182 0.5937100617521204 -0.2876610618647596 0.049373109624733694
10.4 -0.5476024570483946 -0.004879140186701575 -0.21386122790209902 0.5706822637394393 -0.22257090304851251 0.5722422789955788 -0.23453238519258857 -0.18027256100605582
10.5 -0.3508324310529728 -0.19871222724783616 -0.5054542824686923 0.36264243387414835 -0.50625319392293 0.35513791980420806 0.029129687392372053 -0.30544639683355235
10.6 -0.15520283648494418 -0.21751219893804902 -0.6206467956770961 0.00028625729747833173 -0.6158444922602325 -8.149970956086716e-05 0.326717432371659 -0.15711171290679132
10.7 -0.1027693425234979 -0.15998702077842505 -0.4856853601044965 -0.36004448375864434 -0.4850026361760601 -0.35694662352880696 0.37250245284470856 0.21650469232447858
10.8 -0.11178127722287712 -0.13726376793955744 -0.16345005824762157 -0.5871017231456819 -0.1636278039877916 -0.5861083596225282 0.03526446899390659 0.4338602122107308
10.9 -0.1040117136671535 -0.21076959825386843 0.22537330153276725 -0.5790766377751894 0.22773826082007828 -0.5762940027417259 -0.3106395602603951 0.2723354610081451
11.0 0.016024650366216156 -0.30278000142679246 0.5272721102248821 -0.35033871901197644 0.52795510896839 -0.3427483552477828 -0.3461864770912247 -0.058139271302947645
11.1 0.22966505736771764 -0.26643304250994204 0.6425006755260674 0.012726370972095613 0.6362049724897062 0.01743033176599698 -0.12779498378671278 -0.22322487940638583
11.2 0.38687330575775286 -0.02128641736618253 0.5197559351839524 0.3721887455246872 0.5112320183594371 0.36873744356079985 0.018625321047202888 -0.1323188858522315
11.3 0.2643577054774754 0.3128855022995428 0.2067631541551941 0.5889469366194666 0.20019535939467192 0.5802075474634595 -0.07041070425495036 -0.05960335101289327
11.4 -0.12355528017314543 0.4391331149877414 -0.1759894326207673 0.5688684728794848 -0.17554638582899473 0.560670030746116 -0.147893511988054 -0.23654725405443697
11.5 -0.4357142178957347 0.17815276444276976 -0.4766253151017427 0.34282082996443125 -0.476967979134574 0.34049007231651574 0.04479550743000352 -0.4209412461970731
11.6 -0.44623289116203235 -0.17776810333794166 -0.5782861792894582 -0.014030803002123076 -0.5849505385712104 -0.019535702415565126 0.42936499823619445 -0.27348380366142044
11.7 -0.22245035774219718 -0.33373746541597743 -0.47082958206767034 -0.3527881165731587 -0.4683922812971948 -0.3694355888626995 0.49325099256747884 0.23799654867496992
11.8 -0.05396237598806983 -0.2646457120635163 -0.18612006877018217 -0.5690005540971328 -0.16613147863167554 -0.5709580057696293 0.01047857350560652 0.5947497468138172
11.9 -0.11501518513610597 -0.1862969235868137 0.17153177414921533 -0.5594147929811966 0.17395067369375727 -0.5344074293024367 -0.613864410666201 0.33941250361658026
12.0 -0.22014409023306555 -0.29363477571296703 0.4429674371712249 -0.3475944021168891 0.4118368224480238 -0.3332154876361763 -0.7303443686403579 -0.3297669485040705
12.1 -0.11503646820071592 -0.5189960508044638 0.5387459879360627 -0.020631776063077898 0.5108795857332812 -0.0483997875682409 -0.25516730918230596 -0.8142757530537529
12.2 0.2133612308522149 -0.6097054268441141 0.44095841470299835 0.2828279750819905 0.4573391708149617 0.2500563759481114 0.3785518645065957 -0.7306766251082354
12.3 0.545198226076665 -0.4002262558331364 0.200394631912789 0.4940753201814344 0.23314908594730707 0.5059334862451995 0.6464910615329927 -0.19971974742463808
12.4 0.6673581610274733 -0.024754087784221612 -0.11992131075251591 0.5439428458717306 -0.13107704048909932 0.5757220164957263 0.3766235914777735 0.2350190439400803
12.5 0.5076332042236286 0.33668695226596335 -0.4316757457246632 0.3946817770292996 -0.45963583435694105 0.38297103075030353 0.013967612864590959 0.19136838322803207
