!Created with skrf (http://scikit-rf.org).
# GHz S RI R 50.0 
!freq ReS11 ImS11 ReS21 ImS21 ReS12 ImS12 ReS22 ImS22
0.5 0.16807107242463457 -0.07291248881801174 -0.92016411007116 0.09871651935482953 -0.9203759132939688 0.09716707460971111 0.12301330420210706 0.058383891574399834
0.6 0.15920394968132456 0.11011006063733272 -0.7986673607426559 -0.4469438738524219 -0.7985748883841154 -0.4460360506642058 -0.02413390101893817 0.13686077592542037
0.7 -0.010215821451278528 0.19267189947569052 -0.3888179200246925 -0.8185629173334362 -0.3895255035049998 -0.817580354201444 -0.147609601923143 0.009100451182082366
0.8 -0.158521380037635 0.09008514444794238 0.15773071828922142 -0.8862182431445453 0.1589327012532772 -0.8869411704531505 -0.04325019823942736 -0.16280646673089125
0.9 -0.1580484694392179 -0.09555561858650674 0.6371076497685858 -0.6309906876194383 0.6409676279651276 -0.6292990198694443 0.16857245270965898 -0.13349851076856933
1.0 0.006103239986240294 -0.19148789083549012 0.8796711683886939 -0.14698850933338406 0.879361961464598 -0.1436907650062691 0.22216500744999723 0.0875279962546503
1.1 0.19528322565906767 -0.07634770574531491 0.7963704467429353 0.38604530594192144 0.7940399145731747 0.3824639178511967 0.010132879992941605 0.2214745042042877
1.2 0.21624738502620366 0.15381136453009778 0.41851316240528386 0.7687287350332376 0.42501450662835627 0.7618842332868216 -0.18208660283636033 0.05260834229341392
1.3 0.01574123964921728 0.2994439948690016 -0.10424636967872247 0.8599200379937109 -0.09421297527388456 0.8657935524736371 -0.09974232924498976 -0.20826319868067825
1.4 -0.2202062691439844 0.19904332576213968 -0.5729724655274673 0.634908184418914 -0.5764910558485339 0.6474303562500713 0.20344410574675412 -0.2516259493089711
1.5 -0.296517856592544 -0.035587348327984054 -0.8252810694178758 0.18331950579182227 -0.8373919812215076 0.17906142731335545 0.3677605592716317 0.05033723307402361
1.6 -0.15009815450538763 -0.19117808446534612 -0.7736381481763748 -0.3288509322896151 -0.7697343911873683 -0.3435088240079726 0.13560253264493838 0.3640000015936388
1.7 0.062242929957114196 -0.12097714988205666 -0.4373594430872846 -0.7201235804124992 -0.42403853760565213 -0.7161622116643329 -0.24833266429059306 0.27618125692274625
1.8 0.08517031185021004 0.11558308672579264 0.066034449826054 -0.840374431907487 0.057161016290399325 -0.8232021603511762 -0.3311729626436055 -0.09894199144163998
1.9 -0.1483000072552632 0.2765971596691825 0.5325646931176599 -0.6393629624432396 0.5071701113779268 -0.643460896195706 -0.01532784214461752 -0.35337811778343076
2.0 -0.41506829664022055 0.184289496989114 0.7751789606714987 -0.21179937689801454 0.7724939574692338 -0.23411244088772665 0.37564330032198084 -0.15029351212140918
2.1 -0.41775064359975866 -0.1126838026383928 0.7269462446643469 0.3054844816360477 0.7496386952247072 0.3046834727888684 0.32044640946839476 0.32110061129709183
2.2 -0.22129447720769616 -0.3093763018322492 0.4086245615663892 0.6647577459784384 0.4130376190692474 0.6857406591172965 -0.12822406892959182 0.46904234487018903
2.3 0.030576675876413533 -0.27549682857479013 -0.059177327146310174 0.7799633024319484 -0.07656693989026837 0.7843095256997449 -0.4251683976386797 0.10718723100396774
2.4 0.09170699725470863 -0.06856452851737023 -0.5112019201016238 0.5996350201147311 -0.5138581692083031 0.5830057753938952 -0.254160412614767 -0.3237671196281978
2.5 -0.08052191729697046 0.07829075424294948 -0.7685144465037698 0.19167210442333615 -0.7500727521095139 0.19068009866586028 0.19776907206497002 -0.3499424665420096
2.6 -0.32245008624144866 -0.0053973917803746 -0.7301865497869005 -0.2867260270558276 -0.7259346920173296 -0.2666580455698554 0.4055008569899151 0.06578375144544191
2.7 -0.3547755422414648 -0.2680824399133678 -0.4144969770897401 -0.6464180495397044 -0.43044734898218273 -0.643236893633778 0.09790288933659545 0.4025976624346985
2.8 -0.11925705178776055 -0.4799963732847584 0.047270820874063924 -0.7456888804266975 0.04837766936555096 -0.7666828211310968 -0.3146414016507492 0.26638489071534216
2.9 0.1962661520237196 -0.44555549267482 0.4751491083243382 -0.5591476520400499 0.5009831539210222 -0.5649951390845864 -0.36104054484655745 -0.14938095305872146
3.0 0.3563124805406206 -0.19167717387227073 0.7232140797505628 -0.16749552177197902 0.7383347693005559 -0.14808081953770855 -0.03072050733769177 -0.3446399177660802
3.1 0.24318526018808706 0.06651484802749738 0.7116113292912181 0.29325984490994544 0.7009945835504712 0.30665448720756155 0.24144727709854508 -0.1461454865691693
3.2 -0.011960772762377302 0.09256133329768741 0.43295525861265594 0.6626787059460761 0.4210227760257504 0.6537813243768344 0.17139387677899348 0.128429096155569
3.3 -0.13192302569883899 -0.11597412270217917 -0.020603191615094996 0.7924382041114783 -0.01811902797335546 0.7822666598798758 -0.08666543697047747 0.16245574251807174
3.4 0.048610220281940175 -0.2956537428762661 -0.46948911758719847 0.6188122073383931 -0.46539328736688074 0.619841967790997 -0.1746113871024124 -0.03621489312369708
3.5 0.32574647703373705 -0.2110932898499203 -0.7255219684650054 0.21581448571205497 -0.7273933492758925 0.21534775731166989 -0.019708661667383026 -0.1551341971406379
3.6 0.41446140403817583 0.07965293403995971 -0.7020799697616038 -0.25276906511231967 -0.6997259097132764 -0.2550162039233743 0.13544260742230307 -0.051786299977574855
3.7 0.2661620576055087 0.33813167103789615 -0.41669020232447196 -0.6170566618835045 -0.414869279356229 -0.6152920187913501 0.08476018658159974 0.08672760314289889
3.8 0.022574092896354675 0.3840700262343243 0.024761209991099653 -0.7520382804499888 0.024175780164015837 -0.7572927839257734 -0.0221409855930337 0.06912556254733912
3.9 -0.12940299801740973 0.26500523438970647 0.46024351458624735 -0.6024574142503241 0.47114018018858395 -0.6175377789837757 0.004956597364544273 -0.04782863213755379
4.0 -0.10455379562024977 0.09358237400111713 0.7252527902542156 -0.23559119956686114 0.7488678866057475 -0.23949124105632935 0.1600095830494523 -0.07092251940215877
4.1 0.03688362104780585 0.06473326174386375 0.7258483570228742 0.22913747511909313 0.730748632426599 0.23506260226010917 0.2523652173819398 0.12209283106276783
4.2 0.12241441926737479 0.1974926336944833 0.4597425785603024 0.6132268123264732 0.4446069582020423 0.596694054944672 0.06949388419709246 0.28404542149176687
4.3 -0.0026188122296727373 0.3552823520010046 0.01443870065523603 0.7694106192449237 0.020529734107599285 0.7312974413104832 -0.18088732519020034 0.17235888734390425
4.4 -0.23475338945612625 0.3602940864924525 -0.4376772191331075 0.6307899093086797 -0.4073558994559817 0.6137812604884654 -0.17343167942980547 -0.09147262394482855
4.5 -0.4092499855539261 0.1827152346866966 -0.7149319806428238 0.2526728404443661 -0.7070933415554943 0.2616287442056524 0.08011375684733196 -0.1826009997140066
4.6 -0.39890794781862743 -0.021362349808810036 -0.7157982336605061 -0.21107230921956988 -0.7364498558749731 -0.2235692006958095 0.2510376304384774 0.08463985438069214
4.7 -0.26269281127302174 -0.11990371912007323 -0.45293216196217345 -0.5811933423427251 -0.452570931621735 -0.6170766488059805 0.029604873809691595 0.37931036086592257
4.8 -0.17947663083893625 -0.04309821414740596 -0.024497741489973936 -0.727445906828458 -0.0050491783186184525 -0.7317167447309778 -0.40133506443735945 0.2676500977244623
4.9 -0.24987035574982425 0.03864564673597008 0.400842984202069 -0.6051007290285451 0.3846034909485728 -0.5807789030748629 -0.5109999599732484 -0.1779304203912994
5.0 -0.3916764527632049 -0.035645220093066116 0.6766670539274908 -0.2594610310140592 0.6301432907134806 -0.2624563275465266 -0.17104586016806386 -0.5071039644762106
5.1 -0.4132916248420815 -0.2520892771621922 0.7029826884153361 0.1813208086614685 0.689817662478246 0.15018542414283592 0.28546968557494 -0.3749221465717172
5.2 -0.2791248614368646 -0.43081238445664743 0.4666656071905012 0.5542481239059702 0.4942786456286023 0.5615833903610875 0.37899277155398314 0.12996423396739773
5.3 -0.09714632727565752 -0.44851553287212287 0.047332322160536164 0.7214802616388691 0.04055334085119727 0.7763525217882371 -0.10142941845157177 0.4182900920899441
5.4 0.044536232568714106 -0.3566419827613804 -0.3910308482193946 0.6017798473281943 -0.44197214760663794 0.6193872782003014 -0.5479118646742066 0.07498267075272433
5.5 0.08038295212144325 -0.2478282884615795 -0.6687362146497139 0.24966242737324315 -0.6803466411331959 0.2185105071915424 -0.4104045059390073 -0.4674801154297115
5.6 0.056769995513912035 -0.2188488868493288 -0.6840729043988573 -0.18650684102698656 -0.6427718447520416 -0.1887785312702966 0.09530376898297638 -0.627517389240916
5.7 0.05613054087229272 -0.2763252151418025 -0.45515869625968364 -0.5461796804247638 -0.4307698594419161 -0.49961565641339806 0.4856955518058697 -0.3050525197226154
5.8 0.18306309336618792 -0.3484883676459941 -0.07166754879032944 -0.6985283052051215 -0.09138749416107073 -0.66780836165114 0.4557061790017273 0.15838678278838175
5.9 0.3583772302934588 -0.3229085733205715 0.3270652900226201 -0.6179866658659992 0.3213280821907497 -0.6371961628025674 0.042254297385874454 0.3577811916313673
6.0 0.4700247886744526 -0.1759595642676753 0.6239322636583069 -0.3155453808609739 0.6649554158862295 -0.3335911238262116 -0.29545976545374897 0.08170139337099001
6.1 0.46842700921339137 -0.022232420289578225 0.6864767638938725 0.12421042605958202 0.7240186297495319 0.14493825900947108 -0.19550483378059133 -0.33898674478397484
6.2 0.3945087855538149 0.07541595577208847 0.4593689052343194 0.5191073949985388 0.4601327944977645 0.5319833551125169 0.21660134446667592 -0.43617427852776247
6.3 0.3409192776861671 0.10803432455091319 0.047096485176868985 0.6767506823429702 0.04732968034513302 0.6575283696892064 0.49715473307311686 -0.13749050129244356
6.4 0.34250044716730565 0.1566159762257207 -0.34763840786125544 0.5561156766664935 -0.32356760309754384 0.5407654619199647 0.3991750070254224 0.22979964693210522
6.5 0.3485981839257649 0.2600352968023077 -0.5855925800923213 0.2568120770693005 -0.5678526617664843 0.26541213337861014 0.07567870682464796 0.35841426384630415
6.6 0.2744022855099187 0.38465113980000426 -0.6302417678137581 -0.11557354588799548 -0.6380868667997724 -0.10840853447772947 -0.18148021213355564 0.19110713405483482
6.7 0.14366738669476822 0.4478368407595025 -0.46413661344301943 -0.4674976944892102 -0.47719004817131216 -0.48030646016098766 -0.17059606438240052 -0.09149581342304566
6.8 0.041864208389324725 0.4351214062940688 -0.10352364227920025 -0.668486987482651 -0.10224347709325915 -0.6839578251832777 0.1000598400099899 -0.2116946140826778
6.9 -0.00976830583154037 0.42231821744024806 0.3175520056422113 -0.5887186360388427 0.3194538257600022 -0.5913360696869621 0.346623109771608 -0.015509118006496816
7.0 -0.07779645772979848 0.4444008436470164 0.5818743749743398 -0.25416363993296465 0.5747982184889007 -0.257226609154117 0.31589839197924907 0.3186032866631938
7.1 -0.19718666423529424 0.4298487133064076 0.5943342764216462 0.14500187700263753 0.5896647620742533 0.13481559964055803 0.03444401495448332 0.4768040097888352
7.2 -0.3012848580169026 0.36704122538879286 0.4001997832984553 0.4652141803577158 0.40210315983246736 0.45976412587539284 -0.2587177482391056 0.36723142522123153
7.3 -0.38067433593127065 0.2676009595887593 0.0720188243547251 0.6302391266588433 0.07424871225333257 0.6328483840793705 -0.36486331390214843 0.1077616686804661
7.4 -0.4231236143744489 0.17189276606618586 -0.29996303960055976 0.5872254372696714 -0.3007026461114381 0.5920293846196562 -0.24225938662108623 -0.1513234849897971
7.5 -0.4315531593689734 0.06552971668030314 -0.5919256712069083 0.33019710797596946 -0.5931307253670013 0.3311726418145621 0.03937387278748931 -0.20067637071447433
7.6 -0.4021980139971706 -0.029637051536353987 -0.6794992433031872 -0.07015230254616245 -0.6812623499082711 -0.07384958898542299 0.2379081161420491 0.02627547384771821
7.7 -0.3647515663319662 -0.08355928142220881 -0.4942651278631076 -0.4603488251574399 -0.4977270501251423 -0.4701231220222916 0.10486863830471191 0.342118865232952
7.8 -0.3598402638435864 -0.1464761448940482 -0.10583852772909055 -0.6450903633369793 -0.1083147332483626 -0.661035011051663 -0.2690074232464102 0.3749191087051738
7.9 -0.36160249907714254 -0.265922504994043 0.2954757628611132 -0.546071482237676 0.2978052506613127 -0.5631983049762169 -0.5232000330448385 0.025448970854146907
8.0 -0.2603880902793121 -0.4182413110721118 0.5402746716738314 -0.2607462283409493 0.5439108817103209 -0.2726756731169897 -0.3839817755793947 -0.3689869652026827
8.1 -0.0814094501194518 -0.493511792499185 0.5913638638960844 0.08542535559375558 0.5904901520947389 0.08241966381733029 0.016836594199115956 -0.4873492938002586
8.2 0.09937370813763088 -0.3919714514553505 0.47748726254260115 0.4163627014100226 0.4679216637556881 0.4170012667308819 0.2704103353509818 -0.23891456931461488
8.3 0.09356628846480351 -0.24674051743245798 0.17770262556491623 0.6417215659339919 0.1654132329506181 0.6376402022517067 0.1952216212137818 0.1082116097021695
8.4 -0.034492456310197206 -0.21989149078599285 -0.2450609175351748 0.6300314875162663 -0.24216169973230417 0.6266829228402209 -0.15889874952690994 0.1933921768431326
8.5 -0.07056635812076333 -0.3863813632211216 -0.564505522100729 0.31263007324619596 -0.552892844175711 0.3335536978550155 -0.39662170435564853 -0.10494829275886672
8.6 0.12108605375900837 -0.51858304553002 -0.596146259435077 -0.10880836971792095 -0.6066941171319719 -0.07199535083201772 -0.2287498771134754 -0.4216347155857846
8.7 0.41769946551842535 -0.42936621662963664 -0.39887045802584775 -0.4214387749843581 -0.4290089755461652 -0.4044492277677274 0.06583268110730404 -0.4593114762339277
8.8 0.5882627221748404 -0.15903510880234817 -0.10105952161703546 -0.5732324204275463 -0.11309736793118064 -0.5843713254867018 0.2541019966136437 -0.28981099978438707
8.9 0.5596796353379385 0.1182310057866987 0.22555614676984762 -0.5619924100050215 0.24605020840167952 -0.5645062862450355 0.268189676280681 -0.08317595172678471
9.0 0.4049534984509758 0.2707805612660289 0.5178691709390562 -0.3619046755685872 0.5351085655407471 -0.3344118685144201 0.15139991185399215 0.05893324547689801
9.1 0.2509936125080476 0.27063979004833144 0.6476963965894781 0.006044234863368875 0.6340979813374622 0.03273192721368132 -0.003742394168632618 0.05163889351117128
9.2 0.19050945421507812 0.20305083940517582 0.5126369638447087 0.40230443308787345 0.4963876116798964 0.3966926697528071 -0.06908460509900217 -0.07743748346544989
9.3 0.24362120463365394 0.20059089951600048 0.1514414776582868 0.6196637725689371 0.16320890043550287 0.6108718542267446 0.03454501302356224 -0.22999460058048435
9.4 0.2744084102789619 0.31527010075438977 -0.2411075834902815 0.5666196534281659 -0.23069621135234733 0.5838423059147675 0.26192395966029025 -0.22124344942180674
9.5 0.19745274751452083 0.4792135117577785 -0.4946290169897191 0.3200843034244208 -0.5105010207659152 0.33336996623777626 0.4246667938688966 0.001444157810147867
9.6 -0.02600528307192901 0.564508155178135 -0.5610930271562917 -0.00865888156154812 -0.572425325396722 -0.023663255724978936 0.3635295413649836 0.3279007617428243
9.7 -0.26120011927302633 0.44399575328985635 -0.45274147711394935 -0.3363199195902533 -0.43222725985342836 -0.3513005702335157 0.03186084309866244 0.4758685038620075
9.8 -0.3163564359180429 0.22195501039133275 -0.17617589371092995 -0.5679767987702017 -0.14827319078684043 -0.5523050936685746 -0.28063614706034146 0.2868691530692154
9.9 -0.18397499012237478 0.1430284984382612 0.21071866334338551 -0.5995870885754677 0.20804183014322084 -0.5741461658841803 -0.25099152365060223 -0.09113012092327805
10.0 -0.11261579936410274 0.2699526300186953 0.53139286285996 -0.37075938023421195 0.5168712756129384 -0.37367337586736166 0.09440952841095432 -0.2188177617511649
10.1 -0.2935434600031034 0.41832679486843144 0.6103885172329624 0.010707606468702585 0.6205393372088217 -0.0028317817786383537 0.3906459785222889 0.0712050707684184
10.2 -0.5743376898433535 0.28844413553118475 0.4474905797968154 0.3589993149764951 0.467192335437171 0.36596351429267515 0.226110408203521 0.4703080604989802
10.3 -0.6871900714256162 -0.06016730084944938 0.13436564837913745 0.552193251594695 0.13551796654956733 0.5676973458846125 -0.2288643929221283 0.49152079202548205
10.4 -0.5322179081076897 -0.3887275693715185 -0.22418047853771245 0.5452003118007405 -0.23254678646373356 0.5465666180283969 -0.48199318493145793 0.09359135356802023
10.5 -0.2389675425255939 -0.49035039765200134 -0.5090850908988934 0.3494322760230491 -0.5097118993353016 0.3420908905284062 -0.269669062952732 -0.30742807633768976
10.6 -0.012457100481433739 -0.3812511802368534 -0.623286494286195 0.002409562612402452 -0.6185251079759466 0.002082940451912374 0.18771236753177056 -0.32389932953969924
10.7 0.0015317085976550397 -0.2134333469143674 -0.4954960922774019 -0.35453773308054826 -0.49482809555539553 -0.3514225501399828 0.40076826024835827 0.0949367700368485
10.8 -0.08782910872797339 -0.14035648385833377 -0.16720487421910682 -0.5849583022565421 -0.16742918819326577 -0.5839764144014068 0.06113407003645442 0.42842220135117104
10.9 -0.17146229434229643 -0.23585605038112462 0.22466796243590786 -0.5753870184241319 0.2270328107176382 -0.5726696446855842 -0.38126067966284394 0.2519707016552578
11.0 -0.11693470292105151 -0.41553574537393023 0.5153308645567323 -0.3467313458894472 0.516076644859744 -0.33931633080695517 -0.40359592085563883 -0.2177409004738296
11.1 0.09210632774470406 -0.501683572207301 0.6146743137057183 0.0045469732239668825 0.608736538009741 0.00917145287566662 0.005360320018910597 -0.44922552565085117
11.2 0.3312188630832298 -0.3707850680019168 0.48661714877821494 0.3555140107345086 0.4786137750232551 0.3522927226965873 0.36519207116351016 -0.19257768357914118
11.3 0.37224567367383543 -0.10165913075123445 0.17611549122763104 0.5784235180645206 0.1700665439320387 0.5698264060051139 0.2698294227418079 0.2156078115021094
11.4 0.19163073634603697 0.050726012147781774 -0.20927879443128056 0.5836334156892811 -0.2085714365075641 0.5752031048597718 -0.1227576759451592 0.2657761234732624
11.5 0.06270747625919987 -0.10121077428687827 -0.511397328262263 0.36044565223077374 -0.5118524403464768 0.35804229341104366 -0.36975952041907967 -0.04731822535163413
11.6 0.16517947067192942 -0.2738353827647414 -0.6185490262382437 0.020899150972181146 -0.6261239617162021 0.015628733493235458 -0.17074695576739765 -0.36753334975500557
11.7 0.4188002439335988 -0.20785078662631554 -0.5126907175556165 -0.32081355871644646 -0.5118363544520032 -0.3378785405276626 0.15902381292031867 -0.32035014814847007
11.8 0.5179469041293583 0.1031185230165968 -0.22354235568722297 -0.5610288932318674 -0.20382805412947042 -0.5642035289998248 0.2298616585537012 -0.03705060198431698
11.9 0.2755232526644643 0.3856167282710886 0.17833940080095428 -0.60004646418571 0.18094229953172306 -0.5733509957042848 0.0006844036867126452 0.10141320298289097
12.0 -0.07142917004341191 0.37163866463074774 0.5230024768006583 -0.36700953265952235 0.4867935765138145 -0.3526240771251937 -0.17125062259029183 -0.03442030534223778
12.1 -0.205100000575424 0.12078027999494513 0.6313866647776893 0.01569371162965988 0.6008052633671038 -0.018751888059896745 -0.11957710935118801 -0.23058662027301718
12.2 -0.06802703285497232 -0.08093410973015006 0.47999370556486 0.3648669747198941 0.5017021646083427 0.32889809565555983 0.03848749719135243 -0.2749574205111807
12.3 0.12352062242950805 -0.046338142683572406 0.17510470355674074 0.5445902559953782 0.20905111203338478 0.5600004000590155 0.1014886592676759 -0.1711839989695911
12.4 0.18806364907361925 0.13111733452382887 -0.15936524392245 0.5472449958117076 -0.17307471851868092 0.5789398432731995 0.02900295978580831 -0.14027386960327304
12.5 0.05803666162390414 0.30824916418875015 -0.45096838455815225 0.37781634365763306 -0.4786395834115177 0.36480251567647615 0.0693232396738599 -0.2536794071176694
