!Created with skrf (http://scikit-rf.org).
# GHz S RI R 50.0 
!freq ReS11 ImS11 ReS21 ImS21 ReS12 ImS12 ReS22 ImS22
0.5 0.1309135370245857 -0.026152413972624564 -0.9209785468865324 0.09781951699773134 -0.9212126664172525 0.09628535552226855 0.17013895754142966 0.09445563298587112
0.6 0.0909296961579612 0.14256538188169726 -0.7995445389669433 -0.44572995801409326 -0.7995043561223537 -0.4448323032890919 -0.013245169080612837 0.21125648471941905
0.7 -0.0983716225948861 0.19293657007775464 -0.39283836375416675 -0.8155706230997587 -0.39355762504021286 -0.8145966129346611 -0.19838640816989944 0.08114002039918829
0.8 -0.24350493337515283 0.04972789686334589 0.14964080791365952 -0.884894642078332 0.15080960705619934 -0.8856251803492439 -0.13603924672082596 -0.14442383279369553
0.9 -0.2145851923480649 -0.1690983649560712 0.6298806306917831 -0.6310620990455191 0.6337521807207211 -0.6294548188071057 0.09178491988244616 -0.18493659083561964
1.0 -0.009285639013946523 -0.275653741028764 0.8733460582007747 -0.1477207072008816 0.8731243578960615 -0.14447806164544802 0.20669754111000405 0.004467205620019761
1.1 0.2151405532992747 -0.14415854423571642 0.7903767765215889 0.38717850531942344 0.7881268818476368 0.383613475066236 0.0498447509310042 0.16488650245487083
1.2 0.24806841282943923 0.11910273344940757 0.4115682937307247 0.7689862883744767 0.418135325614748 0.7622472424863826 -0.1359724342437114 0.04548299212889116
1.3 0.030659896903348742 0.2929589838037831 -0.10809411362403082 0.8591534071649258 -0.09807234381427585 0.8651098566047576 -0.08688008659952874 -0.19765152755968426
1.4 -0.24009130940860043 0.19599697664482946 -0.5700394723782841 0.6357819538424736 -0.5735431406712411 0.648380710836366 0.19665450854402167 -0.27207538986279295
1.5 -0.3460485994596935 -0.06844095996609605 -0.8185379390024556 0.1887746445983886 -0.8306765515784356 0.18468424363978103 0.3982199371285943 -0.004196631120601951
1.6 -0.19972432766499237 -0.2785431205534492 -0.7657283893365052 -0.3213733591221353 -0.7619641707381309 -0.33585654984036095 0.23391830112142856 0.3377128565238451
1.7 0.0565725007310426 -0.26472518402286876 -0.4248627324238926 -0.7123980761657516 -0.41183012526443785 -0.7084238537974008 -0.12929524022217892 0.346938696860765
1.8 0.16068440081561186 -0.05316888527778009 0.08457768735872329 -0.8269037924009466 0.07542464553775548 -0.810254930327719 -0.2883570062112204 0.06963541324071687
1.9 0.016165489638622275 0.1346544635742472 0.5561567783571713 -0.6193594783516618 0.5309418379037851 -0.62442384228499 -0.11775099537144204 -0.17135796857669944
2.0 -0.18595888069667238 0.1150653234224347 0.8088618166107218 -0.18342699267539328 0.8072648717057843 -0.2065692564396333 0.1497117895784847 -0.07379556428605229
2.1 -0.21744470463128707 -0.06497548568850936 0.7561625661910492 0.30035097665345 0.7793952143025472 0.2991660376964328 0.12521015175068992 0.22458077482307506
2.2 -0.05925422120224996 -0.16297275356150387 0.43961749980947823 0.6668930469585854 0.4448125745362653 0.6882541449561319 -0.19483442523909575 0.2622336466022559
2.3 0.1528386772051962 -0.05077661057731667 -0.0005796256423965529 0.7472570013036675 -0.016840937048136773 0.7526191072108223 -0.3814702686617605 -0.0860780323695784
2.4 0.1025585397570456 0.07963540277746828 -0.512888501189663 0.600190978168785 -0.5155459002345109 0.5835337408767245 -0.12961685109809262 -0.3467442626140598
2.5 -0.1266362686328705 0.17456440500563927 -0.7704391912831448 0.19596475695116514 -0.7519630516244056 0.1949064487513084 0.2782996361327523 -0.29147749173961657
2.6 -0.36272407834101683 0.02915033235339133 -0.7279569662476431 -0.28766308086580034 -0.7237759609334775 -0.2676087455086712 0.41101860908117965 0.11811537944996027
2.7 -0.3467275982692866 -0.2639814018208192 -0.4104489314677075 -0.651408108797821 -0.4265081777269294 -0.6483517638082127 0.09339415518540707 0.3942117242991827
2.8 -0.05846012959071974 -0.4514358301282564 0.046858662175400405 -0.7541701580478395 0.04792438124176496 -0.7754186588472418 -0.24821564779526142 0.24305018348482751
2.9 0.274563977131252 -0.3472457181181183 0.46781539776140146 -0.581953369249695 0.49393147140349136 -0.5886495204053714 -0.24000485864812748 -0.08050722922519266
3.0 0.3939959058992372 -0.006847278894457659 0.7234596481681232 -0.21288472222598442 0.7399741424913066 -0.19410035133473463 0.022809587694469013 -0.14792644676167097
3.1 0.18457574704979873 0.3129982625577179 0.733981167566473 0.23376059141521116 0.724535700987138 0.24802650393851755 0.12038538368391186 0.08454952128076694
3.2 -0.19950696366447498 0.3304006252132613 0.4734013590313862 0.6248574424288548 0.46100551951750307 0.616933528042684 -0.11309704067821925 0.22559530388195875
3.3 -0.4312248783537171 0.02567997499503223 0.005626355977938702 0.7838694580806235 0.007763777997887078 0.7737785079061037 -0.37876162858974033 0.020251656475362048
3.4 -0.2887971385477495 -0.3110358341473924 -0.47542696295586034 0.6121373024684477 -0.4713618566831947 0.6132823994952957 -0.27663425668247976 -0.3542408928752635
3.5 0.047908588038455935 -0.37867418267069997 -0.7387389044697926 0.18384382982679723 -0.7406057534471328 0.18338599318888898 0.13475601466815976 -0.44027330043872986
3.6 0.2634135029911749 -0.17360530406368938 -0.687438929304936 -0.2968461008917417 -0.6849693307727144 -0.2988301389612382 0.42069761258827276 -0.1318687933045193
3.7 0.24883029117792593 0.08990440350034873 -0.3843464852306563 -0.6422687575822306 -0.38269004882143287 -0.6402877126734684 0.30659442194592407 0.21103082674066428
3.8 0.09423310203173504 0.20890381121980683 0.052149372303394725 -0.7544404311585082 0.05165968768541948 -0.7597074504356242 0.032476089621360844 0.25929966327588555
3.9 -0.043310311926549314 0.18653728513192008 0.47244489564225073 -0.5995039005510403 0.4835869350633887 -0.6145225737007005 -0.05427084356832372 0.05931365617097643
4.0 -0.07484955292250238 0.08283295063338408 0.7292127872224569 -0.2323632812456694 0.7529131263344302 -0.23616489087497933 0.1263795568479866 -0.06449051672383961
4.1 -0.022800444776294778 0.05165869663140282 0.7211068829205067 0.23117453524065096 0.72592217977193 0.23705664125225223 0.3068469489370149 0.14224159891347893
4.2 0.0017197378200685988 0.10404309344783547 0.4480435380272815 0.6065362059519916 0.43329398685957393 0.5900922691891735 0.12364490491338444 0.41911274255580405
4.3 -0.10622727098283487 0.143667846645753 0.01347838794973022 0.7509391027061426 0.01957257927455669 0.7137150321953901 -0.2698029766893979 0.38457245949051694
4.4 -0.23724774090399697 0.05269761377544181 -0.4140355686246817 0.6267810379093515 -0.38457920026850595 0.6095024207251434 -0.4620911833200979 0.032791907424545144
4.5 -0.25102408246828545 -0.1505909589471164 -0.6921359938803788 0.28712253809875543 -0.6838094227281268 0.29564388198559055 -0.2830350435069085 -0.32346078292098474
4.6 -0.06707213430798155 -0.2816115447636695 -0.7399150915947869 -0.16032449210280725 -0.7617087986022812 -0.17136463342706737 0.08194249643326257 -0.32316678484407346
4.7 0.18145283303468024 -0.20884636402759224 -0.5111761280713845 -0.5724684227800612 -0.5132602824379443 -0.6098068284572675 0.2163868250444616 -0.036536763611568476
4.8 0.25353294284749345 0.08322410274395453 -0.05989595144932769 -0.778924343846239 -0.03909202844667127 -0.7844140079598165 0.0072991344707597945 0.11942848881492146
4.9 0.04702268213985225 0.3245539829159998 0.43797974307462273 -0.6575328806671823 0.42041900913820895 -0.6310480903386945 -0.14514675803209948 -0.01953967647055832
5.0 -0.2820281350925749 0.29746883894112675 0.7415208952835872 -0.25974917385102586 0.6913267100364239 -0.26438555174478673 -0.025585527725274324 -0.1872158302864963
5.1 -0.4572310631590277 0.020546114136329702 0.7369160261975329 0.22325522351115526 0.7244414325363671 0.18975422868560254 0.191087704414572 -0.09781371283489015
5.2 -0.3882423916609636 -0.2780602901431858 0.45581410276587203 0.5883885466696818 0.48390049974378035 0.5971207187150522 0.18751592774902937 0.21995444993324653
5.3 -0.17354019229387793 -0.40646561722813246 0.02813520339690173 0.723356485462449 0.019936042958026767 0.7781392975083771 -0.19435865432022434 0.3726800261282633
5.4 0.06581120603153477 -0.3557081922821614 -0.3924165555611757 0.6035057200638333 -0.4435184460757429 0.621196308950428 -0.5343873700944454 0.09313212855151534
5.5 0.19799032704616154 -0.19382750403489887 -0.6756707061830818 0.2706131430771693 -0.6883470327424721 0.23914631584611115 -0.47021628815224453 -0.34072707878939146
5.6 0.2055311767655787 -0.03970395194602094 -0.711587243221705 -0.17151361521372033 -0.6690236761702197 -0.17517494989669824 -0.12964248049425736 -0.5435872072813231
5.7 0.13035528574315508 0.04777142268012151 -0.47782303135506354 -0.5547518564856421 -0.45192111297377163 -0.5072922338392749 0.17979469841611215 -0.42222291105099546
5.8 0.0810727005465939 0.05849113320727731 -0.05881395751436151 -0.713452343451138 -0.07954717563834583 -0.682616944064851 0.2724770666729611 -0.19883747445577524
5.9 0.03792922812500983 0.047753875653387054 0.364863862331533 -0.6049823713754604 0.36008182017073365 -0.6247852623181109 0.17768377305170305 -0.09682000202429458
6.0 -0.015632332750682865 0.027509844106064912 0.642592698650926 -0.2772705293969612 0.6846175834668283 -0.2929638680640685 0.17250449942413174 -0.1606481422729702
6.1 -0.06153643332640894 -0.05667676710173128 0.6900965121588338 0.15054520519288558 0.7273716105493918 0.1727043157688984 0.31021263098897944 -0.15628238596263838
6.2 -0.04226507602998014 -0.18521620221556673 0.48224336711024024 0.5349969764038257 0.48323400665265825 0.5482546622837929 0.41562513514095184 0.023539529059910524
6.3 0.11073453370511624 -0.2859671765791174 0.07710268357812733 0.7203284974766406 0.07667553718059025 0.6997369048604865 0.3429483949410153 0.26047612209457116
6.4 0.3364145645235486 -0.2146338132676887 -0.3542308550580817 0.6154755906466547 -0.32874905162698814 0.597925631924248 0.09627723507361119 0.3800783516080004
6.5 0.46656570821010407 0.022652897111685354 -0.6199929024760857 0.28843654775005134 -0.6007856573232356 0.2972425754134959 -0.1613386722670453 0.2914925433305358
6.6 0.3921597725124388 0.2916517301733479 -0.6550090727650323 -0.11712049567249652 -0.6630673222504874 -0.10960520206671398 -0.2546977291100403 0.0614882910710327
6.7 0.17262166665408138 0.43890840140607845 -0.46508404979545503 -0.4740820183802873 -0.47813420544033247 -0.4870119382330246 -0.15491730297226822 -0.12378204483058378
6.8 -0.05074636282052458 0.4170180597079706 -0.10603978157765948 -0.6711315920741913 -0.10482197968685641 -0.6866650907708229 0.01811084187451499 -0.16008535420971115
6.9 -0.1829995720284492 0.296897764318587 0.31113393388143085 -0.6261941188198994 0.31302512826254836 -0.6289846502124343 0.12919691432176839 -0.0903207484727627
7.0 -0.2175115171136846 0.1659179173831124 0.6307656097254041 -0.33402636032225985 0.622566854784885 -0.33689061874236126 0.1864837152613339 -0.0007102026947678891
7.1 -0.18647469545713574 0.03513554927758802 0.7188445451172543 0.08891178010353644 0.7119397888279316 0.07751605814544832 0.21172905750069082 0.06741093450792907
7.2 -0.06717003467710592 -0.05149868362082723 0.5389915629872514 0.4940768524542369 0.5406189430767256 0.4872532288104253 0.2201564845012418 0.15398625464304871
7.3 0.07539424365843575 -0.042681414285510956 0.13554891728958707 0.7121508320472623 0.13857234488249331 0.7149190999893782 0.18240213020680407 0.28797127857997795
7.4 0.1653049203157969 0.09718114723312876 -0.3219860111045443 0.6391843665722607 -0.32243393699489165 0.644509733537602 0.04883321743790764 0.3722947408179774
7.5 0.12049353042502535 0.26482996059957 -0.6320328892337868 0.3055594689803843 -0.6331321784084727 0.3067396669718984 -0.11368845994375407 0.37233731075604104
7.6 -0.037302203125217426 0.3606540694629994 -0.6732041133787983 -0.12832075104190221 -0.6746142841681314 -0.13194616867761544 -0.24448915696808102 0.3016058816014396
7.7 -0.24236218889211467 0.3460828897384778 -0.45024184709342063 -0.48408313860443564 -0.452952643570101 -0.4937413524648725 -0.3509960040682286 0.20079395644791131
7.8 -0.42510164266106 0.1841843100627894 -0.07335362959951804 -0.6351399848310095 -0.07499647248396896 -0.6507970779162181 -0.4286450778092643 0.04469048625272562
7.9 -0.49381809198330834 -0.09963919904947306 0.30492796203116973 -0.5316034657476939 0.3076568912955204 -0.5484290304700125 -0.4392092277962495 -0.1924581152891579
8.0 -0.3406712373470081 -0.3820564768497235 0.5441809589717321 -0.2557550975938574 0.5479679725652609 -0.267707273279552 -0.2938597618654912 -0.4081828230072601
8.1 -0.04439304992498205 -0.4921278635708648 0.592701676407555 0.08690272026132492 0.5918746289918319 0.08379604249834463 -0.019763836628680625 -0.48928619218632463
8.2 0.2509380640944808 -0.3118383142171559 0.46983274090711613 0.408501207724454 0.46049280040391466 0.4090364048345808 0.1649124007715814 -0.3759178095400324
8.3 0.2870969506545139 -0.0015375622895583627 0.1740448555945929 0.6197011471271554 0.1622208310206878 0.6156801081971311 0.23152354979903417 -0.2002536628233372
8.4 0.06363793464614775 0.20829043367086442 -0.22949296411087972 0.6208985812292043 -0.22670759196664478 0.6174762178662403 0.19493359837895474 -0.06934304086237214
8.5 -0.20787438298552346 0.12228842627798865 -0.5747504309102893 0.356131255787823 -0.5615982316124128 0.37727112056468776 0.13167919271644965 0.0061116404400079
8.6 -0.28237642069896796 -0.11203845453617463 -0.6735997527317255 -0.06700632266028794 -0.6820097666340272 -0.025393949640954303 0.08210322615391816 0.08753456555164013
8.7 -0.14810661914168 -0.26238786439358797 -0.5010234740380115 -0.4520308624481582 -0.5342670100129915 -0.42994282608175477 -0.07574795795265583 0.14619829685557686
8.8 0.002604820891525833 -0.2703707330873639 -0.13991119065938484 -0.6536775015067955 -0.15398938500708617 -0.6662008305970755 -0.26514697952742045 0.04918312856145243
8.9 0.09077036986187 -0.22933693545963832 0.2781287151451128 -0.6003974949691145 0.3007470416930425 -0.6020767344022615 -0.31241029794970365 -0.20065852999735373
9.0 0.15573994567687569 -0.19579389106462297 0.5802183734140853 -0.3080693308109132 0.594568705192834 -0.27765490734033793 -0.137359307080468 -0.3991003327537048
9.1 0.23695070017759165 -0.1566149170913137 0.6453687139230213 0.10484423839871716 0.6277976483537395 0.12920369923469777 0.11241726041866199 -0.39966697841090976
9.2 0.3171652070007728 -0.07026226704972555 0.46704755859545477 0.45570148059843196 0.45166715763857546 0.44821708722589004 0.22817365225117875 -0.2546061460088429
9.3 0.3725758449351454 0.09980191956854761 0.1251906173727874 0.6247389148524592 0.13750484288382758 0.6164052344451028 0.21827532054056864 -0.18289074348808326
9.4 0.2977400506047867 0.31078861663715907 -0.2441585342475316 0.5668932691772156 -0.23368198264354983 0.5842004052173912 0.27033504813179715 -0.193542580583917
9.5 0.08073318596037789 0.4520199608428896 -0.5038176115727452 0.3235612206270689 -0.5199355866874238 0.3370704739405005 0.43883663604739226 -0.11640544538585357
9.6 -0.2261559505500822 0.4081884153514842 -0.579388231727269 -0.018183239175448715 -0.5908493049029054 -0.03372794725517514 0.5571754781741626 0.18720915440962105
9.7 -0.41786171913915826 0.10384561821332283 -0.4602912530210137 -0.3522636824085382 -0.4391272929331711 -0.3671957723364311 0.3779903063692348 0.5368222892141481
9.8 -0.2827777302692858 -0.27133985029941887 -0.1624294930613051 -0.5692505253788891 -0.13532637375519768 -0.5529018861468482 -0.014110211210638157 0.6581935451189175
9.9 0.1389814438484881 -0.3667029361893619 0.22669425600501292 -0.5712397174294537 0.22276250435131564 -0.5468265735294607 -0.3369180811469821 0.4653612425977612
10.0 0.45865854322826627 -0.06295136127905462 0.5298549033956544 -0.3182868077730876 0.515973392071444 -0.3221894460142265 -0.4195642384904612 0.16391957861223924
10.1 0.35722078832863635 0.38264032027640227 0.6165998651202804 0.06207037326514714 0.6279097200672042 0.04906606063739144 -0.2738202763786661 -0.025652746497866814
10.2 -0.019772210499657494 0.5440111756409739 0.4660448971616732 0.4013891376389489 0.4868000181521222 0.40951787297365466 -0.14976484841687768 -0.044171313813406055
10.3 -0.3445213711329529 0.38763202893402454 0.15473082444760922 0.5951266789520506 0.15610554597946996 0.6118051727452667 -0.13174164550042655 -0.06878514532591548
10.4 -0.4328492664540265 0.10510263569726458 -0.20378406955191009 0.5842376889512452 -0.21257598257478755 0.5860168546199085 -0.09195257140423335 -0.18361504934292527
10.5 -0.32732424344013933 -0.10423099205224283 -0.5041937760192423 0.36564976937887383 -0.5050234920663624 0.3581524898819727 0.10363771136901272 -0.2528816788984943
10.6 -0.1686587285095109 -0.18394044029775808 -0.6202972281244402 0.0003723593060941527 -0.615514936720523 2.7104425074718497e-05 0.3364845277992518 -0.12354852262750327
10.7 -0.08532771273992189 -0.17363987807531134 -0.4882632899140468 -0.3589550355914945 -0.4876379604385801 -0.3558111315380076 0.3780650805323845 0.19364749247261365
10.8 -0.03158688985270395 -0.13763535903933613 -0.17344222366032105 -0.5869862359684493 -0.17369939556806813 -0.585953222715321 0.10706892868941728 0.38522235127555904
10.9 0.008630541712715684 -0.1264682373509507 0.21619971347064357 -0.5859137625066424 0.21857319378749737 -0.5831952384600839 -0.16376401021847503 0.2805876385386935
11.0 0.07880060414213715 -0.10636228717875852 0.5272727983537036 -0.35620334917720253 0.5280097488275537 -0.3486446751643587 -0.18721674521516837 0.07170770695050088
11.1 0.1504232568592038 -0.0048025205902387045 0.6480106307591201 0.01623834122549714 0.6416543259055236 0.020966722338730537 -0.06001935762121613 0.031186744548748705
11.2 0.13003897022428892 0.18947459091189017 0.5242185887505448 0.38080574419847857 0.5156416413802555 0.3773026345559339 -0.09158750139136121 0.1654297001274217
11.3 -0.11116628423747164 0.3436251497278371 0.2093728717312394 0.5915796185959621 0.20281443646994696 0.58285031607255 -0.3688081935334062 0.14585405254106582
11.4 -0.4658098719548827 0.22972328991352556 -0.16129166084905522 0.5647371028539488 -0.16102954797384064 0.5567240487191433 -0.5432851136537797 -0.24483936006546064
11.5 -0.594331931388963 -0.21684466991431398 -0.43449638585483774 0.3441224158700653 -0.43495498819495826 0.34203329809676275 -0.302982311774453 -0.6824716786008144
11.6 -0.33744598066519377 -0.6156638339246959 -0.536875138768767 0.02072443275361774 -0.5434256771148307 0.016141513242336564 0.3019914422806949 -0.7336109024456836
11.7 0.15748953129711332 -0.6667314243579678 -0.45510942567088114 -0.311590965821046 -0.4536238692432126 -0.32712895522939045 0.6972131686004084 -0.24044337677402056
11.8 0.508964456298458 -0.3308429821189017 -0.1863134896831719 -0.549871499747185 -0.16715420214803997 -0.5518989040217199 0.4970790057667923 0.32924025035637106
11.9 0.43236304599842634 0.09769175485577662 0.19412266273434753 -0.5881266674764222 0.1959359994595473 -0.5616105505046135 -0.04960442986599232 0.423209345948179
12.0 0.08343079511505691 0.27326706867899553 0.5241616659800886 -0.3632736436254996 0.4878087101389788 -0.3492126157948058 -0.3132636845429335 0.06504699248542206
12.1 -0.19018849455018477 0.12027502361735373 0.6330236789080911 0.014596365327885163 0.6022569713372855 -0.020035356923837566 -0.13274829560559762 -0.24116873264192526
12.2 -0.21000686841064942 -0.12885190538565924 0.48685685540592205 0.3743875243028825 0.5091595418595481 0.33774667882685305 0.13594873931583626 -0.16800774729582207
12.3 -0.08224003079986095 -0.2555200215327281 0.17040558575879147 0.5646043243232018 0.20515936835001458 0.5810468952497719 0.07581972498135858 0.12406460945850917
12.4 0.06922988233516575 -0.27667110582846316 -0.18576335621795972 0.5394800299172341 -0.20099849677408482 0.5704945375431972 -0.30272894507186177 0.13210590259716398
12.5 0.1706217865349071 -0.22227265482699227 -0.45869985970105376 0.31894420312740246 -0.483807396543711 0.30421145376276204 -0.45090563730647726 -0.30554117829745225
