!Created with skrf (http://scikit-rf.org).
# GHz S RI R 50.0 
!freq ReS11 ImS11 ReS21 ImS21 ReS12 ImS12 ReS22 ImS22
0.5 0.13915106969836213 -0.024837448132062324 -0.9212582946699509 0.09792546092327581 -0.9215212931341554 0.09639022701706851 0.16254641781199777 0.09763806210519135
0.6 0.09908143360397753 0.15120585710062295 -0.8000889464127122 -0.44545493827166127 -0.8000380621342833 -0.44455381790595533 -0.024786225795275004 0.2093957583923063
0.7 -0.0966381928402339 0.2087925552980831 -0.3938517274289792 -0.815184807279041 -0.39457661813038525 -0.8142286628423839 -0.21031236413212906 0.07085947727463014
0.8 -0.2538055015235178 0.06714562707596199 0.14770462846620458 -0.8846802247263343 0.14887757537841473 -0.8854191850335198 -0.14229331240283713 -0.16346576239806498
0.9 -0.23729802114329757 -0.16041295402298533 0.6275088154587656 -0.6309906815357671 0.6313516088271215 -0.6293703783062956 0.09793703064650036 -0.20817373429977962
1.0 -0.036990266154972015 -0.28513690359720817 0.8701931856030192 -0.14780996915864525 0.8699456416497969 -0.14457236772716828 0.2284981084363546 -0.014555742222566465
1.1 0.19676015017544152 -0.17422489167082453 0.7865063561254672 0.38704375831089965 0.7842725689446964 0.38348214351939003 0.08431135993708767 0.16025745182631776
1.2 0.2535767372104995 0.07798548840218915 0.4058307518755462 0.7685283036273391 0.41243834325361567 0.7618752925180521 -0.0982696205922329 0.06359086951223211
1.3 0.06570751236262444 0.2593640143263627 -0.11618770175552878 0.8572079212726431 -0.10622849885419022 0.8632541281037026 -0.0600724930615854 -0.15524390281684392
1.4 -0.18486901822857543 0.18989792211511905 -0.579496212484662 0.6309567864869482 -0.5831239753339829 0.6435131313015441 0.19791027401820496 -0.21381940806195682
1.5 -0.29314735205242815 -0.03532321749635075 -0.8256631022848411 0.1821474690515438 -0.8377814104133334 0.17791059231470954 0.3645348249254762 0.05138812330621167
1.6 -0.1768596034027814 -0.21213396929158496 -0.7698626861643179 -0.3269314693205624 -0.7660350281738552 -0.34149771192419154 0.16971400630251732 0.3681623777424391
1.7 0.02857449167278736 -0.1889225746405557 -0.4290065121888753 -0.7147224773251255 -0.41591531312512975 -0.7107714436385222 -0.20602198617293893 0.3358823758438099
1.8 0.08190909418672136 -0.0047387211459192224 0.0764240792857461 -0.8281309289081631 0.06741043311903183 -0.8113811602862324 -0.3526393501085118 0.01273191526649689
1.9 -0.08615127823981934 0.1252423941466312 0.5427554341412237 -0.6225360822149737 0.5176586106352253 -0.6272253651463102 -0.14527045281549233 -0.26548500251450524
2.0 -0.26450917056503326 0.03859215420332241 0.7953966104311501 -0.19039983853855458 0.7935945148891653 -0.21323370768289746 0.18043359063432712 -0.17893388723858697
2.1 -0.23271981859553112 -0.18526712628313496 0.7471505862852468 0.29139392260318603 0.7700868989837237 0.29009279350008715 0.21745119215610953 0.14167157950789097
2.2 0.011004010416339624 -0.2833790348941648 0.44210177200967443 0.6593814207926106 0.44743303217543684 0.6806033984408596 -0.05782161010913614 0.23622983070862671
2.3 0.2883002648922675 -0.19344533874510467 -0.010482856752785145 0.7228983166438936 -0.026015880649100848 0.7281140558334747 -0.22971557888928396 -0.07966321788865556
2.4 0.20708097073465634 0.11747767470803208 -0.5154625715790462 0.6181609800435498 -0.5184169139987187 0.6012254357536628 -0.057771312703106176 -0.24849739341413493
2.5 -0.057785226527387365 0.29999489142719565 -0.7762832434661848 0.21159708825613038 -0.7576325164822175 0.2101922437861291 0.28232074788458916 -0.1567007346096011
2.6 -0.3855645733961141 0.18341886904818688 -0.7347651091568655 -0.27816820277324866 -0.7302629333226113 -0.2581187725206696 0.33259556601147433 0.24280748742007552
2.7 -0.465817052676164 -0.15355354691218406 -0.40850079157479774 -0.6441047788928471 -0.4244353738577278 -0.6410688977962098 -0.056362321345873545 0.45845757640681056
2.8 -0.22615356162573225 -0.44272161825268597 0.05912691515771029 -0.741422933792614 0.060510116085336546 -0.7623569918330481 -0.42436256896963753 0.20747539497546652
2.9 0.13351483457470492 -0.45383879375221725 0.483119096959267 -0.5506185729761048 0.5089832592403083 -0.5561344212904297 -0.3773233968909776 -0.2196441689098734
3.0 0.3471627441573447 -0.19551361806405154 0.7245242583013516 -0.16309122440647106 0.7395464991435983 -0.1436343239319327 -0.021193408818570597 -0.3525023127469246
3.1 0.267289167106869 0.11318055762359283 0.7141981599554621 0.2898559133125458 0.7037056536739973 0.3033223254933114 0.1912088472267897 -0.12889717773878961
3.2 -0.0002776271245358286 0.21250729434282614 0.4395321562079001 0.6606448971467447 0.4275333984990063 0.6518512032646002 0.06559284352350012 0.0715144756936486
3.3 -0.19001160564547276 0.061733980695953684 -0.01790817299796771 0.7966319982049422 -0.015404107517463989 0.78643905354051 -0.1377816332242603 -0.015250810830156749
3.4 -0.11882461869898589 -0.11755214049107268 -0.4718880771012 0.6232720607946437 -0.4677438730483166 0.6243696751468968 -0.0521881746041864 -0.2445838870935323
3.5 0.057119537421530996 -0.10588562957108553 -0.7251699491935171 0.22426292195074793 -0.7270156814272841 0.22392613773094788 0.26038915207904034 -0.21720508572594782
3.6 0.0940810365201497 0.060226802715041175 -0.7000420135994554 -0.23005546470959948 -0.6978182863053365 -0.23216979826893486 0.39974683622890406 0.12911459275959694
3.7 -0.03763771392933593 0.175561987102251 -0.43416456803860615 -0.5866644984088019 -0.4324308302941128 -0.5848530196211417 0.13999699484907605 0.42924127481569563
3.8 -0.19653014348896153 0.09271694612409564 -0.018117484847758544 -0.7422169865677553 -0.019158909506737196 -0.7472698115887328 -0.24344935135902654 0.36251555117736867
3.9 -0.20374537516261942 -0.10171649000981488 0.42615000349766813 -0.6370352540133415 0.43603808273730504 -0.6529371988899637 -0.36503772568171816 -0.0026806107818370672
4.0 -0.018851976444512808 -0.25649808274888003 0.7321469851083593 -0.275475251536692 0.7560861885534951 -0.2806168987086979 -0.11511818217635128 -0.29188826131072815
4.1 0.23949453062226542 -0.18205586272548438 0.7600284568829876 0.22023461839065778 0.7652010667593079 0.2262274851951196 0.22878704794745483 -0.18618160984374207
4.2 0.3566275883954337 0.08813394452923487 0.470525482364885 0.6373570086447311 0.45494080938607406 0.6200624333696511 0.23980547881788908 0.09633414352928953
4.3 0.18345978491553427 0.35704462215397775 -0.006188700161064514 0.7870205210654906 0.0010849023271870956 0.7481713484660641 0.008749282252972015 0.1658922458093971
4.4 -0.13924800642754986 0.4066438121396009 -0.4598608311991134 0.6234359489417071 -0.42870725007073895 0.6071198370846478 -0.09030225179559898 -0.010333213840626534
4.5 -0.39460474038142596 0.1990846655880501 -0.7189006971861556 0.24609392916502876 -0.7110470144229688 0.25517337508818416 0.0764948010885508 -0.15584297964210153
4.6 -0.4115016084697324 -0.08495114649602856 -0.7188156887559882 -0.20421337569466708 -0.7395965998174869 -0.21642987259504176 0.29822874438909547 0.030887444414446574
4.7 -0.23054198878338217 -0.2711927843980294 -0.4635200279261517 -0.5801194375864764 -0.46363047443940253 -0.6161925515882621 0.19176459088040218 0.3853921901150037
4.8 -0.03815917475302388 -0.23908108605594852 -0.02822450730249748 -0.746586218752874 -0.008354425689961753 -0.7509750567968912 -0.2509636868649383 0.45350112627798084
4.9 0.028693557284125808 -0.1186142477460778 0.4225131187159075 -0.6250581993187271 0.4052911732647619 -0.5999248052905488 -0.5444098005911224 0.1245495438301302
5.0 -0.009553603074653735 -0.057873126454771995 0.7088817114002203 -0.2593876075598151 0.6604136956376877 -0.26334045291573177 -0.4512549594253885 -0.27210637993879205
5.1 -0.01831637300671847 -0.08645080405615621 0.7192987568104782 0.1858406375193755 0.7058471324969106 0.1538492114540423 -0.14367454113216754 -0.4033052469745305
5.2 0.03107231583580573 -0.08934582538108515 0.4807694403298028 0.5466694291843937 0.5087254803094912 0.5533231334095212 0.06470486393072039 -0.23760376785899012
5.3 0.04587033846464603 0.011649569452122296 0.07375788723798787 0.7117980602260174 0.06915640309077281 0.7662628361130575 -0.02949482220014841 -0.07987402576516586
5.4 -0.019573759371368515 0.1209907438488409 -0.3564910858462478 0.6204917555587692 -0.40625952301548407 0.6407787363322168 -0.14083255932569136 -0.18139832223897195
5.5 -0.1753553377051119 0.13038590373479245 -0.6701604306553106 0.2897663153749812 -0.6837510971951566 0.2585291005541758 0.004505709296676291 -0.35383161307692895
5.6 -0.2967013834886107 -0.025711677638464506 -0.7321684222902769 -0.17227753202140123 -0.6884692822956413 -0.17629134228247034 0.282789119432839 -0.3099098510493074
5.7 -0.27171733529302017 -0.26437428866827767 -0.49700335771499626 -0.5764560297771905 -0.47005932572559395 -0.5270809708671835 0.4232252168471277 -0.00580192541736943
5.8 -0.03266144893574159 -0.4408338246048487 -0.07327291238953404 -0.7444666361992395 -0.09445368562876723 -0.7118230901299901 0.2667316958605044 0.2951570530523845
5.9 0.263472024376991 -0.420236365867729 0.35249094916279494 -0.6325796962463475 0.3468789171608724 -0.6526428407770899 -0.10605309073291454 0.33212268617507584
6.0 0.4556152034225751 -0.20825192552778077 0.6337031986749917 -0.30876742744854624 0.6752525981486113 -0.3264231893352624 -0.31513531739438777 0.04165112690085063
6.1 0.4629823530919941 0.04515450757352937 0.686228606567861 0.11094537156730017 0.7240086455369449 0.13084879408206412 -0.2110223739758168 -0.2610403685624721
6.2 0.31163112541815974 0.22147746860784534 0.4905640813793761 0.49719930903651427 0.4919690856793224 0.5100826062751308 0.038680501133698544 -0.3500313085217962
6.3 0.12612136602503363 0.25542351142747227 0.09445203950328895 0.700114988102993 0.0933520589264773 0.6800847903798088 0.2292148254385482 -0.25457833390644047
6.4 0.002225732153114307 0.21104955293642116 -0.3462229584130526 0.6168245200983098 -0.3210973242815281 0.5990450217890668 0.2751951416692919 -0.11352818002287837
6.5 -0.06099322150073162 0.14532527836027206 -0.6450319987314506 0.28679802461779225 -0.6253687667880785 0.29626811755736626 0.2559629919623936 -0.027387369985376345
6.6 -0.09845576400993114 0.06155530161015982 -0.692733116079254 -0.142031161776561 -0.7015867808141233 -0.13406431914732442 0.2793577294457068 0.019429127224560486
6.7 -0.073824641344612 -0.05186180500798117 -0.48774663874203633 -0.5179287188707133 -0.5017137579675167 -0.5318012929573182 0.32691808444522236 0.1390058538777023
6.8 0.06496915341652046 -0.131366043580055 -0.0965708997658061 -0.701219990566666 -0.09538059441006227 -0.717200513148246 0.284755502845919 0.32835362097753973
6.9 0.256279944937095 -0.05643461829192493 0.3311731446962394 -0.606147539443974 0.33276583806550886 -0.6088510156540646 0.0906972741115519 0.4652467429647762
7.0 0.33730802769984153 0.17180665674825216 0.6059336289617739 -0.2782781964825015 0.5982470775128028 -0.2814967177138328 -0.14756880210856 0.44321450580511523
7.1 0.23457256537768162 0.38694800658091283 0.6404462516062732 0.13387369290312212 0.6349911204304813 0.1230442312435874 -0.3156231403227916 0.2634711552605306
7.2 0.040046998848707965 0.49276344912104764 0.44239654694251795 0.4787461854577987 0.4441534773931328 0.4728319134707092 -0.3334692365100049 0.035363366741157067
7.3 -0.18508053048243311 0.45943297046633025 0.08424781830142974 0.6570720905103524 0.08655895795767043 0.6597278842791046 -0.21902178364488037 -0.11702521625798691
7.4 -0.35839197491184405 0.326509643295992 -0.31080770584993245 0.5958951858347299 -0.3115998717208136 0.6007678877622975 -0.07042804232115496 -0.1854181272532968
7.5 -0.43072298378394835 0.1168258374396304 -0.5992898658709338 0.32411891253277025 -0.6004510342583294 0.3250986109721272 0.08621386993277323 -0.16338287084558573
7.6 -0.3744671744432939 -0.0911243701407081 -0.6808502304507581 -0.06246426152163199 -0.6826489317762907 -0.06606149270317106 0.21487744225346023 -0.04500370166646763
7.7 -0.22624018339710542 -0.20607469928581879 -0.5222934351055382 -0.440248850586178 -0.5263298563432894 -0.44985344778052927 0.223519051189061 0.16595011365162296
7.8 -0.07744209541951232 -0.22687914603478107 -0.16001846991355917 -0.6600844745962398 -0.16388430308050828 -0.6763261369760667 0.06237282686448717 0.33668867279366455
7.9 0.015941310666401753 -0.19805298214642103 0.2738127677410872 -0.6210537347268894 0.27477602098899 -0.6398982534584354 -0.21068481333254252 0.31578904585416395
8.0 0.11194957996336916 -0.15022044874644158 0.592711900175941 -0.33218558588287317 0.5959566616594462 -0.3459577420432718 -0.3788263384776304 0.12549854269716593
8.1 0.17685092382749523 -0.03311665432617816 0.685865701089226 0.07465390560080455 0.6847480411909501 0.07108368198530482 -0.3632448994110422 -0.09196803590623025
8.2 0.1447387049810441 0.20512766928433465 0.5162540167843367 0.44940978723250885 0.5059725028487374 0.44994622472543117 -0.3263693487446381 -0.20650264847271402
8.3 -0.13684971285796094 0.35000106149306937 0.1415351758277085 0.6596625728471072 0.12947112563154622 0.6546990566466926 -0.2665439001516101 -0.308391568065878
8.4 -0.49528914648020256 0.18870462966666823 -0.29508216373565205 0.5789397822321024 -0.29189719130875413 0.5759516334471877 -0.15636744258130134 -0.42695808741485347
8.5 -0.5918002594611051 -0.2695072099783034 -0.5709420358320729 0.23987047298656816 -0.5619804697081556 0.26098885617657974 0.04711131511941673 -0.4826084348045691
8.6 -0.30248816777325616 -0.6428345546302033 -0.575140057353757 -0.16329796698048618 -0.5889401083604325 -0.12822529890449091 0.28241498176323215 -0.35976231688288574
8.7 0.15617314924637288 -0.6758966989670682 -0.3830301294263989 -0.4648240736007258 -0.415384880925064 -0.4494506107041084 0.33665129829229007 -0.13090572196447942
8.8 0.48055206861456695 -0.41778507754118044 -0.08496437701366355 -0.6095837993284728 -0.09723762794832266 -0.6218674261453202 0.23285342404276935 0.026051185830038515
8.9 0.5555883112284408 -0.06591990803819187 0.24864587784318884 -0.5787205141525124 0.2699832445520899 -0.5808829106491984 0.11709661418659517 0.04869040432266467
9.0 0.4261979425535856 0.20783139692482236 0.5305644693459477 -0.3580372550945207 0.5475136248443705 -0.32997830290013414 0.07791044511867998 0.047060423510124086
9.1 0.20889430697945605 0.31563834381201794 0.6461476849169537 0.0010933524884133017 0.6327633759279853 0.02773135693909215 0.043059319062490775 0.09515983296102684
9.2 0.01688875997263911 0.2759358412609489 0.5254959440980872 0.3793281504605269 0.509136329491285 0.3743681167915141 -0.08614810071251633 0.1269925953661466
9.3 -0.06382144224816588 0.17790702924902296 0.1826809472902421 0.6196505936693332 0.19412576006768142 0.6101815305622726 -0.23255516757004713 -0.031472065069066246
9.4 -0.08546047864444956 0.09443260156628093 -0.24484118393598442 0.5961775237985015 -0.23379373488015726 0.6140317165220354 -0.16450097797602092 -0.30902483194595015
9.5 -0.09063057463313426 0.045684712873949124 -0.558426489477702 0.3274585920825198 -0.5765154102948784 0.34131552595583947 0.15997651890355247 -0.4347425714588414
9.6 -0.1265310209936214 -0.01542975922895886 -0.6478565766301115 -0.06823574987883252 -0.6594796467781672 -0.08653502258164125 0.5154859933561691 -0.2012988486732539
9.7 -0.09380228123845741 -0.16521537867568267 -0.49769798117750175 -0.4308426686409988 -0.47278015200723067 -0.4462157508552564 0.5549297369705035 0.20989962522992636
9.8 0.12676967915804843 -0.2731350686716031 -0.15542567464228413 -0.642604142596527 -0.12605837044339258 -0.6230925841673866 0.3060104251993655 0.4855083321597423
9.9 0.43601540716742015 -0.10271410994234942 0.2480737906710124 -0.6044538608370725 0.24343355030093647 -0.5786188143263318 0.03267039857698727 0.4825336185432807
10.0 0.4994769444032606 0.3129365144176051 0.5372017941569984 -0.31961567123357393 0.5230984696815142 -0.3237681538625272 -0.1153970113305751 0.3645688729518487
10.1 0.147943569942933 0.6704087339717488 0.5905654311313919 0.05964842461157244 0.6013876905096694 0.047073560838482936 -0.11904892047286392 0.2938315155535505
10.2 -0.35152060957457726 0.6287117237025408 0.4292876363264648 0.38410823539172534 0.4486265314740519 0.39198876272187094 -0.18840517209475566 0.28867152763725784
10.3 -0.6538491410928011 0.2515904076612115 0.12403050815390207 0.5670057810530167 0.12483463129680841 0.582743221963903 -0.3374374591933693 0.17278372956089721
10.4 -0.60183706889139 -0.18489479087293098 -0.22372925604230906 0.5559398169474227 -0.23219421249959327 0.5573443877367212 -0.38249967075064784 -0.09315832078334046
10.5 -0.29686540636617353 -0.4246629766602195 -0.5108736662834686 0.35247131280948063 -0.5114284437183385 0.3451040790155824 -0.18655094061052455 -0.32877887702269104
10.6 0.037711648581152696 -0.4058076940072058 -0.6264673585364233 -0.001853290738308755 -0.621607616401138 -0.0020269564743389534 0.13803831339927305 -0.33790101841053705
10.7 0.18996068145394257 -0.21939173909097298 -0.506326094976715 -0.35741556015007714 -0.5056404554912391 -0.3540865909356903 0.33233567393475577 -0.08415835114766472
10.8 0.19379565273569227 -0.0044597270212907315 -0.18995115993232586 -0.5901719670561881 -0.19024209882276077 -0.5890684368941657 0.2165334608082024 0.1430549041021745
10.9 0.08847474793008095 0.11239692873781419 0.2022333417649097 -0.5911376860079566 0.20464165860961273 -0.5884260495887699 0.05354858020926262 0.1450966271866989
11.0 -0.01163585735756733 0.11985935141417593 0.5175075740114574 -0.355290892771264 0.5182825169256563 -0.34777756472982635 0.05166877474847295 0.07336701256466377
11.1 -0.05524003871808494 0.10757702776401334 0.6335061147239729 0.020805343180573033 0.6272197106403472 0.02540590829944716 0.12718722109125896 0.1513624820185654
11.2 -0.08932086960158278 0.15368225920762044 0.5072913435626365 0.3845012129115406 0.49889207786750667 0.38091135798077724 -0.004428222681083838 0.3490416100878766
11.3 -0.2516647066348593 0.19683592289845298 0.1947593593479407 0.5925579249395475 0.18837787506438286 0.5837666219915001 -0.39024058070329315 0.3245926687622422
11.4 -0.4881719900938626 0.05693607748313441 -0.16986200706448526 0.5680116191519011 -0.1694804428249157 0.5599162165643903 -0.644669043927473 -0.12559489775914875
11.5 -0.5198645607638325 -0.3422499867310599 -0.437955535558464 0.3460593125868223 -0.4383983450748914 0.34398173656195297 -0.43505693238697224 -0.6424706218329547
11.6 -0.2232895850685986 -0.6608032954372287 -0.5425197947081153 0.025259268161520132 -0.5491884658391439 0.020737548436549263 0.18234336810742618 -0.7718144044760918
11.7 0.26220730593903396 -0.6326421197449119 -0.4618318663422767 -0.31072115592031324 -0.4604947933849013 -0.32636130426054627 0.6270916253136656 -0.3310151045097175
11.8 0.5613428548177718 -0.2452980794019041 -0.19055638362155627 -0.5527226957517053 -0.17133543385614303 -0.5548574690600239 0.4904444533121227 0.22821995771750309
11.9 0.41799926071703913 0.1882499853435992 0.1958501704614443 -0.5923294866774774 0.19761173089130948 -0.5656376600040656 -0.0077257295961247405 0.3484694349741744
12.0 0.024175383876332786 0.3236992443438135 0.5287862252479156 -0.3620437164730582 0.49222501436099364 -0.3481253819993273 -0.2534263384332879 0.03214508674600604
12.1 -0.24938638681333436 0.12153095566727938 0.6348837627726467 0.0189288195131955 0.6042703166405914 -0.015981834824562058 -0.081154396346481 -0.2392858010105313
12.2 -0.24142962368434118 -0.15330582988361763 0.4849990815041963 0.3788470144266118 0.5076568243403052 0.34230893844462307 0.16467263896047077 -0.1477861812288436
12.3 -0.08647194944600865 -0.27606462687750466 0.16674011208424871 0.5664045436964016 0.20139347354833254 0.5831160557340088 0.08225452546700365 0.14078657550139093
12.4 0.07213893629187525 -0.2795942170797374 -0.1894535460791034 0.5385421630307197 -0.2049304510227882 0.5694624464173174 -0.30293150869654234 0.1320805587130801
