!Created with skrf (http://scikit-rf.org).
# GHz S RI R 50.0 
!freq ReS11 ImS11 ReS21 ImS21 ReS12 ImS12 ReS22 ImS22
0.5 0.12146862801092873 -0.030274317570700662 -0.9205352679584213 0.09777292015434269 -0.9208757956318524 0.09625042253611382 0.17826406370672843 0.08823401715591853
0.6 0.08468141603303783 0.12925891452529567 -0.7988544291133152 -0.446111158800426 -0.7988836939443177 -0.44525145744123973 0.0010628045704253603 0.2090003459491887
0.7 -0.09312210569092277 0.17385934292610142 -0.3914392228752398 -0.816244718858477 -0.39218307163563815 -0.8153280121410155 -0.17996770982741297 0.08756447904792597
0.8 -0.2229059584626654 0.0355251530983177 0.1523260729538436 -0.8851702642999314 0.1535185693276931 -0.8859731401895414 -0.11907089322098093 -0.1261355523546464
0.9 -0.18495831570188606 -0.16507128156132903 0.6328996705268186 -0.6307514284149758 0.6368130053389962 -0.6291660871387392 0.09895023152816382 -0.15559605386457112
1.0 0.013435767132150606 -0.24744713421105832 0.8768437293452012 -0.14707339771218048 0.876642788110416 -0.14381404571125783 0.1963873989131133 0.03917927822551846
1.1 0.2121687691379019 -0.10060239118016982 0.794081681886059 0.3870943472719164 0.7918357429849439 0.38353327699328926 0.018392190388498042 0.19461507299998723
1.2 0.2109911787010917 0.1550443167760968 0.41757600106975623 0.768916794470321 0.4241228871349155 0.7621210649657387 -0.18607729142388096 0.057548733367452615
1.3 -0.02909569618310695 0.29618337360752384 -0.09884290714878002 0.8601253246093861 -0.08875780893556456 0.8659841572006708 -0.14627538318315347 -0.2140222736718348
1.4 -0.29336068355581113 0.15437102481890666 -0.5605364513018831 0.6395746348254542 -0.5638678725342566 0.6521346511964309 0.14498906629571118 -0.32087546454262134
1.5 -0.3593173073884635 -0.14336802367473897 -0.8145317553911895 0.19436145959904536 -0.8266336512723478 0.19035843069711336 0.3752499878206477 -0.07985545762509805
1.6 -0.15360851917236282 -0.3517590548640559 -0.7688791159272862 -0.31923280763021844 -0.7651627371195079 -0.3337909969824805 0.254611593248474 0.25331641059638016
1.7 0.15104071515396245 -0.291268221591022 -0.4290623023668414 -0.7172478602318929 -0.41591015744784543 -0.7132928187295768 -0.06256825881073691 0.27828703357055645
1.8 0.2599411343635926 -0.004506890712698164 0.08629622453191454 -0.8364286021455155 0.07704981844977593 -0.8195470612717763 -0.18553983655474382 0.04025904041016118
1.9 0.06162114120720878 0.24829793534418104 0.5633901829450226 -0.6278142817927787 0.537846082343795 -0.6329156950035673 0.00061573834837024 -0.14521955743889609
2.0 -0.23389785341880998 0.2398780555322095 0.8125310600094937 -0.1876921309143358 0.8109110799091603 -0.21095546245533625 0.2521558471547321 0.016125918707928413
2.1 -0.3480897137085894 0.004606224181449306 0.7522239133683731 0.29711358970469065 0.7753684826530464 0.2959190408457454 0.1784819981843582 0.36679891750234783
2.2 -0.22262266004699893 -0.19621322825095489 0.42781176949454736 0.6562326694135032 0.4328294272594682 0.6772371939343145 -0.22134544059441058 0.4274111511300821
2.3 -0.010954401309927309 -0.1838894836874418 -0.0320434633153297 0.7388718570746746 -0.04841951735703448 0.743432963291275 -0.4566521803395406 0.10392453027222823
2.4 0.1224223455030034 -0.0654818564410029 -0.5282187033753828 0.5832534694245968 -0.5304013619047204 0.5666976160326584 -0.24843101247817678 -0.2943291793998093
2.5 0.007710182456696567 0.06597512191799987 -0.7775725765090892 0.1737683739486759 -0.7590517221040821 0.17325598622227048 0.12285248174853526 -0.3198731707167089
2.6 -0.1762147301012825 0.03574684680787663 -0.7385221068410522 -0.3115307251654255 -0.7347344033963424 -0.2909305536260928 0.2740339274317259 0.004959395651584847
2.7 -0.207962176103342 -0.12612517569307719 -0.4196028244648228 -0.6748742711927306 -0.43622902619771164 -0.6718752664698854 0.024013778286932783 0.21002747534209693
2.8 -0.048769618841215695 -0.24564489899116188 0.041666384126815226 -0.7774136384766595 0.0425506222193205 -0.7993917030605475 -0.2131588345868945 0.03336002202279823
2.9 0.13754979013241075 -0.17664468856302862 0.469041825883987 -0.6023919194498153 0.4956299095587916 -0.6097223814612202 -0.09923508135193886 -0.2547755564674884
3.0 0.16370236547326142 0.032338913098352566 0.7274027566728719 -0.22188392365415358 0.7442583877104187 -0.20318657098175386 0.2374258075968768 -0.23541674774380786
3.1 -0.03158019462930846 0.1818080117477885 0.7307707667169382 0.23786378555925375 0.7213243907749924 0.2519682635954903 0.3628265640443826 0.10841665880313459
3.2 -0.2793099993384237 0.07119669477388983 0.4601089226155764 0.6302032944976593 0.4479879431908167 0.622103352332452 0.10103530061173428 0.3714524269672551
3.3 -0.3078639136383061 -0.2315972975317201 -0.006982547792204752 0.7813691541257111 -0.0046620378504113325 0.771395909180707 -0.25995491563312406 0.2673860961486795
3.4 -0.012713525672230358 -0.41461987738403117 -0.4742746425925777 0.6109913445996769 -0.4702565751805187 0.6121530076196207 -0.30637174709270176 -0.06748357658954648
3.5 0.3255423683603026 -0.2594604577979784 -0.7297068169220465 0.20521902303412456 -0.7316347029721055 0.20476414991108788 -0.045652459512962165 -0.20127090066426898
3.6 0.39118616908966336 0.11233019034657937 -0.7029405605963153 -0.2459280607819665 -0.700690068548045 -0.24818870539009807 0.13591965266112413 -0.009150688793598288
3.7 0.15481602109823217 0.40251054318972795 -0.43809521664050766 -0.590717971616827 -0.436265449519164 -0.589048668369529 -0.017320647738185507 0.1836891258300213
3.8 -0.19275747193449122 0.3937088131669108 -0.03082747255078644 -0.7395169538265342 -0.031821162099975014 -0.7446338334914551 -0.2591052097510246 0.06992932827160467
3.9 -0.3954800115256282 0.13677509812934674 0.4059239572044078 -0.6350764349881939 0.41545827631441823 -0.6509362044851789 -0.22759133579371846 -0.26797579185142695
4.0 -0.319889217906642 -0.19634736651422768 0.71063007901091 -0.2853633904971049 0.7340509906750922 -0.2909449355907515 0.13953109480060347 -0.4461637874239597
4.1 -0.01994816504324845 -0.3301392293870977 0.7460678135649113 0.2066115312814638 0.7512851511701082 0.21239536590224764 0.5174110064412483 -0.17547480673518115
4.2 0.27042049449329586 -0.18318833166388276 0.4604573861672123 0.6311062271773383 0.4452893666694344 0.6140090675392436 0.46413116492059514 0.25618005906667873
4.3 0.2971819189935239 0.11390993145219841 -0.022147882093385668 0.78327100565817 -0.01408145172470937 0.7448087261429378 0.1126201737724366 0.40777900112149024
4.4 0.09052370549147168 0.31008945566497714 -0.48239575130508683 0.6078257993909554 -0.4506642653185977 0.5926750207873837 -0.11960232243259394 0.24229069974218795
4.5 -0.17450473472772055 0.2690547209352312 -0.733256438387196 0.2195439479806868 -0.7257948185841167 0.22901440482765686 -0.06676870010255287 0.04288199642918807
4.6 -0.29531948375109374 0.09335766287702155 -0.7132995951122241 -0.22739407097437353 -0.7337791949226071 -0.24034712639771713 0.08660057084755078 0.1199212154526984
4.7 -0.24939213184021067 -0.07506492793198655 -0.45131245100233164 -0.5841125309148164 -0.4508445059469202 -0.6200492709306935 -0.009867344472205428 0.34887714730040265
4.8 -0.16271074241280936 -0.11188929989721588 -0.022090791287924683 -0.7311668989082722 -0.0025643165543348667 -0.7353999403974918 -0.37847271760501333 0.3305972235395285
4.9 -0.1283994010401637 -0.10126448846685632 0.4095564682606919 -0.60925956091783 0.39290068566257297 -0.5847718744343404 -0.5842324326758468 -0.019887197794728917
5.0 -0.12258214045553287 -0.13408997190917044 0.6875867375188447 -0.2585434266545352 0.6404062752552709 -0.26198566005566015 -0.4220384136426528 -0.39519917009813643
5.1 -0.049463828040894275 -0.19565282609653006 0.7065620620878824 0.17375307026631368 0.6930374994704943 0.1425868818043482 -0.07365331034510841 -0.48307808968678145
5.2 0.06823214318660197 -0.17212904013067115 0.48322885767592283 0.5333933788685888 0.5109263813344902 0.5395833368439207 0.1449667137808225 -0.26630814273976244
5.3 0.10726923161657581 -0.015147328699477144 0.08537071608830477 0.7098869264053185 0.08162731506506599 0.7643914778963563 0.029813666705179542 -0.06668869280441984
5.4 0.0173309705844789 0.13312143109066632 -0.3513055265939421 0.6256934376644046 -0.4010401839455106 0.6464864161777086 -0.11769092459055684 -0.15638373013922377
5.5 -0.17095156913805967 0.13830981523877572 -0.6704227694279483 0.29200823034356266 -0.6841120960155485 0.2606933770127822 0.004620876055935086 -0.346303185530048
5.6 -0.29172511034999454 -0.04668857018094522 -0.7287519723660496 -0.1742298331174975 -0.6852237809068245 -0.17808928000058155 0.28691117853858455 -0.32834140516562815
5.7 -0.2300110079460494 -0.29398665232513266 -0.4889581164266528 -0.5724071431976466 -0.46253774341413334 -0.5234648912963091 0.45474042246584406 -0.03965533112077918
5.8 0.04515264887090788 -0.43435460349899274 -0.0724154233322995 -0.7293879382549403 -0.09313231993209758 -0.6974088885921637 0.3387481116173848 0.2701336280561551
5.9 0.339380326330615 -0.3498430322958075 0.33576082485511305 -0.6216997901568423 0.33006474510543404 -0.6411757452438713 0.0033024825358148047 0.3533585202858084
6.0 0.47829406393408336 -0.08040321889916516 0.6102916655987787 -0.32017980126055606 0.650422117892763 -0.33856811725706965 -0.2075860981382526 0.14480158125885265
6.1 0.3900521701537698 0.1854126278001109 0.683745935559613 0.07990060152781425 0.7220107783261921 0.09806628674121552 -0.17305108707964698 -0.08186463253551611
6.2 0.13856047204587363 0.29633653225487827 0.5222171847459499 0.4763205673880714 0.5242912095684046 0.4893891807523757 -0.04199667436835952 -0.153312355455581
6.3 -0.08539556721759448 0.18744466659647802 0.13732769967447112 0.72435057319888 0.13500697595105438 0.7036547920964398 0.032392895874990245 -0.12103741731125536
6.4 -0.125843869898523 -0.010744747616676452 -0.3411241014171517 0.6781661809381159 -0.31514079544780654 0.6579517478449061 0.013208929928827023 -0.10179417135658245
6.5 0.0017047599018976123 -0.13841597718297166 -0.688846413208301 0.33386606099165445 -0.6672819161728276 0.34344807267332117 -0.0030887458801890227 -0.16451997738042068
6.6 0.16369922119428298 -0.1299010698320321 -0.7427539398878024 -0.13550289648373126 -0.7520582392431604 -0.12685164990552683 0.10315226533655343 -0.2602292099304683
6.7 0.2822870669357357 -0.021737211669879353 -0.5025771505622568 -0.5304931655437289 -0.516921686591499 -0.5448169474347841 0.3151375085738643 -0.2217257285120436
6.8 0.32700646310960135 0.14760119252792522 -0.07910807984780127 -0.6884790234115877 -0.07742687157064876 -0.7041420382117799 0.46536690626117816 0.0030799589792226134
6.9 0.25762039669811004 0.3419650648686338 0.33300906880006187 -0.5615920931948758 0.33479780426217776 -0.5640734556183549 0.4121155959082401 0.27994704467264764
7.0 0.061482635789183254 0.4745610638338135 0.5729409584570725 -0.23368487390419432 0.5660639600586286 -0.23690489621403385 0.22286034688697454 0.45034926763644617
7.1 -0.18721986972413418 0.43898091851762705 0.5933805489568055 0.1489467207181226 0.5887770830237573 0.13869133832538044 0.013324684136859832 0.47415201924885414
7.2 -0.34097902794914736 0.2563307054855839 0.4133327027739584 0.47331792177507853 0.41533242292651684 0.46769082728821604 -0.14552476591342356 0.4192023922802689
7.3 -0.34310945381906865 0.011879888875321737 0.08131944775066652 0.6469508344860027 0.08386037806934507 0.649672771264777 -0.2573302006109264 0.3554642574562581
7.4 -0.19004261354948412 -0.1507272747664251 -0.3033515257455452 0.6030177791429225 -0.30373325771615123 0.6080913549111026 -0.36023304014677315 0.23595539847930064
7.5 0.025092939715479406 -0.1656583608797096 -0.5972467716257354 0.3367181884941153 -0.598183659293023 0.3379876462523612 -0.39422356003402337 0.07325289565548061
7.6 0.18184210687297536 -0.018401045098863384 -0.6814114263760658 -0.06603049339673842 -0.6831099171223894 -0.06945835602065176 -0.33511429223724776 -0.07792905735205112
7.7 0.16109806583782335 0.2236210918292247 -0.5020983407802444 -0.44978388553630955 -0.5057001340143171 -0.45929994099051197 -0.24427250283815904 -0.15296864181777042
7.8 -0.07417447888182926 0.3619744172076465 -0.11801823166370773 -0.6514564967177023 -0.12065472701417133 -0.6674785713569034 -0.1692025812675143 -0.19640661911593618
7.9 -0.37866862258455586 0.24049213095089267 0.3025728633167143 -0.5710467325064017 0.30504018566921925 -0.588748283355253 -0.11155460796727598 -0.2702302273389111
8.0 -0.47543647991386606 -0.08088238811810444 0.5780564474403963 -0.27530127937259136 0.5821586024609948 -0.28781060670599456 0.022035427144250802 -0.32611238527349934
8.1 -0.3242047865397558 -0.36005312538653417 0.6270880582877847 0.09807070684857164 0.6262612864330087 0.09500360421147719 0.21422315480399384 -0.2790261534681162
8.2 -0.04717306478150683 -0.3846580324537616 0.4891202261153893 0.43885957269960707 0.4791859063306025 0.4394280482337791 0.2745990408918189 -0.08387745446886588
8.3 0.09960194095734719 -0.24229833516559723 0.17284086552248373 0.6450925311788789 0.16060098797325162 0.6408540943408022 0.1892229256110754 0.10044444967899532
8.4 0.07689456780206065 -0.09239032512655102 -0.23390272866205825 0.63259422282905 -0.23102395250375696 0.6291503479905829 0.014657983958432694 0.1612910354450393
8.5 -0.0028203899680711367 -0.08351380861788671 -0.5682393511942672 0.3643094893172793 -0.5547458287161234 0.3852817333521419 -0.1306051655873658 0.1087294341827921
8.6 -0.007533921804824949 -0.12067910600246019 -0.6701065028601657 -0.04283013999658694 -0.6769767864276708 -0.0012003255815287717 -0.18293819680609497 0.052560272914758954
8.7 0.04754255931007209 -0.09584169691660674 -0.5100689979277581 -0.42042993430786973 -0.5416560322260144 -0.39728334276837063 -0.27446461847162157 -0.005341359765540191
8.8 0.03195538671350231 -0.03580295098253561 -0.15667532298378162 -0.6322437191435745 -0.17081989923194293 -0.6439528152728304 -0.34524838526512114 -0.16607031036587877
8.9 -0.03838265644600808 -0.05734313708248316 0.2656369316187901 -0.5887614725239417 0.2876699438047461 -0.5906079922399211 -0.26247287326909774 -0.4033932068927071
9.0 -0.034651372511630224 -0.16625384229810275 0.5737138022952235 -0.2953365854536375 0.5874231550703568 -0.2653102936126627 0.0022529122619348585 -0.5289799278488337
9.1 0.09833722144413314 -0.2541462145312055 0.6343698463683043 0.1226151150585787 0.6163239433923878 0.14612851243205063 0.28452084790359056 -0.43526549307676743
9.2 0.2828871448260225 -0.2140578297594832 0.4471229364084931 0.46949055127703043 0.4321600523329677 0.46146599647481007 0.3841906687796734 -0.21148132547253623
9.3 0.4296880486085905 -0.012818179655055037 0.10769107914750775 0.6269781410680155 0.12027501202949838 0.6190062560942076 0.32433217647139645 -0.0895419615131785
9.4 0.39743451895894927 0.2687707226017848 -0.2489274783065573 0.5624451627938126 -0.23861174027341425 0.5798266918908728 0.31127812073669936 -0.08594751944464764
9.5 0.16696751198206844 0.4769031810409913 -0.4993340152573358 0.3204228742865112 -0.5152910295035693 0.3338313215323128 0.42494260848537657 -0.02725293989983718
9.6 -0.18523302296910926 0.4661627941442831 -0.5724527675395623 -0.014771359591649491 -0.5838858525434614 -0.03006156624229195 0.515040009424659 0.2372907841145996
9.7 -0.4227791531567836 0.15519217808760308 -0.4568873102480881 -0.34677488826487585 -0.43601757676776576 -0.36166394870464624 0.3339915542423664 0.5512316792371544
9.8 -0.30741032470632906 -0.24971829704198362 -0.16286101675004716 -0.5656874841905412 -0.13585622654166088 -0.5495291686375288 -0.04268369222515914 0.6521742203788028
9.9 0.1260966510879929 -0.36798533257708055 0.22608693786976225 -0.5708918794860847 0.22218538432836707 -0.5465342471086707 -0.3460047225786852 0.4574911622198553
10.0 0.46404076392227184 -0.05724301188977585 0.5300252216801542 -0.3179954136470319 0.5161665705592623 -0.3219276182491247 -0.4162480430686459 0.17000534208737111
10.1 0.35484235310540246 0.41149648605127054 0.6141245511387821 0.06301264327736278 0.6254600079338739 0.05005599304815811 -0.2755250601711873 0.0015426521411341376
10.2 -0.05672102707381246 0.5779988087051082 0.4596793555263087 0.3999288952501374 0.4802427376706643 0.4080724966039806 -0.17574711043357047 -0.0044030132617574325
10.3 -0.4173336451667971 0.3897642033392271 0.1468375337539701 0.589719217251899 0.148058453740177 0.606238170876486 -0.19149789057027888 -0.03890844567945426
10.4 -0.5092640266923956 0.04715702494101659 -0.20914502542901153 0.5767239910331619 -0.21786081887077502 0.5784427932946649 -0.17824238942404427 -0.18730469917024387
10.5 -0.3549481625315716 -0.2164565578251997 -0.5047286630828856 0.36328790933716615 -0.5055348432652025 0.35586731131168103 0.010589024816304839 -0.31079148075795604
10.6 -0.10710949913890579 -0.3032034558857859 -0.622047445451527 0.003325590785348276 -0.6172869393307182 0.0030137644899703164 0.27290424079094566 -0.24028877640977594
10.7 0.053743848537276706 -0.2285252890686228 -0.49829376461191216 -0.3538697970854289 -0.4976430624999405 -0.35064763401508753 0.38214797256500493 0.03812005435818394
10.8 0.1259054900616986 -0.07373935346309454 -0.1872045504645009 -0.5883921825876469 -0.1875001324245764 -0.5873386832684575 0.20214580525827266 0.2375706429701272
10.9 0.08832260401966012 0.0517386363205841 0.20278663430590751 -0.5910431789258772 0.20522907115409977 -0.5883740720634345 0.015096554631494195 0.18915480334694795
11.0 0.005168113741315747 0.10333656104167085 0.5167334406196287 -0.3574784876842227 0.5175620900007835 -0.34998268070631566 0.032550192216438886 0.07850999051403602
11.1 -0.07079639545196603 0.1113296259520873 0.6316591844795547 0.01776602402784838 0.625475905844139 0.022437795547075257 0.14551279150573937 0.15342991194391334
11.2 -0.13881950094741916 0.1242554773825591 0.5037761620217629 0.38085917540802705 0.49542868926238226 0.37738716397833616 0.03780810750675773 0.3854515408389672
11.3 -0.2855452242918302 0.10427131680175533 0.19043857420293536 0.5900252134837853 0.18412967221513138 0.581309081972837 -0.36312243162798613 0.41098384695311535
11.4 -0.4489181213400113 -0.07008948292878053 -0.1745536040225818 0.5724044842854638 -0.1741792922962117 0.5642990216419194 -0.6766140431654264 -0.0072954480985962245
11.5 -0.38783057905554763 -0.43211955713592815 -0.4459940037470483 0.3531472668376843 -0.4464751792871062 0.35110275988084605 -0.5465106458532164 -0.5377268299662694
11.6 -0.03800395020984024 -0.6464345100845588 -0.5609751190092449 0.034518796886276876 -0.5679593429607519 0.0300208191803647 -0.00527198314365962 -0.7372295291942743
11.7 0.41650331168710286 -0.47278238468655887 -0.486785296485859 -0.309035256706248 -0.48590994127598486 -0.3252009955749646 0.40843028425015093 -0.4176045332924456
11.8 0.5667572560753918 0.021376144417777354 -0.2159808802341487 -0.5598443239153541 -0.19642044536448872 -0.5627324586884601 0.3211466295514187 0.0063958063297474416
11.9 0.19957785407165624 0.4251949963845989 0.17585790364481516 -0.6016904048781047 0.17851235127073722 -0.5749558667629647 -0.05031986947345213 0.03423559609837269
12.0 -0.3398554341019936 0.34853855110079235 0.5040170962079882 -0.3698058580371975 0.4687679238057695 -0.35512921801788944 -0.1264970227976509 -0.28925777773576533
12.1 -0.5621074708489536 -0.11555714293375649 0.6055455841657607 -0.0010911100068151103 0.5753305831264486 -0.033466762845497294 0.20648329553062952 -0.4776909194170258
12.2 -0.32971202149826606 -0.5539837566474928 0.472860074202201 0.34225897674758593 0.493096239892382 0.30682941696094757 0.570836108964257 -0.20904285460815972
12.3 0.10709203114810745 -0.6533100144379114 0.18647147384080623 0.5382187094807704 0.22068867393602948 0.5527510942893261 0.4976262877327603 0.3246181651449721
12.4 0.4754700249567786 -0.4444757088611557 -0.15530106590511356 0.536412403826656 -0.16861163324998457 0.5675194987084842 -0.04186526362047746 0.5413132645647716
