!Created with skrf (http://scikit-rf.org).
# GHz S RI R 50.0 
!freq ReS11 ImS11 ReS21 ImS21 ReS12 ImS12 ReS22 ImS22
0.5 0.15505944393075652 -0.028793051675572542 -0.9215637746289556 0.09814287537696836 -0.9217961287594488 0.0965922674139938 0.14631098817944085 0.09758485180007342
0.6 0.12093404174753027 0.1589634939781895 -0.8006698806182033 -0.44518906525645363 -0.8006192978602218 -0.44429513713436586 -0.043349563603478275 0.1958011232739424
0.7 -0.07775908868470938 0.23339521420774206 -0.39472241609362324 -0.8150576538131451 -0.3954128278834155 -0.8140430501115654 -0.21987735227468985 0.04149328373047122
0.8 -0.25044723334568364 0.10618345387162727 0.14622399515160062 -0.8843514670055506 0.14739957946439258 -0.8850885479429758 -0.13072279594332492 -0.20086264069488552
0.9 -0.26028365218378824 -0.11939640598550114 0.6252906462333147 -0.6302349497551681 0.6291231053479551 -0.6286044171519427 0.13602696068138878 -0.23531784341875586
1.0 -0.08791235073798374 -0.26111088029315466 0.8663859518674638 -0.14680859920415018 0.866099222124048 -0.1435751447002921 0.28452270810771785 -0.011526695928572958
1.1 0.13065210921702006 -0.18575510943053752 0.7814143898256023 0.3867044529616991 0.7791384196809127 0.3831353749568262 0.13492158669308496 0.20393850591835774
1.2 0.198009893216601 0.022507911616536796 0.4003700856552671 0.7671411386600858 0.4069520921246802 0.7605109952378691 -0.0822003396528889 0.14102427267022433
1.3 0.04900958532005951 0.1699116442435004 -0.12120597172182507 0.854288206463389 -0.11130608717676438 0.8603339312954379 -0.09951622151834734 -0.07094545741040717
1.4 -0.14321921950856537 0.09424520247250534 -0.5852595726096886 0.6263800228584031 -0.5889757271040125 0.6388836073857839 0.10433273119237203 -0.16220316142245617
1.5 -0.1944781168099622 -0.09978629816754535 -0.8348719317491728 0.1772847436487645 -0.8470257939927412 0.17288324388587695 0.24652986742890715 0.03476821207665823
1.6 -0.04566999485464938 -0.20937891960648308 -0.7838691779715956 -0.33426945670288233 -0.7798796820594353 -0.3491060815650574 0.07771614711541895 0.27546517431901696
1.7 0.14766259482679464 -0.10248230298625727 -0.4436258954199678 -0.7275680308042718 -0.4301559507759749 -0.7235781754885487 -0.2250084608529351 0.19433310611376148
1.8 0.1369918784745172 0.14955271285291258 0.06761450560998039 -0.8467559767846704 0.05864264670177424 -0.8294383526407757 -0.2761575052562666 -0.1244840440959304
1.9 -0.12854352528302293 0.30045495825583257 0.5373917419139215 -0.6400950035042217 0.5118874418820754 -0.6442918943188514 0.013620465937462738 -0.3390139968630711
2.0 -0.4064396285700879 0.1667473510903565 0.7885646804753292 -0.20360588352659353 0.786272174210142 -0.22623106798533754 0.3666431610634546 -0.14001649611093758
2.1 -0.43728606705452194 -0.1537163916415574 0.7357152187391601 0.28064896103298603 0.7581473053341101 0.27920141142456717 0.3558939458719621 0.30055368407841043
2.2 -0.20361391902971085 -0.37602200233020955 0.4229483757013799 0.6419752431942614 0.42790358879675994 0.6625237841231912 -0.040607723095633486 0.47112974478886444
2.3 0.058513068521773515 -0.2982596571275618 -0.07938196390049035 0.7089462167896873 -0.09552933811439872 0.7123540499905502 -0.2691485465398811 0.17245207509486674
2.4 0.2311560304813533 -0.07941993147686559 -0.5283843258538767 0.5900868358424471 -0.5306726977704521 0.5733082480336019 -0.24259294497390754 -0.18984500292851994
2.5 0.0960762871600213 0.12278558980707359 -0.7848677975283334 0.17725218974568968 -0.7661397557498667 0.17663959060098294 0.07032505060531155 -0.23286640407267623
2.6 -0.1470645316965524 0.11832942379451897 -0.7455310797003649 -0.3114940003542731 -0.7415582159021629 -0.29073945688551495 0.19618413086196757 0.042694720616596765
2.7 -0.22766218762317425 -0.06552342937916092 -0.42115310866228106 -0.6755237410851754 -0.4377453428433369 -0.6724454838300356 -0.040430532905799475 0.20130211869307063
2.8 -0.07949534677018556 -0.2254426339573968 0.04333769102387769 -0.7772811023292238 0.044290211911706734 -0.7991447894599687 -0.2417154336136495 0.00842202309928658
2.9 0.12884959687477315 -0.1774391641453425 0.46983464107086154 -0.6023823787464212 0.4964012941393414 -0.6096462580419052 -0.10092437435444919 -0.2620412376507545
3.0 0.18159453692755925 0.04833161958886854 0.7262858968866184 -0.22663289470344347 0.7432248239648102 -0.20801090797701347 0.23213318184555054 -0.21357030727692294
3.1 -0.018310587548948126 0.24071855221175142 0.734103197594761 0.2257322467569941 0.7248139243058238 0.2399888971269728 0.32315509150160027 0.14421934205516307
3.2 -0.31800737081237074 0.16031758100889976 0.471666133525033 0.6186841242465914 0.4593651361390738 0.6108159487938907 0.015100156237074891 0.383194151625034
3.3 -0.4231924209272825 -0.1693581522412879 0.004611046871744351 0.7778119526849027 0.006752995250452476 0.7677982479538612 -0.3686356894738688 0.21097227914855604
3.4 -0.17185763982700078 -0.44736307754991844 -0.4753713490667198 0.6078457765580485 -0.47130596794301827 0.6089325634139107 -0.37797481279487477 -0.21116907228719478
3.5 0.2049018182769256 -0.4101736893266871 -0.7381864610960969 0.18108702378090552 -0.7400097862436047 0.180561399260586 -0.015172465118728135 -0.39742983897789136
3.6 0.3881116484482189 -0.11402948840906513 -0.6899259542368041 -0.29712750932665105 -0.6873640828825693 -0.29915934873118044 0.2953368778731005 -0.18188889104802125
3.7 0.30434085505588515 0.19162729708094772 -0.38901346028315376 -0.6413875880620471 -0.38726646963188993 -0.6393800626100925 0.24389182868342382 0.11435156914901146
3.8 0.08334516161624472 0.30160561516297446 0.04651663771595865 -0.7544372478712364 0.04599902388964283 -0.7596270647598335 0.034562209044700046 0.16450604937286273
3.9 -0.08910355138375328 0.23821605991946307 0.4678464495386595 -0.5998402570667203 0.47882423523269846 -0.6147998004007447 -0.013386113000407188 0.0014814285839903393
4.0 -0.11579963985877019 0.0930136600982726 0.7262413870221749 -0.23400193335888103 0.7497938216326923 -0.23785938089794126 0.1670406607082211 -0.07925622150070682
4.1 -0.03488869783324565 0.046709917675144 0.7205691123146403 0.2298648994763998 0.7253323627679529 0.235710174773072 0.319547554197121 0.1465216937896854
4.2 0.011305866124929717 0.11808530115607056 0.449702611711135 0.606693389365188 0.43488353060205076 0.5902081112738391 0.11296939527236427 0.4074357615005189
4.3 -0.10769213764325562 0.19150453676779117 0.01602529619135526 0.7530423853251461 0.022010779069099984 0.7156251486292431 -0.27427388601362457 0.33991440618666724
4.4 -0.2846783078218676 0.1167935166068995 -0.41129261078354107 0.6303079173458934 -0.38185932717223336 0.6127700265410823 -0.42618558440276466 -0.03437634249906167
4.5 -0.35720840300036916 -0.11334598145349539 -0.6892759097568741 0.29084378893715535 -0.6808658487175117 0.29926515646277574 -0.1849269458931256 -0.37488725244554144
4.6 -0.21002562688679172 -0.3208404063014459 -0.7371151342620792 -0.15705431074743167 -0.7587905316289194 -0.16796322317465226 0.22963508941576508 -0.30047244789735084
4.7 0.06421867101600576 -0.35299821961635125 -0.5061793968968731 -0.5710260725324704 -0.5080716764951397 -0.6080598716259316 0.3439000634510587 0.10037890601138857
4.8 0.24545295194742806 -0.14177545564094512 -0.05548212134425117 -0.780185264109228 -0.03468937074289141 -0.7854780753337764 0.02743449111729307 0.33904529333349437
4.9 0.20019454689063187 0.1136304741513927 0.4435771921800696 -0.6608869983060582 0.4256610844531974 -0.6342312879352621 -0.27537099287965283 0.19479998032448526
5.0 -0.002464554894090268 0.2157580743113526 0.7518399900033692 -0.26151758646098644 0.7008682917743606 -0.26635523745174483 -0.28328787024673 -0.07229537421690027
5.1 -0.1574431387904331 0.13125833653842445 0.746508308162556 0.2195533729678285 0.733519485305665 0.18571114971699543 -0.12098752415088873 -0.15653407337744568
5.2 -0.19372597896420762 0.0077192024701059625 0.467759063467016 0.5862073864383052 0.4961604380056659 0.594486045619903 -0.0555353335116611 -0.035928724241686825
5.3 -0.18026640671607352 -0.03754113946987998 0.03263140488214153 0.7183889175818297 0.02483704614742588 0.7727715341498056 -0.2301681321720579 -0.006206632550784352
5.4 -0.16274069406727454 -0.034623685738022034 -0.38360959024116215 0.5948006678254376 -0.4337446217350698 0.612316097331728 -0.3192090026299451 -0.24257772697646923
5.5 -0.1967125696719656 -0.05879839481320084 -0.6670172056631852 0.2545176673245344 -0.6788468729681658 0.22344949828284852 -0.0840486528314838 -0.49037643941443526
5.6 -0.21605446943153184 -0.16783863389174758 -0.7051726678287633 -0.18560696290111778 -0.6626481550923077 -0.1883065104936836 0.2876532543840728 -0.4515212235531506
5.7 -0.14909096287743406 -0.32288730556278955 -0.4758270039131073 -0.5647595939186673 -0.4501849195307047 -0.5164880432679402 0.4946220486224907 -0.10656915289191304
5.8 0.07311652622977283 -0.42498136171504464 -0.07225470220432029 -0.7235527804832305 -0.09276857457596331 -0.6917610451062162 0.3647328045922217 0.2567333400082354
5.9 0.32406530804235384 -0.36805582955813887 0.33878278714534893 -0.6244886852236735 0.3330836356521882 -0.644049384173346 -0.021887158062740806 0.3541949786546502
6.0 0.4721397446850269 -0.15582600424991355 0.6231323429716195 -0.3150935279231577 0.6640170008536856 -0.33310898021655166 -0.2770568272492665 0.09348835863634133
6.1 0.45476133017002385 0.07438370831019027 0.6861624523438481 0.10348262125729471 0.7240593329752456 0.12300373905146234 -0.21379247637474416 -0.2246425073806313
6.2 0.30680923136785015 0.22431901901839063 0.4920942470315878 0.49637313335870525 0.4935539595548612 0.5093197629548056 0.03382355613058352 -0.345409125927451
6.3 0.14551305486590646 0.25155183817246357 0.09047867781426328 0.6981930447726911 0.08947837314325063 0.678245522042292 0.2513291568116136 -0.25655889113124525
6.4 0.043004586080859164 0.23048786352935907 -0.3468935089707173 0.6053937804982661 -0.32194939197029054 0.5880757172978465 0.31575067906868187 -0.08623438585101148
6.5 -0.025469416857287597 0.20782016532956504 -0.6304948033179997 0.2753667394906883 -0.6113809744599332 0.2847100559040205 0.27985328691875905 0.043233457400092754
6.6 -0.10722981953562334 0.16216846519701225 -0.670271705869765 -0.13939325270521705 -0.6788750171965494 -0.13174398135273013 0.24875031605872244 0.11809293312985114
6.7 -0.16016863593928501 0.051372027795688745 -0.47687431177496487 -0.5026218863766418 -0.49048313156922485 -0.5161248233780377 0.2206473080020021 0.22112883812297562
6.8 -0.10062839445097381 -0.09066555645045299 -0.10823403294694259 -0.6978787034321626 -0.10723975936888222 -0.7138612113273448 0.12251128927121209 0.33730853016439416
6.9 0.07167647361674781 -0.1406127132421885 0.32070220715992553 -0.6386201375864138 0.3223112647192202 -0.6414555654466875 -0.06485798744412773 0.3672323395940986
7.0 0.23266638762973108 -0.03317807896059087 0.6350963792283323 -0.3336264158733073 0.6266782045814352 -0.33659648578267554 -0.22179114839872094 0.2559350338062698
7.1 0.2751543873046166 0.13042410205139235 0.7125390862002082 0.09666071007882637 0.705717308166514 0.08525475972444518 -0.2553941649753654 0.0474249988863278
7.2 0.23331302255457786 0.2799353758398202 0.5213406397618849 0.49060931058230295 0.5227952354989563 0.4840060133648877 -0.13299704554635006 -0.1196069441934183
7.3 0.1147877004993273 0.37414353828818164 0.12234978892297763 0.7031000449813776 0.1249994280720892 0.7058582342184828 0.07337290292595422 -0.11590123798683256
7.4 -0.04015934843431759 0.42206419906140513 -0.3244705597951688 0.6263148526170509 -0.3252348922340019 0.6314123189176005 0.19186797761435806 0.01865160640329823
7.5 -0.2030924171842378 0.38535568499010353 -0.6290217243181385 0.30072138012269867 -0.6302105578967101 0.30168983532554394 0.17948136035975823 0.19877438196301056
7.6 -0.3269802202841894 0.27875148209158407 -0.6739366985134283 -0.12413790057030938 -0.6753674954845149 -0.12787900269708688 0.05466853549186251 0.3334525750629876
7.7 -0.40047952344448534 0.14702628325301292 -0.4582084171726233 -0.48281237898973167 -0.4610372787707299 -0.4925468034433077 -0.16212189912866057 0.3762327492479358
7.8 -0.43469380951580433 -0.022287707913148547 -0.08297526982768916 -0.639311143946408 -0.08492430076979376 -0.6550515436142049 -0.3886958650122681 0.25629555018012284
7.9 -0.40651485615797983 -0.2320327747267961 0.30032002230719596 -0.540030199200068 0.30276130892456854 -0.5570194825654174 -0.5130556419063961 -0.040294618102798635
8.0 -0.23237043954367156 -0.4235980714613619 0.543516342418079 -0.2621101911874725 0.547118662140204 -0.2741661199367855 -0.4024168421859856 -0.3464788490926742
8.1 0.030034612882517187 -0.47444163051177135 0.5946407851376545 0.08395625580213875 0.5937195819474866 0.08079356326428322 -0.1007146311786492 -0.49555174574447447
8.2 0.27645381504151734 -0.28309733082604577 0.4698634449606429 0.40701146941695465 0.4604798301332667 0.4074726417591962 0.1337858867723415 -0.39970035442190827
8.3 0.28540969802573624 -0.0066377021332003905 0.17449410642557395 0.6195691078128371 0.16266118860475418 0.615505509959936 0.23461964180797384 -0.19641392266020083
8.4 0.08714449570756874 0.1587357768747816 -0.22680068088792107 0.6240754874600659 -0.22398584712868627 0.6205691011884149 0.18444659253226242 -0.020231521527142443
8.5 -0.11242512347422001 0.07330449203714048 -0.5710477962046064 0.366646039154759 -0.5574309858212494 0.3876660913050076 0.056587074476497655 0.07106382593367355
8.6 -0.1264374547074273 -0.08428426445341333 -0.6765524408416524 -0.045583509976332606 -0.6835892628873226 -0.0035686829888366273 -0.06670238788368173 0.10114129317824996
8.7 -0.003925337907360469 -0.1155996601884694 -0.5131667423608013 -0.4249759243951554 -0.5450686310101289 -0.40165174445833546 -0.24510162341959918 0.043076398080916775
8.8 0.04019325793469729 -0.02476006408714957 -0.15859888388213672 -0.6299654701031977 -0.17280118568533656 -0.6415263879469338 -0.3480601756043129 -0.17843743055786151
8.9 -0.04935852887106352 0.02506858062646954 0.25646204658915867 -0.5829597723712125 0.2780814750339392 -0.584936600796067 -0.21433599872567505 -0.4641749723106452
9.0 -0.14924521228229737 -0.06474805526332375 0.5597725863025454 -0.29622990702921514 0.5734560121849657 -0.26694389974182553 0.13876281004160607 -0.5595258587258264
9.1 -0.12290133715617287 -0.24914176665579893 0.6258618977010127 0.11457245326811308 0.6082691476698268 0.1378297014869091 0.46956737181499814 -0.3538251945844303
9.2 0.05724470820539962 -0.3839078579359801 0.44031675732157627 0.4667876160556046 0.425523909146169 0.45869432912857433 0.536954463235539 0.012701616903549762
9.3 0.33893231699104887 -0.3360602789564223 0.09530510045060703 0.6331865271032242 0.10813197247105144 0.6253248542623742 0.35177001869574653 0.2503177407793069
9.4 0.5339807761101119 -0.0914830038646369 -0.26448317154710016 0.5685120752836458 -0.25428278577426766 0.5863639610266357 0.1374073687457095 0.2719880689667951
9.5 0.5217214593757173 0.24520575118522217 -0.5195515252818692 0.3124541851848141 -0.5362128357979314 0.32563494795552483 0.04596362523115226 0.20397098738582795
9.6 0.27534260235872055 0.489464738171309 -0.5925926908865758 -0.029480197428979144 -0.6039996831639889 -0.0456181104815893 0.04699152323879783 0.21796363384204415
9.7 -0.033788952281473786 0.48087819373187946 -0.4721693582265719 -0.37109284818782257 -0.4499300828639097 -0.38628605798436866 -0.05932518820690792 0.25015250582357473
9.8 -0.18753691602304823 0.30192414265074746 -0.17613892616594368 -0.5968129473564517 -0.14731061919820165 -0.5798839849999171 -0.2089957891501105 0.1503266288399791
9.9 -0.1468799913558817 0.19094864351575389 0.21659831183591 -0.6068198564266779 0.2135759118197118 -0.5810169530261033 -0.18983955242981035 -0.09928631716104039
10.0 -0.1242444651817396 0.22608272917539413 0.5341527507009497 -0.3697680130725679 0.519491096738594 -0.372804051206308 0.05541434095825562 -0.237036985016893
10.1 -0.28490884425442786 0.27615150415179224 0.6246675443973341 0.007519143267542432 0.6349450365636696 -0.006450219313407168 0.3762821604934247 -0.07583424485540946
10.2 -0.47453905690315595 0.08922324486968147 0.47780847799049897 0.3623720427084003 0.498613633688646 0.36902192683805923 0.41064823078354584 0.3040418775025993
10.3 -0.4499363196650258 -0.2497223200240372 0.16860036844063164 0.5684619541297788 0.17071851287348236 0.58446766628067 0.11283734641667052 0.5420037512646331
10.4 -0.1402285902988064 -0.48731202868111045 -0.21336119880097817 0.5644785867697866 -0.22162682549297186 0.5662241787344275 -0.251856838833234 0.45046766372729585
10.5 0.26917033413862945 -0.41759199745834535 -0.5215931884407466 0.3341961070338987 -0.5217246796938309 0.32713312905731734 -0.39482741722563025 0.17255219729352933
10.6 0.5016833474153456 -0.08804451377904564 -0.6307759916637081 -0.034200904576172475 -0.6258374663415769 -0.03378003103616614 -0.3148783327592277 -0.06179757434286161
10.7 0.4002176488216664 0.2842057067836117 -0.5025242659912126 -0.39398605544422893 -0.5021023544035383 -0.39028055022413755 -0.17670716874331385 -0.1246671941290731
10.8 0.09130401147570086 0.4955725618315646 -0.1842810094590592 -0.5963178353753135 -0.1846737443349633 -0.5950694750099111 -0.13978933360872023 -0.1861195566323399
10.9 -0.2586554639618369 0.43213485495473897 0.18480773468420755 -0.5759232771956012 0.18718208281490575 -0.5732784748658244 -0.03271519744202464 -0.3150257270794552
11.0 -0.450986401547216 0.16724997799813374 0.4789174510725762 -0.34529647276138836 0.4798213609764758 -0.3381190327828041 0.24716590710415595 -0.32290347951283704
11.1 -0.4182077266411868 -0.10288786958351367 0.5854630492166603 0.01264776410741536 0.5797009442693912 0.017136709703644087 0.49665890350870023 -0.03413406407889015
11.2 -0.2628870633890359 -0.21555129260193967 0.4677233185101514 0.36885081981816975 0.4598633798317823 0.3654894358184122 0.37193568529052795 0.42378610347764306
11.3 -0.2019164260611628 -0.18990474659530823 0.16708699670664634 0.5843905039852111 0.16110741346567606 0.5756540057784982 -0.16011852077613753 0.5914998680167246
11.4 -0.27214741083814237 -0.2215570758747508 -0.19291065117025072 0.5794106590210368 -0.1923022739222923 0.5711084503041075 -0.6295331097727902 0.19272830146322564
11.5 -0.23754706501372608 -0.448738799834307 -0.4622213606783531 0.3568074691178228 -0.462622945640209 0.3547131871647533 -0.5963700040984032 -0.4109878254047253
11.6 0.02886295560511254 -0.608737965339138 -0.5713024017297765 0.03364981540831946 -0.5783860553456236 0.029101438494986462 -0.06694141863163065 -0.6974481089713307
11.7 0.4175769060087505 -0.4647087998691292 -0.4869555522161644 -0.31063400315304 -0.48599447210937874 -0.3267733329989754 0.40152557560203245 -0.4200271853141082
11.8 0.5825496988967159 -0.03934040492654166 -0.2097758616516036 -0.5582300089328747 -0.19031409183847273 -0.5608810761296086 0.3776778096393617 0.04054202144433944
11.9 0.31841314509226804 0.34989312034447556 0.18541955280602557 -0.6002545221292247 0.18763030608411477 -0.5733942728624734 0.010298824757100734 0.16053989091470597
12.0 -0.12659813747472354 0.38270187228485797 0.5241899268416683 -0.3672100667592134 0.4877304264345662 -0.3529372183673549 -0.1511965383448458 -0.0822454085107344
12.1 -0.3717671867006854 0.09268747519088302 0.6332442525030424 0.014830913437219317 0.602414029919792 -0.019830462043224834 0.035629350074685553 -0.2651113079322435
12.2 -0.3004784248123199 -0.21778874958815947 0.48585923015687227 0.37715816225005333 0.5083203226022205 0.3405469500292255 0.24286001576063 -0.11006152283301926
12.3 -0.0935885616580255 -0.32526623122769516 0.1683548189284938 0.5660581070731938 0.20303099219610973 0.5826116452026555 0.10453931393627859 0.18893028635806933
12.4 0.07953530092962013 -0.2929597053215633 -0.18830309636509923 0.5383360305300452 -0.20365721130829523 0.5692239741829018 -0.30833689757887506 0.14859169088162374
12.5 0.14466493416226361 -0.20772873060438252 -0.4611784706735448 0.31781171565222266 -0.4862417105003756 0.30297088060912547 -0.42736664174150263 -0.3290008622992472
